date Tue Mar 11 11:21:52.413 PM 2025
base hex  timestamps absolute
internal events logged
Begin Triggerblock Tue Mar 11 11:21:52.409 PM 2025
 0.000000 Start of measurement
 0.000000 1  41              Rx   d 8 00 00 00 00 00 00 00 00
 0.004505 1  47              Rx   d 8 64 22 BC F4 3B 98 00 00
 0.004691 1  165             Rx   d 8 20 81 00 00 00 00 00 00
 0.004930 1  167             Rx   d 8 00 FF FF 00 00 02 0E 00
 0.005180 1  200             Rx   d 8 00 00 80 26 80 26 F0 00
 0.005433 1  202             Rx   d 8 00 CC 00 00 00 00 00 00
 0.005685 1  204             Rx   d 8 00 00 FF 00 00 00 00 00
 0.005939 1  230             Rx   d 8 F0 1C 00 00 00 00 00 00
 0.014552 1  167             Rx   d 8 00 FF FF 00 00 02 0E 00
 0.014711 1  204             Rx   d 8 00 00 FF 00 00 00 00 00
 0.017704 1  59E             Rx   d 8 9E 00 FF FF FF FF FF FF
 0.019778 1  41              Rx   d 8 00 00 00 00 00 00 00 00
 0.019949 1  242             Rx   d 8 FF FF 3F FF B7 00 03 01
 0.024494 1  47              Rx   d 8 64 22 BC F4 3B 98 00 00
 0.024688 1  165             Rx   d 8 20 81 00 00 00 00 00 00
 0.024931 1  167             Rx   d 8 00 FF FF 00 00 02 0E 00
 0.025170 1  171             Rx   d 8 F0 E0 00 00 00 00 00 00
 0.025406 1  200             Rx   d 8 00 00 80 26 80 26 F0 00
 0.025672 1  202             Rx   d 8 00 CC 00 00 00 00 00 00
 0.025933 1  204             Rx   d 8 00 00 FF 00 00 00 00 00
 0.026168 1  230             Rx   d 8 F0 1C 00 00 00 00 00 00
 0.026397 1  42F             Rx   d 8 7D 02 05 4E 20 FF 00 00
 0.028898 1  42C             Rx   d 8 80 02 00 00 00 00 00 00
 0.029090 1  23A             Rx   d 8 FF FF FF FF F0 00 00 00
 0.029354 1  2F1             Rx   d 8 00 00 00 00 00 00 00 00
 0.029595 1  386             Rx   d 8 00 00 00 00 00 00 00 00
 0.029850 1  430             Rx   d 8 00 00 00 00 FE 00 00 00
 0.030097 1  434             Rx   d 8 00 00 00 00 0F FF 00 10
 0.030362 1  435             Rx   d 8 00 00 00 00 00 00 00 00
 0.030577 1  437             Rx   d 8 00 00 00 00 00 00 00 00
 0.030846 1  438             Rx   d 8 00 00 00 00 00 00 00 00
 0.031089 1  439             Rx   d 8 00 00 04 00 04 00 00 00
 0.031336 1  43A             Rx   d 8 00 00 00 00 00 00 00 00
 0.034541 1  167             Rx   d 8 00 FF FF 00 00 02 0E 00
 0.034710 1  204             Rx   d 8 00 00 FF 00 00 00 00 00
 0.034994 1  43D             Rx   d 8 14 00 21 00 00 00 00 00
 0.035214 1  43E             Rx   d 8 00 00 00 00 00 00 00 00
 0.039634 1  41              Rx   d 8 00 00 00 00 00 00 00 00
 0.044568 1  47              Rx   d 8 64 22 BC F4 3B 98 00 00
 0.044739 1  165             Rx   d 8 20 81 00 00 00 00 00 00
 0.044931 1  167             Rx   d 8 00 FF FF 00 00 02 0E 00
 0.045175 1  200             Rx   d 8 00 00 80 26 80 26 F0 00
 0.045420 1  202             Rx   d 8 00 CC 00 00 00 00 00 00
 0.045682 1  204             Rx   d 8 00 00 FF 00 00 00 00 00
 0.045921 1  230             Rx   d 8 F0 1C 00 00 00 00 00 00
 0.054570 1  167             Rx   d 8 00 FF FF 00 00 02 0E 00
 0.054738 1  171             Rx   d 8 F0 E0 00 00 00 00 00 00
 0.054955 1  204             Rx   d 8 00 00 FF 00 00 00 00 00
 0.055193 1  42F             Rx   d 8 7D 02 05 4E 20 FF 00 00
 0.059167 1  41              Rx   d 8 00 00 00 00 00 00 00 00
 0.059335 1  242             Rx   d 8 FF FF 3F FF B7 00 03 01
 0.061871 1  7DF             Rx   d 8 02 01 10 00 00 00 00 00
 0.064680 1  47              Rx   d 8 64 22 BC F4 3B 98 00 00
 0.064730 1  165             Rx   d 8 20 81 00 00 00 00 00 00
 0.065025 1  167             Rx   d 8 00 FF FF 00 00 02 0E 00
 0.065230 1  200             Rx   d 8 00 00 80 26 80 26 F0 00
 0.065486 1  202             Rx   d 8 00 CC 00 00 00 00 00 00
 0.065764 1  204             Rx   d 8 00 00 FF 00 00 00 00 00
 0.066018 1  230             Rx   d 8 F0 1C 00 00 00 00 00 00
 0.074718 1  167             Rx   d 8 00 FF FF 00 00 02 0E 00
 0.074751 1  204             Rx   d 8 00 00 FF 00 00 00 00 00
 0.079393 1  41              Rx   d 8 00 00 00 00 00 00 00 00
 0.079447 1  3B6             Rx   d 8 0A 00 00 00 00 00 00 00
 0.079462 1  3B7             Rx   d 8 00 00 00 00 00 00 00 00
 0.079904 1  3B8             Rx   d 8 FF FF FF FF 00 00 00 00
 0.079926 1  42C             Rx   d 8 80 02 00 00 00 00 00 00
 0.084570 1  47              Rx   d 8 64 22 BC F4 3B 98 00 00
 0.084758 1  156             Rx   d 8 BA 00 00 00 00 00 00 00
 0.084948 1  165             Rx   d 8 20 81 00 00 00 00 00 00
 0.085198 1  166             Rx   d 8 76 00 00 FF FF FF 00 00
 0.085427 1  167             Rx   d 8 00 FF FF 00 00 02 0E 00
 0.085668 1  171             Rx   d 8 F0 E0 00 00 00 00 00 00
 0.085905 1  178             Rx   d 8 00 00 02 00 02 54 C6 53
 0.086150 1  179             Rx   d 8 00 00 08 00 22 FF 00 00
 0.086397 1  17C             Rx   d 8 00 00 00 00 00 00 00 00
 0.086645 1  200             Rx   d 8 00 00 80 26 80 26 F0 00
 0.086879 1  202             Rx   d 8 00 CC 00 00 00 00 00 00
 0.087140 1  204             Rx   d 8 00 00 FF 00 00 00 00 00
 0.087389 1  230             Rx   d 8 F0 1C 00 00 00 00 00 00
 0.087632 1  421             Rx   d 8 04 00 11 00 00 00 FF 00
 0.087883 1  424             Rx   d 8 00 00 00 03 00 00 00 00
 0.088124 1  42D             Rx   d 8 00 03 FF 00 00 00 F0 00
 0.088371 1  42F             Rx   d 8 7D 02 05 4E 20 FF 00 00
 0.088616 1  43D             Rx   d 8 14 00 21 00 00 00 00 00
 0.088864 1  43E             Rx   d 8 00 00 00 00 00 00 00 00
 0.089105 1  595             Rx   d 8 95 00 FF FF FF FF FF FF
 0.094559 1  167             Rx   d 8 00 FF FF 00 00 02 0E 00
 0.094729 1  204             Rx   d 8 00 00 FF 00 00 00 00 00
 0.098806 1  41              Rx   d 8 00 00 00 00 00 00 00 00
 0.099000 1  242             Rx   d 8 FF FF 3F FF B7 00 03 01
 0.104689 1  47              Rx   d 8 64 22 BC F4 3B 98 00 00
 0.104725 1  165             Rx   d 8 20 81 00 00 00 00 00 00
 0.105004 1  167             Rx   d 8 00 FF FF 00 00 02 0E 00
 0.105225 1  200             Rx   d 8 00 00 80 26 80 26 F0 00
 0.105456 1  202             Rx   d 8 00 CC 00 00 00 00 00 00
 0.105712 1  204             Rx   d 8 00 00 FF 00 00 00 00 00
 0.105966 1  230             Rx   d 8 F0 1C 00 00 00 00 00 00
 0.114558 1  167             Rx   d 8 00 FF FF 00 00 02 0E 00
 0.114724 1  171             Rx   d 8 F0 E0 00 00 00 00 00 00
 0.114939 1  204             Rx   d 8 00 00 FF 00 00 00 00 00
 0.115173 1  42F             Rx   d 8 7D 02 05 4E 20 FF 00 00
 0.117712 1  41              Rx   d 8 00 00 00 00 00 00 00 00
 0.124534 1  47              Rx   d 8 64 22 BC F4 3B 98 00 00
 0.124715 1  165             Rx   d 8 20 81 00 00 00 00 00 00
 0.124931 1  167             Rx   d 8 00 FF FF 00 00 02 0E 00
 0.125166 1  200             Rx   d 8 00 00 80 26 80 26 F0 00
 0.125416 1  202             Rx   d 8 00 CC 00 00 00 00 00 00
 0.125666 1  204             Rx   d 8 00 00 FF 00 00 00 00 00
 0.125915 1  230             Rx   d 8 F0 1C 00 00 00 00 00 00
 0.127183 1  42C             Rx   d 8 80 02 00 00 00 00 00 00
 0.129235 1  23A             Rx   d 8 FF FF FF FF F0 00 00 00
 0.129431 1  430             Rx   d 8 00 00 00 00 FE 00 00 00
 0.129680 1  434             Rx   d 8 00 00 00 00 0F FF 00 10
 0.129929 1  435             Rx   d 8 00 00 00 00 00 00 00 00
 0.134810 1  167             Rx   d 8 00 FF FF 00 00 02 0E 00
 0.134861 1  204             Rx   d 8 00 00 FF 00 00 00 00 00
 0.135307 1  43D             Rx   d 8 14 00 21 00 00 00 00 00
 0.135335 1  43E             Rx   d 8 00 00 00 00 00 00 00 00
 0.138119 1  41              Rx   d 8 00 00 00 00 00 00 00 00
 0.138161 1  242             Rx   d 8 FF FF 3F FF B7 00 03 01
 0.138420 1  3B5             Rx   d 8 FF FD FF FD FF FD FF FD
 0.144724 1  47              Rx   d 8 64 22 BC F4 3B 98 00 00
 0.144773 1  165             Rx   d 8 20 81 00 00 00 00 00 00
 0.145525 1  167             Rx   d 8 00 FF FF 00 00 02 0E 00
 0.145562 1  171             Rx   d 8 F0 E0 00 00 00 00 00 00
 0.145570 1  200             Rx   d 8 00 00 80 26 80 26 F0 00
 0.146087 1  202             Rx   d 8 00 CC 00 00 00 00 00 00
 0.146127 1  204             Rx   d 8 00 00 FF 00 00 00 00 00
 0.146600 1  230             Rx   d 8 F0 1C 00 00 00 00 00 00
 0.146633 1  42F             Rx   d 8 7D 02 05 4E 20 FF 00 00
 0.154561 1  167             Rx   d 8 00 FF FF 00 00 02 0E 00
 0.154751 1  204             Rx   d 8 00 00 FF 00 00 00 00 00
 0.157046 1  41              Rx   d 8 00 00 00 00 00 00 00 00
 0.164565 1  47              Rx   d 8 64 22 BC F4 3B 98 00 00
 0.164734 1  165             Rx   d 8 20 81 00 00 00 00 00 00
 0.164929 1  167             Rx   d 8 00 FF FF 00 00 02 0E 00
 0.165167 1  200             Rx   d 8 00 00 80 26 80 26 F0 00
 0.165416 1  202             Rx   d 8 00 CC 00 00 00 00 00 00
 0.165663 1  204             Rx   d 8 00 00 FF 00 00 00 00 00
 0.165915 1  230             Rx   d 8 F0 1C 00 00 00 00 00 00
 0.174750 1  167             Rx   d 8 00 FF FF 00 00 02 0E 00
 0.174791 1  171             Rx   d 8 F0 E0 00 00 00 00 00 00
 0.174982 1  204             Rx   d 8 00 00 FF 00 00 00 00 00
 0.175212 1  42F             Rx   d 8 7D 02 05 4E 20 FF 00 00
 0.177677 1  41              Rx   d 8 00 00 00 00 00 00 00 00
 0.177728 1  242             Rx   d 8 FF FF 3F FF B7 00 03 01
 0.178141 1  3B3             Rx   d 8 44 8C C0 0C E6 00 03 3E
 0.178174 1  40A             Rx   d 8 C1 00 57 46 30 4A 58 58
 0.178591 1  42C             Rx   d 8 80 02 00 00 00 00 00 00
 0.185024 1  47              Rx   d 8 64 22 BC F4 3B 98 00 00
 0.185067 1  156             Rx   d 8 BA 00 00 00 00 00 00 00
 0.185075 1  165             Rx   d 8 20 81 00 00 00 00 00 00
 0.185313 1  166             Rx   d 8 76 00 00 FF FF FF 00 00
 0.185470 1  167             Rx   d 8 00 FF FF 00 00 02 0E 00
 0.185765 1  178             Rx   d 8 00 00 02 00 02 54 C6 53
 0.186204 1  179             Rx   d 8 00 00 08 00 22 FF 00 00
 0.186225 1  17C             Rx   d 8 00 00 00 00 00 00 00 00
 0.186726 1  200             Rx   d 8 00 00 80 26 80 26 F0 00
 0.186758 1  202             Rx   d 8 00 CC 00 00 00 00 00 00
 0.187224 1  204             Rx   d 8 00 00 FF 00 00 00 00 00
 0.187255 1  230             Rx   d 8 F0 1C 00 00 00 00 00 00
 0.187747 1  421             Rx   d 8 04 00 11 00 00 00 FF 00
 0.187778 1  424             Rx   d 8 00 00 00 03 00 00 00 00
 0.188190 1  42D             Rx   d 8 00 03 FF 00 00 00 F0 00
 0.188209 1  43D             Rx   d 8 14 00 21 00 00 00 00 00
 0.188495 1  43E             Rx   d 8 00 00 00 00 00 00 00 00
 0.194569 1  167             Rx   d 8 00 FF FF 00 00 02 0E 00
 0.194784 1  204             Rx   d 8 00 00 FF 00 00 00 00 00
 0.196871 1  41              Rx   d 8 00 00 00 00 00 00 00 00
 0.204560 1  47              Rx   d 8 64 22 BC F4 3B 98 00 00
 0.204771 1  165             Rx   d 8 20 81 00 00 00 00 00 00
 0.204972 1  167             Rx   d 8 00 FF FF 00 00 02 0E 00
 0.205222 1  171             Rx   d 8 F0 E0 00 00 00 00 00 00
 0.205451 1  200             Rx   d 8 00 00 80 26 80 26 F0 00
 0.205706 1  202             Rx   d 8 00 CC 00 00 00 00 00 00
 0.205936 1  84              Rx   d 8 00 00 00 01 02 17 0C 00
 0.206192 1  204             Rx   d 8 00 00 FF 00 00 00 00 00
 0.206465 1  230             Rx   d 8 F0 1C 00 00 00 00 00 00
 0.206717 1  42F             Rx   d 8 7D 02 05 4E 20 FF 00 00
 0.214834 1  167             Rx   d 8 00 FF FF 00 00 02 0E 00
 0.214867 1  204             Rx   d 8 00 00 FF 00 00 00 00 00
 0.216627 1  41              Rx   d 8 00 00 00 00 00 00 00 00
 0.216666 1  242             Rx   d 8 FF FF 3F FF B7 00 03 01
 0.224543 1  47              Rx   d 8 64 22 BC F4 3B 98 00 00
 0.224754 1  165             Rx   d 8 20 81 00 00 00 00 00 00
 0.224941 1  167             Rx   d 8 00 FF FF 00 00 02 0E 00
 0.225184 1  200             Rx   d 8 00 00 80 26 80 26 F0 00
 0.225420 1  202             Rx   d 8 00 CC 00 00 00 00 00 00
 0.225667 1  204             Rx   d 8 00 00 FF 00 00 00 00 00
 0.225929 1  230             Rx   d 8 F0 1C 00 00 00 00 00 00
 0.226171 1  42C             Rx   d 8 80 02 00 00 00 00 00 00
 0.229268 1  23A             Rx   d 8 FF FF FF FF F0 00 00 00
 0.229522 1  430             Rx   d 8 00 00 00 00 FE 00 00 00
 0.229743 1  434             Rx   d 8 00 00 00 00 0F FF 00 10
 0.229985 1  435             Rx   d 8 00 00 00 00 00 00 00 00
 0.234589 1  167             Rx   d 8 00 FF FF 00 00 02 0E 00
 0.234767 1  171             Rx   d 8 F0 E0 00 00 00 00 00 00
 0.235031 1  204             Rx   d 8 00 00 FF 00 00 00 00 00
 0.235222 1  42F             Rx   d 8 7D 02 05 4E 20 FF 00 00
 0.235524 1  43D             Rx   d 8 14 00 21 00 00 00 00 00
 0.235727 1  43E             Rx   d 8 00 00 00 00 00 00 00 00
 0.236007 1  41              Rx   d 8 00 00 00 00 00 00 00 00
 0.244811 1  47              Rx   d 8 64 22 BC F4 3B 98 00 00
 0.244860 1  165             Rx   d 8 20 81 00 00 00 00 00 00
 0.245258 1  167             Rx   d 8 00 FF FF 00 00 02 0E 00
 0.245284 1  200             Rx   d 8 00 00 80 26 80 26 F0 00
 0.245523 1  202             Rx   d 8 00 CC 00 00 00 00 00 00
 0.245737 1  204             Rx   d 8 00 00 FF 00 00 00 00 00
 0.246172 1  230             Rx   d 8 F0 1C 00 00 00 00 00 00
 0.254876 1  167             Rx   d 8 00 FF FF 00 00 02 0E 00
 0.254942 1  204             Rx   d 8 00 00 FF 00 00 00 00 00
 0.256130 1  41              Rx   d 8 00 00 00 00 00 00 00 00
 0.256175 1  242             Rx   d 8 FF FF 3F FF B7 00 03 01
 0.264549 1  47              Rx   d 8 64 22 BC F4 3B 98 00 00
 0.264723 1  165             Rx   d 8 20 81 00 00 00 00 00 00
 0.264938 1  167             Rx   d 8 00 FF FF 00 00 02 0E 00
 0.265172 1  171             Rx   d 8 F0 E0 00 00 00 00 00 00
 0.265416 1  200             Rx   d 8 00 00 80 26 80 26 F0 00
 0.265676 1  202             Rx   d 8 00 CC 00 00 00 00 00 00
 0.265924 1  204             Rx   d 8 00 00 FF 00 00 00 00 00
 0.266160 1  230             Rx   d 8 F0 1C 00 00 00 00 00 00
 0.266397 1  42F             Rx   d 8 7D 02 05 4E 20 FF 00 00
 0.274573 1  167             Rx   d 8 00 FF FF 00 00 02 0E 00
 0.274749 1  204             Rx   d 8 00 00 FF 00 00 00 00 00
 0.275446 1  41              Rx   d 8 00 00 00 00 00 00 00 00
 0.275690 1  42C             Rx   d 8 80 02 00 00 00 00 00 00
 0.277952 1  7DF             Rx   d 8 02 01 03 00 00 00 00 00
 0.284669 1  331             Rx   d 8 C0 00 48 DF 02 00 00 00
 0.284717 1  47              Rx   d 8 64 22 BC F4 3B 98 00 00
 0.284947 1  156             Rx   d 8 BA 00 00 00 00 00 00 00
 0.285229 1  165             Rx   d 8 20 81 00 00 00 00 00 00
 0.285459 1  166             Rx   d 8 76 00 00 FF FF FF 00 00
 0.285688 1  167             Rx   d 8 00 FF FF 00 00 02 0E 00
 0.285910 1  178             Rx   d 8 00 00 02 00 02 54 C6 53
 0.286126 1  179             Rx   d 8 00 00 08 00 22 FF 00 00
 0.286467 1  17C             Rx   d 8 00 00 00 00 00 00 00 00
 0.286957 1  200             Rx   d 8 00 00 80 26 80 26 F0 00
 0.286999 1  202             Rx   d 8 00 CC 00 00 00 00 00 00
 0.287924 1  204             Rx   d 8 00 00 FF 00 00 00 00 00
 0.287969 1  230             Rx   d 8 F0 1C 00 00 00 00 00 00
 0.287974 1  421             Rx   d 8 04 00 11 00 00 00 FF 00
 0.287980 1  424             Rx   d 8 00 00 00 03 00 00 00 00
 0.288352 1  42D             Rx   d 8 00 03 FF 00 00 00 F0 00
 0.288378 1  43D             Rx   d 8 14 00 21 00 00 00 00 00
 0.288619 1  43E             Rx   d 8 00 00 00 00 00 00 00 00
 0.295064 1  167             Rx   d 8 00 FF FF 00 00 02 0E 00
 0.295128 1  171             Rx   d 8 F0 E0 00 00 00 00 00 00
 0.295137 1  204             Rx   d 8 00 00 FF 00 00 00 00 00
 0.295745 1  42F             Rx   d 8 7D 02 05 4E 20 FF 00 00
 0.295775 1  41              Rx   d 8 00 00 00 00 00 00 00 00
 0.295780 1  242             Rx   d 8 FF FF 3F FF B7 00 03 01
 0.297738 1  7E8             Rx   d 8 04 41 03 01 00 00 00 00
 0.304546 1  47              Rx   d 8 64 22 BC F4 3B 98 00 00
 0.304765 1  165             Rx   d 8 20 81 00 00 00 00 00 00
 0.304931 1  167             Rx   d 8 00 FF FF 00 00 02 0E 00
 0.305211 1  200             Rx   d 8 00 00 80 26 80 26 F0 00
 0.305468 1  202             Rx   d 8 00 CC 00 00 00 00 00 00
 0.305714 1  204             Rx   d 8 00 00 FF 00 00 00 00 00
 0.305947 1  230             Rx   d 8 F0 1C 00 00 00 00 00 00
 0.314273 1  41              Rx   d 8 00 00 00 00 00 00 00 00
 0.314475 1  167             Rx   d 8 00 FF FF 00 00 02 0E 00
 0.314696 1  204             Rx   d 8 00 00 FF 00 00 00 00 00
 0.324584 1  3B6             Rx   d 8 0A 00 00 00 00 00 00 00
 0.324669 1  3B7             Rx   d 8 00 00 00 00 00 00 00 00
 0.324683 1  42C             Rx   d 8 80 02 00 00 00 00 00 00
 0.324694 1  47              Rx   d 8 64 22 BC F4 3B 98 00 00
 0.325295 1  165             Rx   d 8 20 81 00 00 00 00 00 00
 0.325320 1  167             Rx   d 8 00 FF FF 00 00 02 0E 00
 0.325328 1  171             Rx   d 8 F0 E0 00 00 00 00 00 00
 0.325517 1  200             Rx   d 8 00 00 80 26 80 26 F0 00
 0.325805 1  202             Rx   d 8 00 CC 00 00 00 00 00 00
 0.325998 1  204             Rx   d 8 00 00 FF 00 00 00 00 00
 0.326240 1  230             Rx   d 8 F0 1C 00 00 00 00 00 00
 0.326447 1  42F             Rx   d 8 7D 02 05 4E 20 FF 00 00
 0.330298 1  23A             Rx   d 8 FF FF FF FF F0 00 00 00
 0.330364 1  430             Rx   d 8 00 00 00 00 FE 00 00 00
 0.330372 1  434             Rx   d 8 00 00 00 00 0F FF 00 10
 0.330379 1  435             Rx   d 8 00 00 00 00 00 00 00 00
 0.334453 1  41              Rx   d 8 00 00 00 00 00 00 00 00
 0.334621 1  167             Rx   d 8 00 FF FF 00 00 02 0E 00
 0.334844 1  204             Rx   d 8 00 00 FF 00 00 00 00 00
 0.335081 1  242             Rx   d 8 FF FF 3F FF B7 00 03 01
 0.335320 1  43D             Rx   d 8 14 00 21 00 00 00 00 00
 0.335612 1  43E             Rx   d 8 00 00 00 00 00 00 00 00
 0.344568 1  47              Rx   d 8 64 22 BC F4 3B 98 00 00
 0.344785 1  165             Rx   d 8 20 81 00 00 00 00 00 00
 0.344946 1  167             Rx   d 8 00 FF FF 00 00 02 0E 00
 0.345214 1  200             Rx   d 8 00 00 80 26 80 26 F0 00
 0.345461 1  202             Rx   d 8 00 CC 00 00 00 00 00 00
 0.345710 1  204             Rx   d 8 00 00 FF 00 00 00 00 00
 0.345933 1  230             Rx   d 8 F0 1C 00 00 00 00 00 00
 0.353654 1  41              Rx   d 8 00 00 00 00 00 00 00 00
 0.354600 1  167             Rx   d 8 00 FF FF 00 00 02 0E 00
 0.354832 1  171             Rx   d 8 F0 E0 00 00 00 00 00 00
 0.355052 1  204             Rx   d 8 00 00 FF 00 00 00 00 00
 0.355266 1  42F             Rx   d 8 7D 02 05 4E 20 FF 00 00
 0.362063 1  7DF             Rx   d 8 02 01 03 00 00 00 00 00
 0.364658 1  47              Rx   d 8 64 22 BC F4 3B 98 00 00
 0.364682 1  165             Rx   d 8 20 81 00 00 00 00 00 00
 0.364964 1  167             Rx   d 8 00 FF FF 00 00 02 0E 00
 0.365184 1  200             Rx   d 8 00 00 80 26 80 26 F0 00
 0.365437 1  202             Rx   d 8 00 CC 00 00 00 00 00 00
 0.365683 1  204             Rx   d 8 00 00 FF 00 00 00 00 00
 0.365961 1  230             Rx   d 8 F0 1C 00 00 00 00 00 00
 0.374001 1  41              Rx   d 8 00 00 00 00 00 00 00 00
 0.374163 1  242             Rx   d 8 FF FF 3F FF B7 00 03 01
 0.374419 1  40A             Rx   d 8 C1 01 47 41 48 4A 48 45
 0.374648 1  167             Rx   d 8 00 FF FF 00 00 02 0E 00
 0.374892 1  204             Rx   d 8 00 00 FF 00 00 00 00 00
 0.375136 1  42C             Rx   d 8 80 02 00 00 00 00 00 00
 0.384697 1  47              Rx   d 8 64 22 BC F4 3B 98 00 00
 0.384732 1  156             Rx   d 8 BA 00 00 00 00 00 00 00
 0.385035 1  165             Rx   d 8 20 81 00 00 00 00 00 00
 0.385211 1  166             Rx   d 8 76 00 00 FF FF FF 00 00
 0.385448 1  167             Rx   d 8 00 FF FF 00 00 02 0E 00
 0.385726 1  171             Rx   d 8 F0 E0 00 00 00 00 00 00
 0.385929 1  178             Rx   d 8 00 00 02 00 02 54 C6 53
 0.386155 1  179             Rx   d 8 00 00 08 00 22 FF 00 00
 0.386405 1  17C             Rx   d 8 00 00 00 00 00 00 00 00
 0.386640 1  200             Rx   d 8 00 00 80 26 80 26 F0 00
 0.386898 1  202             Rx   d 8 00 CC 00 00 00 00 00 00
 0.387151 1  204             Rx   d 8 00 00 FF 00 00 00 00 00
 0.387416 1  230             Rx   d 8 F0 1C 00 00 00 00 00 00
 0.387627 1  421             Rx   d 8 04 00 11 00 00 00 FF 00
 0.387880 1  424             Rx   d 8 00 00 00 03 00 00 00 00
 0.388134 1  42D             Rx   d 8 00 03 FF 00 00 00 F0 00
 0.388368 1  42F             Rx   d 8 7D 02 05 4E 20 FF 00 00
 0.388649 1  43D             Rx   d 8 14 00 21 00 00 00 00 00
 0.388875 1  43E             Rx   d 8 00 00 00 00 00 00 00 00
 0.389114 1  7E8             Rx   d 8 04 41 03 01 00 00 00 00
 0.393454 1  41              Rx   d 8 00 00 00 00 00 00 00 00
 0.394770 1  167             Rx   d 8 00 FF FF 00 00 02 0E 00
 0.394809 1  204             Rx   d 8 00 00 FF 00 00 00 00 00
 0.404716 1  47              Rx   d 8 64 22 BC F4 3B 98 00 00
 0.404768 1  165             Rx   d 8 20 81 00 00 00 00 00 00
 0.405031 1  167             Rx   d 8 00 FF FF 00 00 02 0E 00
 0.405550 1  200             Rx   d 8 00 00 80 26 80 26 F0 00
 0.405592 1  202             Rx   d 8 00 CC 00 00 00 00 00 00
 0.406238 1  204             Rx   d 8 00 00 FF 00 00 00 00 00
 0.406294 1  230             Rx   d 8 F0 1C 00 00 00 00 00 00
 0.412995 1  41              Rx   d 8 00 00 00 00 00 00 00 00
 0.413165 1  242             Rx   d 8 FF FF 3F FF B7 00 03 01
 0.414511 1  167             Rx   d 8 00 FF FF 00 00 02 0E 00
 0.414694 1  171             Rx   d 8 F0 E0 00 00 00 00 00 00
 0.414939 1  204             Rx   d 8 00 00 FF 00 00 00 00 00
 0.415181 1  42F             Rx   d 8 7D 02 05 4E 20 FF 00 00
 0.422103 1  42C             Rx   d 8 80 02 00 00 00 00 00 00
 0.424535 1  47              Rx   d 8 64 22 BC F4 3B 98 00 00
 0.424703 1  165             Rx   d 8 20 81 00 00 00 00 00 00
 0.424933 1  167             Rx   d 8 00 FF FF 00 00 02 0E 00
 0.425163 1  200             Rx   d 8 00 00 80 26 80 26 F0 00
 0.425416 1  202             Rx   d 8 00 CC 00 00 00 00 00 00
 0.425673 1  204             Rx   d 8 00 00 FF 00 00 00 00 00
 0.425924 1  230             Rx   d 8 F0 1C 00 00 00 00 00 00
 0.429153 1  23A             Rx   d 8 FF FF FF FF F0 00 00 00
 0.429344 1  430             Rx   d 8 00 00 00 00 FE 00 00 00
 0.429570 1  434             Rx   d 8 00 00 00 00 0F FF 00 10
 0.429803 1  435             Rx   d 8 00 00 00 00 00 00 00 00
 0.432345 1  41              Rx   d 8 00 00 00 00 00 00 00 00
 0.434756 1  167             Rx   d 8 00 FF FF 00 00 02 0E 00
 0.434794 1  204             Rx   d 8 00 00 FF 00 00 00 00 00
 0.435016 1  43D             Rx   d 8 14 00 21 00 00 00 00 00
 0.435236 1  43E             Rx   d 8 00 00 00 00 00 00 00 00
 0.444976 1  47              Rx   d 8 64 22 BC F4 3B 98 00 00
 0.445008 1  165             Rx   d 8 20 81 00 00 00 00 00 00
 0.445014 1  167             Rx   d 8 00 FF FF 00 00 02 0E 00
 0.445250 1  171             Rx   d 8 F0 E0 00 00 00 00 00 00
 0.445429 1  200             Rx   d 8 00 00 80 26 80 26 F0 00
 0.445771 1  202             Rx   d 8 00 CC 00 00 00 00 00 00
 0.446060 1  204             Rx   d 8 00 00 FF 00 00 00 00 00
 0.446490 1  230             Rx   d 8 F0 1C 00 00 00 00 00 00
 0.446517 1  42F             Rx   d 8 7D 02 05 4E 20 FF 00 00
 0.452317 1  41              Rx   d 8 00 00 00 00 00 00 00 00
 0.452496 1  242             Rx   d 8 FF FF 3F FF B7 00 03 01
 0.454530 1  167             Rx   d 8 00 FF FF 00 00 02 0E 00
 0.454713 1  204             Rx   d 8 00 00 FF 00 00 00 00 00
 0.461311 1  7DF             Rx   d 8 02 01 11 00 00 00 00 00
 0.464554 1  47              Rx   d 8 64 22 BC F4 3B 98 00 00
 0.464727 1  165             Rx   d 8 20 81 00 00 00 00 00 00
 0.464922 1  167             Rx   d 8 00 FF FF 00 00 02 0E 00
 0.465161 1  200             Rx   d 8 00 00 80 26 80 26 F0 00
 0.465417 1  202             Rx   d 8 00 CC 00 00 00 00 00 00
 0.465672 1  204             Rx   d 8 00 00 FF 00 00 00 00 00
 0.465919 1  230             Rx   d 8 F0 1C 00 00 00 00 00 00
 0.472113 1  41              Rx   d 8 00 00 00 00 00 00 00 00
 0.472319 1  42C             Rx   d 8 80 02 00 00 00 00 00 00
 0.474808 1  167             Rx   d 8 00 FF FF 00 00 02 0E 00
 0.474862 1  171             Rx   d 8 F0 E0 00 00 00 00 00 00
 0.475270 1  204             Rx   d 8 00 00 FF 00 00 00 00 00
 0.475292 1  42F             Rx   d 8 7D 02 05 4E 20 FF 00 00
 0.477852 1  7E8             Rx   d 8 03 41 11 FE 00 00 00 00
 0.484823 1  47              Rx   d 8 64 22 BC F4 3B 98 00 00
 0.484882 1  156             Rx   d 8 BA 00 00 00 00 00 00 00
 0.485187 1  165             Rx   d 8 20 81 00 00 00 00 00 00
 0.485215 1  166             Rx   d 8 76 00 00 FF FF FF 00 00
 0.485417 1  167             Rx   d 8 00 FF FF 00 00 02 0E 00
 0.485671 1  178             Rx   d 8 00 00 02 00 02 54 C6 53
 0.485911 1  179             Rx   d 8 00 00 08 00 22 FF 00 00
 0.486150 1  17C             Rx   d 8 00 00 00 00 00 00 00 00
 0.486383 1  200             Rx   d 8 00 00 80 26 80 26 F0 00
 0.486628 1  202             Rx   d 8 00 CC 00 00 00 00 00 00
 0.486880 1  204             Rx   d 8 00 00 FF 00 00 00 00 00
 0.487147 1  230             Rx   d 8 F0 1C 00 00 00 00 00 00
 0.487381 1  421             Rx   d 8 04 00 11 00 00 00 FF 00
 0.487624 1  424             Rx   d 8 00 00 00 03 00 00 00 00
 0.487863 1  42D             Rx   d 8 00 03 FF 00 00 00 F0 00
 0.488121 1  43D             Rx   d 8 14 00 21 00 00 00 00 00
 0.488390 1  43E             Rx   d 8 00 00 00 00 00 00 00 00
 0.491831 1  41              Rx   d 8 00 00 00 00 00 00 00 00
 0.492031 1  242             Rx   d 8 FF FF 3F FF B7 00 03 01
 0.494538 1  167             Rx   d 8 00 FF FF 00 00 02 0E 00
 0.494720 1  204             Rx   d 8 00 00 FF 00 00 00 00 00
 0.504669 1  47              Rx   d 8 64 22 BC F4 3B 98 00 00
 0.504712 1  165             Rx   d 8 20 81 00 00 00 00 00 00
 0.504986 1  167             Rx   d 8 00 FF FF 00 00 02 0E 00
 0.505206 1  171             Rx   d 8 F0 E0 00 00 00 00 00 00
 0.505452 1  200             Rx   d 8 00 00 80 26 80 26 F0 00
 0.505717 1  202             Rx   d 8 00 CC 00 00 00 00 00 00
 0.506017 1  204             Rx   d 8 00 00 FF 00 00 00 00 00
 0.506268 1  230             Rx   d 8 F0 1C 00 00 00 00 00 00
 0.506480 1  42F             Rx   d 8 7D 02 05 4E 20 FF 00 00
 0.511257 1  41              Rx   d 8 00 00 00 00 00 00 00 00
 0.514736 1  167             Rx   d 8 00 FF FF 00 00 02 0E 00
 0.514768 1  204             Rx   d 8 00 00 FF 00 00 00 00 00
 0.520710 1  42C             Rx   d 8 80 02 00 00 00 00 00 00
 0.524511 1  47              Rx   d 8 64 22 BC F4 3B 98 00 00
 0.524709 1  165             Rx   d 8 20 81 00 00 00 00 00 00
 0.524961 1  167             Rx   d 8 00 FF FF 00 00 02 0E 00
 0.525167 1  200             Rx   d 8 00 00 80 26 80 26 F0 00
 0.525412 1  202             Rx   d 8 00 CC 00 00 00 00 00 00
 0.525667 1  204             Rx   d 8 00 00 FF 00 00 00 00 00
 0.525928 1  230             Rx   d 8 F0 1C 00 00 00 00 00 00
 0.529158 1  23A             Rx   d 8 FF FF FF FF F0 00 00 00
 0.529381 1  430             Rx   d 8 00 00 00 00 FE 00 00 00
 0.529588 1  434             Rx   d 8 00 00 00 00 0F FF 00 10
 0.529819 1  435             Rx   d 8 00 00 00 00 00 00 00 00
 0.531209 1  41              Rx   d 8 00 00 00 00 00 00 00 00
 0.531367 1  242             Rx   d 8 FF FF 3F FF B7 00 03 01
 0.534584 1  167             Rx   d 8 00 FF FF 00 00 02 0E 00
 0.534765 1  171             Rx   d 8 F0 E0 00 00 00 00 00 00
 0.534992 1  204             Rx   d 8 00 00 FF 00 00 00 00 00
 0.535231 1  42F             Rx   d 8 7D 02 05 4E 20 FF 00 00
 0.535493 1  43D             Rx   d 8 14 00 21 00 00 00 00 00
 0.535764 1  43E             Rx   d 8 00 00 00 00 00 00 00 00
 0.541428 1  7DF             Rx   d 8 02 01 0C 00 00 00 00 00
 0.544785 1  47              Rx   d 8 64 22 BC F4 3B 98 00 00
 0.544831 1  165             Rx   d 8 20 81 00 00 00 00 00 00
 0.545218 1  167             Rx   d 8 00 FF FF 00 00 02 0E 00
 0.545239 1  200             Rx   d 8 00 00 80 26 80 26 F0 00
 0.545691 1  202             Rx   d 8 00 CC 00 00 00 00 00 00
 0.545717 1  204             Rx   d 8 00 00 FF 00 00 00 00 00
 0.546050 1  230             Rx   d 8 F0 1C 00 00 00 00 00 00
 0.550580 1  41              Rx   d 8 00 00 00 00 00 00 00 00
 0.554564 1  167             Rx   d 8 00 FF FF 00 00 02 0E 00
 0.554761 1  204             Rx   d 8 00 00 FF 00 00 00 00 00
 0.556680 1  581             Rx   d 8 81 00 FF FF FF FF FF FF
 0.564536 1  47              Rx   d 8 64 22 BC F4 3B 98 00 00
 0.564690 1  165             Rx   d 8 20 81 00 00 00 00 00 00
 0.564934 1  167             Rx   d 8 00 FF FF 00 00 02 0E 00
 0.565180 1  171             Rx   d 8 F0 E0 00 00 00 00 00 00
 0.565404 1  200             Rx   d 8 00 00 80 26 80 26 F0 00
 0.565656 1  202             Rx   d 8 00 CC 00 00 00 00 00 00
 0.565918 1  204             Rx   d 8 00 00 FF 00 00 00 00 00
 0.566150 1  230             Rx   d 8 F0 1C 00 00 00 00 00 00
 0.566390 1  42F             Rx   d 8 7D 02 05 4E 20 FF 00 00
 0.567720 1  7E8             Rx   d 8 04 41 0C 00 00 00 00 00
 0.570643 1  41              Rx   d 8 00 00 00 00 00 00 00 00
 0.570830 1  242             Rx   d 8 FF FF 3F FF B7 00 03 01
 0.571063 1  38D             Rx   d 8 20 00 00 00 00 00 00 F0
 0.571302 1  3B1             Rx   d 8 00 00 00 00 00 00 00 00
 0.571554 1  3B6             Rx   d 8 0A 00 00 00 00 00 00 00
 0.571800 1  3B7             Rx   d 8 00 00 00 00 00 00 00 00
 0.572042 1  3B8             Rx   d 8 FF FF FF FF 00 00 00 00
 0.572305 1  3E3             Rx   d 8 00 00 00 00 80 00 00 00
 0.572572 1  3EB             Rx   d 8 00 04 04 00 00 00 00 00
 0.572831 1  40A             Rx   d 8 C1 02 32 38 38 33 36 00
 0.573103 1  42C             Rx   d 8 80 02 00 00 00 00 00 00
 0.573327 1  43C             Rx   d 8 B2 00 4B 2C 3C 99 88 14
 0.573585 1  447             Rx   d 8 20 00 00 4B 00 20 00 00
 0.574526 1  167             Rx   d 8 00 FF FF 00 00 02 0E 00
 0.574712 1  204             Rx   d 8 00 00 FF 00 00 00 00 00
 0.584839 1  47              Rx   d 8 64 22 BC F4 3B 98 00 00
 0.584896 1  156             Rx   d 8 BA 00 00 00 00 00 00 00
 0.585177 1  165             Rx   d 8 20 81 00 00 00 00 00 00
 0.585188 1  166             Rx   d 8 76 00 00 FF FF FF 00 00
 0.585466 1  167             Rx   d 8 00 FF FF 00 00 02 0E 00
 0.585681 1  178             Rx   d 8 00 00 02 00 02 54 C6 53
 0.585905 1  179             Rx   d 8 00 00 08 00 22 FF 00 00
 0.586250 1  17C             Rx   d 8 00 00 00 00 00 00 00 00
 0.586535 1  200             Rx   d 8 00 00 80 26 80 26 F0 00
 0.586759 1  202             Rx   d 8 00 CC 00 00 00 00 00 00
 0.586962 1  204             Rx   d 8 00 00 FF 00 00 00 00 00
 0.587225 1  230             Rx   d 8 F0 1C 00 00 00 00 00 00
 0.587460 1  421             Rx   d 8 04 00 11 00 00 00 FF 00
 0.587717 1  424             Rx   d 8 00 00 00 03 00 00 00 00
 0.587943 1  42D             Rx   d 8 00 03 FF 00 00 00 F0 00
 0.588228 1  43D             Rx   d 8 14 00 21 00 00 00 00 00
 0.588428 1  43E             Rx   d 8 00 00 00 00 00 00 00 00
 0.589912 1  41              Rx   d 8 00 00 00 00 00 00 00 00
 0.595355 1  167             Rx   d 8 00 FF FF 00 00 02 0E 00
 0.595422 1  171             Rx   d 8 F0 E0 00 00 00 00 00 00
 0.595432 1  204             Rx   d 8 00 00 FF 00 00 00 00 00
 0.595437 1  42F             Rx   d 8 7D 02 05 4E 20 FF 00 00
 0.604558 1  47              Rx   d 8 64 22 BC F4 3B 98 00 00
 0.604766 1  165             Rx   d 8 20 81 00 00 00 00 00 00
 0.604958 1  167             Rx   d 8 00 FF FF 00 00 02 0E 00
 0.605182 1  200             Rx   d 8 00 00 80 26 80 26 F0 00
 0.605431 1  202             Rx   d 8 00 CC 00 00 00 00 00 00
 0.605671 1  204             Rx   d 8 00 00 FF 00 00 00 00 00
 0.605906 1  230             Rx   d 8 F0 1C 00 00 00 00 00 00
 0.609615 1  41              Rx   d 8 00 00 00 00 00 00 00 00
 0.609804 1  242             Rx   d 8 FF FF 3F FF B7 00 03 01
 0.614574 1  167             Rx   d 8 00 FF FF 00 00 02 0E 00
 0.614734 1  204             Rx   d 8 00 00 FF 00 00 00 00 00
 0.618784 1  3B4             Rx   d 8 34 21 11 FF 1E 1A 00 00
 0.619036 1  42C             Rx   d 8 80 02 00 00 00 00 00 00
 0.624985 1  47              Rx   d 8 64 22 BC F4 3B 98 00 00
 0.625035 1  165             Rx   d 8 20 81 00 00 00 00 00 00
 0.625044 1  167             Rx   d 8 00 FF FF 00 00 02 0E 00
 0.625447 1  171             Rx   d 8 F0 E0 00 00 00 00 00 00
 0.625474 1  200             Rx   d 8 00 00 80 26 80 26 F0 00
 0.625784 1  202             Rx   d 8 00 CC 00 00 00 00 00 00
 0.626030 1  204             Rx   d 8 00 00 FF 00 00 00 00 00
 0.626483 1  230             Rx   d 8 F0 1C 00 00 00 00 00 00
 0.626525 1  42F             Rx   d 8 7D 02 05 4E 20 FF 00 00
 0.628635 1  7DF             Rx   d 8 02 01 0D 00 00 00 00 00
 0.628827 1  41              Rx   d 8 00 00 00 00 00 00 00 00
 0.629039 1  3B5             Rx   d 8 FF FD FF FD FF FD FF FD
 0.629279 1  23A             Rx   d 8 FF FF FF FF F0 00 00 00
 0.629564 1  430             Rx   d 8 00 00 00 00 FE 00 00 00
 0.629806 1  434             Rx   d 8 00 00 00 00 0F FF 00 10
 0.630033 1  435             Rx   d 8 00 00 00 00 00 00 00 00
 0.634845 1  167             Rx   d 8 00 FF FF 00 00 02 0E 00
 0.634903 1  204             Rx   d 8 00 00 FF 00 00 00 00 00
 0.635280 1  43D             Rx   d 8 14 00 21 00 00 00 00 00
 0.635303 1  43E             Rx   d 8 00 00 00 00 00 00 00 00
 0.644587 1  47              Rx   d 8 64 22 BC F4 3B 98 00 00
 0.644794 1  165             Rx   d 8 20 81 00 00 00 00 00 00
 0.644941 1  167             Rx   d 8 00 FF FF 00 00 02 0E 00
 0.645226 1  200             Rx   d 8 00 00 80 26 80 26 F0 00
 0.645432 1  202             Rx   d 8 00 CC 00 00 00 00 00 00
 0.645674 1  204             Rx   d 8 00 00 FF 00 00 00 00 00
 0.645920 1  230             Rx   d 8 F0 1C 00 00 00 00 00 00
 0.648967 1  41              Rx   d 8 00 00 00 00 00 00 00 00
 0.649143 1  242             Rx   d 8 FF FF 3F FF B7 00 03 01
 0.649408 1  3C7             Rx   d 8 00 00 40 00 00 00 00 00
 0.654535 1  167             Rx   d 8 00 FF FF 00 00 02 0E 00
 0.654716 1  171             Rx   d 8 F0 E0 00 00 00 00 00 00
 0.654984 1  204             Rx   d 8 00 00 FF 00 00 00 00 00
 0.655227 1  42F             Rx   d 8 7D 02 05 4E 20 FF 00 00
 0.657840 1  7E8             Rx   d 8 03 41 0D 00 00 00 00 00
 0.665185 1  47              Rx   d 8 64 22 BC F4 3B 98 00 00
 0.665227 1  165             Rx   d 8 20 81 00 00 00 00 00 00
 0.665233 1  167             Rx   d 8 00 FF FF 00 00 02 0E 00
 0.665237 1  200             Rx   d 8 00 00 80 26 80 26 F0 00
 0.665498 1  202             Rx   d 8 00 CC 00 00 00 00 00 00
 0.665693 1  204             Rx   d 8 00 00 FF 00 00 00 00 00
 0.665947 1  230             Rx   d 8 F0 1C 00 00 00 00 00 00
 0.668801 1  41              Rx   d 8 00 00 00 00 00 00 00 00
 0.668840 1  3B3             Rx   d 8 44 8C C0 0C E6 00 03 3E
 0.669318 1  3C3             Rx   d 8 5C 80 10 C1 01 00 01 00
 0.669357 1  42C             Rx   d 8 80 02 00 00 00 00 00 00
 0.674556 1  167             Rx   d 8 00 FF FF 00 00 02 0E 00
 0.674717 1  204             Rx   d 8 00 00 FF 00 00 00 00 00
 0.684554 1  47              Rx   d 8 64 22 BC F4 3B 98 00 00
 0.684751 1  156             Rx   d 8 BA 00 00 00 00 00 00 00
 0.685001 1  165             Rx   d 8 20 81 00 00 00 00 00 00
 0.685187 1  166             Rx   d 8 76 00 00 FF FF FF 00 00
 0.685435 1  167             Rx   d 8 00 FF FF 00 00 02 0E 00
 0.685670 1  171             Rx   d 8 F0 E0 00 00 00 00 00 00
 0.685914 1  178             Rx   d 8 00 00 02 00 02 54 C6 53
 0.686180 1  179             Rx   d 8 00 00 08 00 22 FF 00 00
 0.686428 1  17C             Rx   d 8 00 00 00 00 00 00 00 00
 0.686667 1  200             Rx   d 8 00 00 80 26 80 26 F0 00
 0.686905 1  202             Rx   d 8 00 CC 00 00 00 00 00 00
 0.687186 1  204             Rx   d 8 00 00 FF 00 00 00 00 00
 0.687407 1  230             Rx   d 8 F0 1C 00 00 00 00 00 00
 0.687627 1  421             Rx   d 8 04 00 11 00 00 00 FF 00
 0.687875 1  424             Rx   d 8 00 00 00 03 00 00 00 00
 0.688132 1  41              Rx   d 8 00 00 00 00 00 00 00 00
 0.688366 1  242             Rx   d 8 FF FF 3F FF B7 00 03 01
 0.688610 1  42D             Rx   d 8 00 03 FF 00 00 00 F0 00
 0.688861 1  42F             Rx   d 8 7D 02 05 4E 20 FF 00 00
 0.689104 1  43D             Rx   d 8 14 00 21 00 00 00 00 00
 0.689355 1  43E             Rx   d 8 00 00 00 00 00 00 00 00
 0.694708 1  167             Rx   d 8 00 FF FF 00 00 02 0E 00
 0.694748 1  204             Rx   d 8 00 00 FF 00 00 00 00 00
 0.704754 1  47              Rx   d 8 64 22 BC F4 3B 98 00 00
 0.704800 1  165             Rx   d 8 20 81 00 00 00 00 00 00
 0.705034 1  167             Rx   d 8 00 FF FF 00 00 02 0E 00
 0.705195 1  200             Rx   d 8 00 00 80 26 80 26 F0 00
 0.705460 1  202             Rx   d 8 00 CC 00 00 00 00 00 00
 0.705689 1  204             Rx   d 8 00 00 FF 00 00 00 00 00
 0.705934 1  230             Rx   d 8 F0 1C 00 00 00 00 00 00
 0.707645 1  41              Rx   d 8 00 00 00 00 00 00 00 00
 0.714535 1  167             Rx   d 8 00 FF FF 00 00 02 0E 00
 0.714697 1  171             Rx   d 8 F0 E0 00 00 00 00 00 00
 0.714946 1  204             Rx   d 8 00 00 FF 00 00 00 00 00
 0.715174 1  42F             Rx   d 8 7D 02 05 4E 20 FF 00 00
 0.717088 1  42C             Rx   d 8 80 02 00 00 00 00 00 00
 0.717450 1  7DF             Rx   d 8 02 01 04 00 00 00 00 00
 0.724570 1  47              Rx   d 8 64 22 BC F4 3B 98 00 00
 0.724782 1  165             Rx   d 8 20 81 00 00 00 00 00 00
 0.724939 1  167             Rx   d 8 00 FF FF 00 00 02 0E 00
 0.725186 1  200             Rx   d 8 00 00 80 26 80 26 F0 00
 0.725436 1  202             Rx   d 8 00 CC 00 00 00 00 00 00
 0.725676 1  204             Rx   d 8 00 00 FF 00 00 00 00 00
 0.725914 1  230             Rx   d 8 F0 1C 00 00 00 00 00 00
 0.727466 1  41              Rx   d 8 00 00 00 00 00 00 00 00
 0.727674 1  242             Rx   d 8 FF FF 3F FF B7 00 03 01
 0.729531 1  23A             Rx   d 8 FF FF FF FF F0 00 00 00
 0.729713 1  430             Rx   d 8 00 00 00 00 FE 00 00 00
 0.729963 1  434             Rx   d 8 00 00 00 00 0F FF 00 10
 0.730237 1  435             Rx   d 8 00 00 00 00 00 00 00 00
 0.735035 1  167             Rx   d 8 00 FF FF 00 00 02 0E 00
 0.735094 1  204             Rx   d 8 00 00 FF 00 00 00 00 00
 0.735104 1  43D             Rx   d 8 14 00 21 00 00 00 00 00
 0.735408 1  43E             Rx   d 8 00 00 00 00 00 00 00 00
 0.745267 1  47              Rx   d 8 64 22 BC F4 3B 98 00 00
 0.745329 1  165             Rx   d 8 20 81 00 00 00 00 00 00
 0.745337 1  167             Rx   d 8 00 FF FF 00 00 02 0E 00
 0.745341 1  171             Rx   d 8 F0 E0 00 00 00 00 00 00
 0.745988 1  200             Rx   d 8 00 00 80 26 80 26 F0 00
 0.746035 1  202             Rx   d 8 00 CC 00 00 00 00 00 00
 0.746043 1  204             Rx   d 8 00 00 FF 00 00 00 00 00
 0.746411 1  230             Rx   d 8 F0 1C 00 00 00 00 00 00
 0.746429 1  42F             Rx   d 8 7D 02 05 4E 20 FF 00 00
 0.746794 1  41              Rx   d 8 00 00 00 00 00 00 00 00
 0.747938 1  7E8             Rx   d 8 03 41 04 00 00 00 00 00
 0.754530 1  167             Rx   d 8 00 FF FF 00 00 02 0E 00
 0.754697 1  204             Rx   d 8 00 00 FF 00 00 00 00 00
 0.764555 1  47              Rx   d 8 64 22 BC F4 3B 98 00 00
 0.764699 1  165             Rx   d 8 20 81 00 00 00 00 00 00
 0.764925 1  167             Rx   d 8 00 FF FF 00 00 02 0E 00
 0.765175 1  200             Rx   d 8 00 00 80 26 80 26 F0 00
 0.765416 1  202             Rx   d 8 00 CC 00 00 00 00 00 00
 0.765662 1  204             Rx   d 8 00 00 FF 00 00 00 00 00
 0.765922 1  230             Rx   d 8 F0 1C 00 00 00 00 00 00
 0.767089 1  41              Rx   d 8 00 00 00 00 00 00 00 00
 0.767304 1  242             Rx   d 8 FF FF 3F FF B7 00 03 01
 0.767505 1  40A             Rx   d 8 C1 04 01 8A 07 54 85 41
 0.767777 1  42C             Rx   d 8 80 02 00 00 00 00 00 00
 0.774735 1  167             Rx   d 8 00 FF FF 00 00 02 0E 00
 0.774775 1  171             Rx   d 8 F0 E0 00 00 00 00 00 00
 0.775052 1  204             Rx   d 8 00 00 FF 00 00 00 00 00
 0.775269 1  42F             Rx   d 8 7D 02 05 4E 20 FF 00 00
 0.784999 1  47              Rx   d 8 64 22 BC F4 3B 98 00 00
 0.785049 1  156             Rx   d 8 BA 00 00 00 00 00 00 00
 0.785058 1  165             Rx   d 8 20 81 00 00 00 00 00 00
 0.785532 1  166             Rx   d 8 76 00 00 FF FF FF 00 00
 0.785585 1  167             Rx   d 8 00 FF FF 00 00 02 0E 00
 0.786010 1  178             Rx   d 8 00 00 02 00 02 54 C6 53
 0.786045 1  179             Rx   d 8 00 00 08 00 22 FF 00 00
 0.786431 1  41              Rx   d 8 00 00 00 00 00 00 00 00
 0.786452 1  17C             Rx   d 8 00 00 00 00 00 00 00 00
 0.786741 1  200             Rx   d 8 00 00 80 26 80 26 F0 00
 0.786895 1  202             Rx   d 8 00 CC 00 00 00 00 00 00
 0.787149 1  204             Rx   d 8 00 00 FF 00 00 00 00 00
 0.787392 1  230             Rx   d 8 F0 1C 00 00 00 00 00 00
 0.787626 1  421             Rx   d 8 04 00 11 00 00 00 FF 00
 0.787879 1  424             Rx   d 8 00 00 00 03 00 00 00 00
 0.788138 1  42D             Rx   d 8 00 03 FF 00 00 00 F0 00
 0.788382 1  43D             Rx   d 8 14 00 21 00 00 00 00 00
 0.788625 1  43E             Rx   d 8 00 00 00 00 00 00 00 00
 0.794554 1  167             Rx   d 8 00 FF FF 00 00 02 0E 00
 0.794733 1  204             Rx   d 8 00 00 FF 00 00 00 00 00
 0.804558 1  47              Rx   d 8 64 22 BC F4 3B 98 00 00
 0.804757 1  165             Rx   d 8 20 81 00 00 00 00 00 00
 0.804931 1  167             Rx   d 8 00 FF FF 00 00 02 0E 00
 0.805212 1  171             Rx   d 8 F0 E0 00 00 00 00 00 00
 0.805441 1  200             Rx   d 8 00 00 80 26 80 26 F0 00
 0.805696 1  202             Rx   d 8 00 CC 00 00 00 00 00 00
 0.805953 1  204             Rx   d 8 00 00 FF 00 00 00 00 00
 0.806187 1  41              Rx   d 8 00 00 00 00 00 00 00 00
 0.806439 1  230             Rx   d 8 F0 1C 00 00 00 00 00 00
 0.806661 1  242             Rx   d 8 FF FF 3F FF B7 00 03 01
 0.806882 1  42F             Rx   d 8 7D 02 05 4E 20 FF 00 00
 0.807465 1  7DF             Rx   d 8 02 01 0E 00 00 00 00 00
 0.814801 1  167             Rx   d 8 00 FF FF 00 00 02 0E 00
 0.814845 1  204             Rx   d 8 00 00 FF 00 00 00 00 00
 0.815436 1  331             Rx   d 8 C0 00 48 DF 02 00 00 00
 0.815671 1  3B6             Rx   d 8 0A 00 00 00 00 00 00 00
 0.815892 1  3B7             Rx   d 8 00 00 00 00 00 00 00 00
 0.816117 1  42C             Rx   d 8 80 02 00 00 00 00 00 00
 0.824719 1  47              Rx   d 8 64 22 BC F4 3B 98 00 00
 0.824754 1  165             Rx   d 8 20 81 00 00 00 00 00 00
 0.824980 1  167             Rx   d 8 00 FF FF 00 00 02 0E 00
 0.825242 1  200             Rx   d 8 00 00 80 26 80 26 F0 00
 0.825484 1  41              Rx   d 8 00 00 00 00 00 00 00 00
 0.825733 1  202             Rx   d 8 00 CC 00 00 00 00 00 00
 0.826269 1  204             Rx   d 8 00 00 FF 00 00 00 00 00
 0.826306 1  230             Rx   d 8 F0 1C 00 00 00 00 00 00
 0.829859 1  23A             Rx   d 8 FF FF FF FF F0 00 00 00
 0.829927 1  430             Rx   d 8 00 00 00 00 FE 00 00 00
 0.829939 1  434             Rx   d 8 00 00 00 00 0F FF 00 10
 0.830305 1  435             Rx   d 8 00 00 00 00 00 00 00 00
 0.834525 1  167             Rx   d 8 00 FF FF 00 00 02 0E 00
 0.834697 1  171             Rx   d 8 F0 E0 00 00 00 00 00 00
 0.834949 1  204             Rx   d 8 00 00 FF 00 00 00 00 00
 0.835180 1  42F             Rx   d 8 7D 02 05 4E 20 FF 00 00
 0.835442 1  43D             Rx   d 8 14 00 21 00 00 00 00 00
 0.835683 1  43E             Rx   d 8 00 00 00 00 00 00 00 00
 0.837705 1  7E8             Rx   d 8 03 41 0E 80 00 00 00 00
 0.844545 1  47              Rx   d 8 64 22 BC F4 3B 98 00 00
 0.844724 1  165             Rx   d 8 20 81 00 00 00 00 00 00
 0.844928 1  167             Rx   d 8 00 FF FF 00 00 02 0E 00
 0.845159 1  200             Rx   d 8 00 00 80 26 80 26 F0 00
 0.845419 1  202             Rx   d 8 00 CC 00 00 00 00 00 00
 0.845674 1  41              Rx   d 8 00 00 00 00 00 00 00 00
 0.845917 1  204             Rx   d 8 00 00 FF 00 00 00 00 00
 0.846157 1  230             Rx   d 8 F0 1C 00 00 00 00 00 00
 0.846404 1  242             Rx   d 8 FF FF 3F FF B7 00 03 01
 0.854920 1  167             Rx   d 8 00 FF FF 00 00 02 0E 00
 0.855007 1  204             Rx   d 8 00 00 FF 00 00 00 00 00
 0.865281 1  47              Rx   d 8 64 22 BC F4 3B 98 00 00
 0.865338 1  165             Rx   d 8 20 81 00 00 00 00 00 00
 0.865345 1  167             Rx   d 8 00 FF FF 00 00 02 0E 00
 0.865351 1  41              Rx   d 8 00 00 00 00 00 00 00 00
 0.865673 1  171             Rx   d 8 F0 E0 00 00 00 00 00 00
 0.865686 1  200             Rx   d 8 00 00 80 26 80 26 F0 00
 0.865958 1  202             Rx   d 8 00 CC 00 00 00 00 00 00
 0.866205 1  204             Rx   d 8 00 00 FF 00 00 00 00 00
 0.866560 1  230             Rx   d 8 F0 1C 00 00 00 00 00 00
 0.867002 1  42C             Rx   d 8 80 02 00 00 00 00 00 00
 0.867028 1  42F             Rx   d 8 7D 02 05 4E 20 FF 00 00
 0.874589 1  167             Rx   d 8 00 FF FF 00 00 02 0E 00
 0.874794 1  204             Rx   d 8 00 00 FF 00 00 00 00 00
 0.884548 1  47              Rx   d 8 64 22 BC F4 3B 98 00 00
 0.884728 1  41              Rx   d 8 00 00 00 00 00 00 00 00
 0.884943 1  156             Rx   d 8 BA 00 00 00 00 00 00 00
 0.885210 1  165             Rx   d 8 20 81 00 00 00 00 00 00
 0.885438 1  166             Rx   d 8 76 00 00 FF FF FF 00 00
 0.885672 1  167             Rx   d 8 00 FF FF 00 00 02 0E 00
 0.885910 1  178             Rx   d 8 00 00 02 00 02 54 C6 53
 0.886149 1  179             Rx   d 8 00 00 08 00 22 FF 00 00
 0.886402 1  17C             Rx   d 8 00 00 00 00 00 00 00 00
 0.886652 1  200             Rx   d 8 00 00 80 26 80 26 F0 00
 0.886913 1  202             Rx   d 8 00 CC 00 00 00 00 00 00
 0.887169 1  204             Rx   d 8 00 00 FF 00 00 00 00 00
 0.887424 1  230             Rx   d 8 F0 1C 00 00 00 00 00 00
 0.887666 1  242             Rx   d 8 FF FF 3F FF B7 00 03 01
 0.887907 1  421             Rx   d 8 04 00 11 00 00 00 FF 00
 0.888159 1  424             Rx   d 8 00 00 00 03 00 00 00 00
 0.888409 1  42D             Rx   d 8 00 03 FF 00 00 00 F0 00
 0.888648 1  43D             Rx   d 8 14 00 21 00 00 00 00 00
 0.888905 1  43E             Rx   d 8 00 00 00 00 00 00 00 00
 0.894782 1  167             Rx   d 8 00 FF FF 00 00 02 0E 00
 0.894824 1  171             Rx   d 8 F0 E0 00 00 00 00 00 00
 0.895246 1  204             Rx   d 8 00 00 FF 00 00 00 00 00
 0.895282 1  42F             Rx   d 8 7D 02 05 4E 20 FF 00 00
 0.899295 1  7DF             Rx   d 8 02 01 0B 00 00 00 00 00
 0.904247 1  41              Rx   d 8 00 00 00 00 00 00 00 00
 0.904781 1  47              Rx   d 8 64 22 BC F4 3B 98 00 00
 0.904809 1  165             Rx   d 8 20 81 00 00 00 00 00 00
 0.905279 1  167             Rx   d 8 00 FF FF 00 00 02 0E 00
 0.905333 1  200             Rx   d 8 00 00 80 26 80 26 F0 00
 0.905788 1  202             Rx   d 8 00 CC 00 00 00 00 00 00
 0.905807 1  204             Rx   d 8 00 00 FF 00 00 00 00 00
 0.906000 1  230             Rx   d 8 F0 1C 00 00 00 00 00 00
 0.913795 1  42C             Rx   d 8 80 02 00 00 00 00 00 00
 0.914535 1  167             Rx   d 8 00 FF FF 00 00 02 0E 00
 0.914715 1  204             Rx   d 8 00 00 FF 00 00 00 00 00
 0.924055 1  41              Rx   d 8 00 00 00 00 00 00 00 00
 0.924222 1  242             Rx   d 8 FF FF 3F FF B7 00 03 01
 0.924440 1  47              Rx   d 8 64 22 BC F4 3B 98 00 00
 0.924680 1  165             Rx   d 8 20 81 00 00 00 00 00 00
 0.924958 1  167             Rx   d 8 00 FF FF 00 00 02 0E 00
 0.925200 1  171             Rx   d 8 F0 E0 00 00 00 00 00 00
 0.925438 1  200             Rx   d 8 00 00 80 26 80 26 F0 00
 0.925686 1  202             Rx   d 8 00 CC 00 00 00 00 00 00
 0.925931 1  204             Rx   d 8 00 00 FF 00 00 00 00 00
 0.926174 1  230             Rx   d 8 F0 1C 00 00 00 00 00 00
 0.926411 1  42F             Rx   d 8 7D 02 05 4E 20 FF 00 00
 0.927834 1  7E8             Rx   d 8 03 41 0B FF 00 00 00 00
 0.930000 1  23A             Rx   d 8 FF FF FF FF F0 00 00 00
 0.930049 1  430             Rx   d 8 00 00 00 00 FE 00 00 00
 0.930536 1  434             Rx   d 8 00 00 00 00 0F FF 00 10
 0.930593 1  435             Rx   d 8 00 00 00 00 00 00 00 00
 0.935288 1  167             Rx   d 8 00 FF FF 00 00 02 0E 00
 0.935349 1  204             Rx   d 8 00 00 FF 00 00 00 00 00
 0.935356 1  43D             Rx   d 8 14 00 21 00 00 00 00 00
 0.935360 1  43E             Rx   d 8 00 00 00 00 00 00 00 00
 0.943878 1  41              Rx   d 8 00 00 00 00 00 00 00 00
 0.944500 1  47              Rx   d 8 64 22 BC F4 3B 98 00 00
 0.944717 1  165             Rx   d 8 20 81 00 00 00 00 00 00
 0.944926 1  167             Rx   d 8 00 FF FF 00 00 02 0E 00
 0.945164 1  200             Rx   d 8 00 00 80 26 80 26 F0 00
 0.945413 1  202             Rx   d 8 00 CC 00 00 00 00 00 00
 0.945656 1  204             Rx   d 8 00 00 FF 00 00 00 00 00
 0.945923 1  230             Rx   d 8 F0 1C 00 00 00 00 00 00
 0.954561 1  167             Rx   d 8 00 FF FF 00 00 02 0E 00
 0.954766 1  171             Rx   d 8 F0 E0 00 00 00 00 00 00
 0.954993 1  204             Rx   d 8 00 00 FF 00 00 00 00 00
 0.955207 1  42F             Rx   d 8 7D 02 05 4E 20 FF 00 00
 0.963893 1  41              Rx   d 8 00 00 00 00 00 00 00 00
 0.963924 1  242             Rx   d 8 FF FF 3F FF B7 00 03 01
 0.964110 1  40A             Rx   d 8 C1 10 40 84 20 08 80 00
 0.964403 1  42C             Rx   d 8 80 02 00 00 00 00 00 00
 0.964601 1  47              Rx   d 8 64 22 BC F4 3B 98 00 00
 0.964844 1  165             Rx   d 8 20 81 00 00 00 00 00 00
 0.965145 1  167             Rx   d 8 00 FF FF 00 00 02 0E 00
 0.965417 1  200             Rx   d 8 00 00 80 26 80 26 F0 00
 0.965630 1  202             Rx   d 8 00 CC 00 00 00 00 00 00
