date Fri Mar 21 05:22:16.052 PM 2025
base hex  timestamps absolute
internal events logged
Begin Triggerblock Fri Mar 21 05:22:16.050 PM 2025
 0.000000 Start of measurement
 0.000000 1  287             Rx   d 8 00 00 00 00 00 00 00 00
 0.000196 1  30A             Rx   d 8 85 00 00 00 00 00 00 00
 0.000451 1  318             Rx   d 8 00 00 00 00 00 00 00 00
 0.000702 1  346             Rx   d 8 00 00 00 03 03 00 C0 00
 0.000953 1  348             Rx   d 8 00 00 00 01 00 00 00 00
 0.001203 1  430             Rx   d 8 C8 00 40 9B 00 00 64 00
 0.001458 1  434             Rx   d 8 40 00 70 00 20 4D 28 00
 0.007231 1  47              Rx   d 8 64 22 BC F4 3B 98 00 00
 0.007468 1  165             Rx   d 8 20 81 00 00 00 00 00 00
 0.007632 1  167             Rx   d 8 00 FF FF 00 00 02 18 00
 0.007852 1  171             Rx   d 8 F0 E0 00 00 00 00 00 00
 0.008078 1  200             Rx   d 8 00 00 80 26 80 26 F0 00
 0.008342 1  202             Rx   d 8 00 CC 00 00 00 00 00 00
 0.008621 1  204             Rx   d 8 00 00 FF 00 00 00 00 00
 0.008843 1  230             Rx   d 8 F0 1C 00 00 00 00 00 00
 0.009086 1  42F             Rx   d 8 7D 02 05 4E 20 64 00 00
 0.010080 1  726             Rx   d 8 03 19 02 8F 00 00 00 00
 0.014730 1  41              Rx   d 8 00 00 00 00 00 00 00 00
 0.014921 1  242             Rx   d 8 FF FF 3F FF 84 00 03 01
 0.015175 1  72E             Rx   d 8 10 7F 59 02 CA 90 48 01
 0.015469 1  726             Rx   d 8 30 00 00 00 00 00 00 00
 0.017151 1  167             Rx   d 8 00 FF FF 00 00 02 18 00
 0.017354 1  204             Rx   d 8 00 00 FF 00 00 00 00 00
 0.017592 1  43D             Rx   d 8 14 00 21 00 00 00 00 00
 0.017840 1  43E             Rx   d 8 00 00 00 00 00 00 00 00
 0.023825 1  72E             Rx   d 8 21 C8 92 3B 15 48 92 3A
 0.027207 1  47              Rx   d 8 64 22 BC F4 3B 98 00 00
 0.027390 1  165             Rx   d 8 20 81 00 00 00 00 00 00
 0.027619 1  167             Rx   d 8 00 FF FF 00 00 02 18 00
 0.027868 1  200             Rx   d 8 00 00 80 26 80 26 F0 00
 0.028124 1  202             Rx   d 8 00 CC 00 00 00 00 00 00
 0.028377 1  204             Rx   d 8 00 00 FF 00 00 00 00 00
 0.028623 1  230             Rx   d 8 F0 1C 00 00 00 00 00 00
 0.033912 1  41              Rx   d 8 00 00 00 00 00 00 00 00
 0.034087 1  72E             Rx   d 8 22 15 48 92 47 15 48 92
 0.037383 1  167             Rx   d 8 00 FF FF 00 00 02 18 00
 0.037424 1  171             Rx   d 8 F0 E0 00 00 00 00 00 00
 0.037667 1  204             Rx   d 8 00 00 FF 00 00 00 00 00
 0.037930 1  42F             Rx   d 8 7D 02 05 4E 20 64 00 00
 0.043544 1  42C             Rx   d 8 84 02 00 00 00 00 00 00
 0.043574 1  72E             Rx   d 8 23 48 15 48 9D 01 15 48
 0.047182 1  47              Rx   d 8 64 22 BC F4 3B 98 00 00
 0.047366 1  165             Rx   d 8 20 81 00 00 00 00 00 00
 0.047597 1  167             Rx   d 8 00 FF FF 00 00 02 18 00
 0.047828 1  200             Rx   d 8 00 00 80 26 80 26 F0 00
 0.048071 1  202             Rx   d 8 00 CC 00 00 00 00 00 00
 0.048316 1  204             Rx   d 8 00 00 FF 00 00 00 00 00
 0.048554 1  230             Rx   d 8 F0 1C 00 00 00 00 00 00
 0.053859 1  41              Rx   d 8 00 00 00 00 00 00 00 00
 0.054082 1  242             Rx   d 8 FF FF 3F FF 84 00 03 01
 0.054240 1  72E             Rx   d 8 24 9D 00 15 48 93 10 14
 0.057348 1  167             Rx   d 8 00 FF FF 00 00 02 18 00
 0.057384 1  204             Rx   d 8 00 00 FF 00 00 00 00 00
 0.063055 1  72E             Rx   d 8 25 48 02 30 14 C8 C2 12
 0.063887 1  23A             Rx   d 8 FF FF FF FF F0 00 00 00
 0.064139 1  430             Rx   d 8 00 00 00 00 FE 00 00 00
 0.064396 1  434             Rx   d 8 00 00 00 00 0F FF 00 10
 0.064640 1  435             Rx   d 8 00 00 00 00 00 00 00 00
 0.067335 1  47              Rx   d 8 64 22 BC F4 3B 98 00 00
 0.067364 1  156             Rx   d 8 4B 00 00 00 00 00 00 00
 0.067689 1  165             Rx   d 8 20 81 00 00 00 00 00 00
 0.068124 1  166             Rx   d 8 76 00 00 FF FF FF 00 00
 0.068146 1  167             Rx   d 8 00 FF FF 00 00 02 18 00
 0.068387 1  171             Rx   d 8 F0 E0 00 00 00 00 00 00
 0.068612 1  178             Rx   d 8 00 00 02 00 02 54 CA 53
 0.068877 1  179             Rx   d 8 00 00 08 00 22 FF 00 00
 0.069094 1  17C             Rx   d 8 00 00 00 00 00 00 00 00
 0.069327 1  200             Rx   d 8 00 00 80 26 80 26 F0 00
 0.069591 1  202             Rx   d 8 00 CC 00 00 00 00 00 00
 0.069827 1  204             Rx   d 8 00 00 FF 00 00 00 00 00
 0.070059 1  230             Rx   d 8 F0 1C 00 00 00 00 00 00
 0.070320 1  421             Rx   d 8 04 00 11 00 00 00 00 00
 0.070571 1  424             Rx   d 8 00 00 00 03 00 00 00 00
 0.070821 1  42D             Rx   d 8 00 03 FF 00 00 00 F0 00
 0.071045 1  42F             Rx   d 8 7D 02 05 4E 20 64 00 00
 0.071308 1  43D             Rx   d 8 14 00 21 00 00 00 00 00
 0.071588 1  43E             Rx   d 8 00 00 00 00 00 00 00 00
 0.073885 1  41              Rx   d 8 00 00 00 00 00 00 00 00
 0.073922 1  72E             Rx   d 8 26 87 48 91 D8 01 C8 9C
 0.077211 1  167             Rx   d 8 00 FF FF 00 00 02 18 00
 0.077389 1  204             Rx   d 8 00 00 FF 00 00 00 00 00
 0.083043 1  72E             Rx   d 8 27 55 14 48 93 0F 14 48
 0.087430 1  47              Rx   d 8 64 22 BC F4 3B 98 00 00
 0.087480 1  165             Rx   d 8 20 81 00 00 00 00 00 00
 0.087698 1  167             Rx   d 8 00 FF FF 00 00 02 18 00
 0.087944 1  200             Rx   d 8 00 00 80 26 80 26 F0 00
 0.088147 1  202             Rx   d 8 00 CC 00 00 00 00 00 00
 0.088336 1  204             Rx   d 8 00 00 FF 00 00 00 00 00
 0.088607 1  230             Rx   d 8 F0 1C 00 00 00 00 00 00
 0.094455 1  41              Rx   d 8 00 00 00 00 00 00 00 00
 0.094499 1  242             Rx   d 8 FF FF 3F FF 85 00 03 01
 0.094504 1  40A             Rx   d 8 C0 00 00 23 60 CD 2E 00
 0.094508 1  72E             Rx   d 8 28 94 35 14 48 94 30 14
 0.094794 1  42C             Rx   d 8 84 02 00 00 00 00 00 00
 0.097370 1  167             Rx   d 8 00 FF FF 00 00 02 18 00
 0.097409 1  171             Rx   d 8 F0 E0 00 00 00 00 00 00
 0.097646 1  204             Rx   d 8 00 00 FF 00 00 00 00 00
 0.097857 1  42F             Rx   d 8 7D 02 05 4E 20 64 00 00
 0.100142 1  318             Rx   d 8 00 00 00 00 00 00 00 00
 0.100362 1  346             Rx   d 8 00 00 00 03 03 00 C0 00
 0.100555 1  348             Rx   d 8 00 00 00 01 00 00 00 00
 0.100842 1  430             Rx   d 8 C8 00 40 9B 00 00 64 00
 0.101089 1  434             Rx   d 8 40 00 70 00 20 4D 28 00
 0.102677 1  72E             Rx   d 8 29 48 92 4B 15 48 92 4A
 0.107375 1  47              Rx   d 8 64 22 BC F4 3B 98 00 00
 0.107408 1  165             Rx   d 8 20 81 00 00 00 00 00 00
 0.107705 1  167             Rx   d 8 00 FF FF 00 00 02 18 00
 0.107941 1  200             Rx   d 8 00 00 80 26 80 26 F0 00
 0.108137 1  202             Rx   d 8 00 CC 00 00 00 00 00 00
 0.108382 1  204             Rx   d 8 00 00 FF 00 00 00 00 00
 0.108685 1  230             Rx   d 8 F0 1C 00 00 00 00 00 00
 0.112679 1  41              Rx   d 8 00 00 00 00 00 00 00 00
 0.112846 1  72E             Rx   d 8 2A 15 48 90 9F 08 48 9D
 0.117231 1  167             Rx   d 8 00 FF FF 00 00 02 18 00
 0.117422 1  204             Rx   d 8 00 00 FF 00 00 00 00 00
 0.117648 1  43D             Rx   d 8 14 00 21 00 00 00 00 00
 0.117894 1  43E             Rx   d 8 00 00 00 00 00 00 00 00
 0.122235 1  72E             Rx   d 8 2B 17 08 48 91 DB 08 48
 0.127199 1  47              Rx   d 8 64 22 BC F4 3B 98 00 00
 0.127399 1  165             Rx   d 8 20 81 00 00 00 00 00 00
 0.127596 1  167             Rx   d 8 00 FF FF 00 00 02 18 00
 0.127837 1  171             Rx   d 8 F0 E0 00 00 00 00 00 00
 0.128159 1  200             Rx   d 8 00 00 80 26 80 26 F0 00
 0.128427 1  202             Rx   d 8 00 CC 00 00 00 00 00 00
 0.128821 1  204             Rx   d 8 00 00 FF 00 00 00 00 00
 0.128845 1  230             Rx   d 8 F0 1C 00 00 00 00 00 00
 0.129144 1  42F             Rx   d 8 7D 02 05 4E 20 64 00 00
 0.132628 1  41              Rx   d 8 00 00 00 00 00 00 00 00
 0.132696 1  242             Rx   d 8 FF FF 3F FF 85 00 03 01
 0.132939 1  72E             Rx   d 8 2C 90 D9 87 0A C1 00 87
 0.137476 1  167             Rx   d 8 00 FF FF 00 00 02 18 00
 0.137509 1  204             Rx   d 8 00 00 FF 00 00 00 00 00
 0.141949 1  42C             Rx   d 8 84 02 00 00 00 00 00 00
 0.141987 1  72E             Rx   d 8 2D 48 C1 55 87 48 C1 21
 0.147182 1  47              Rx   d 8 64 22 BC F4 3B 98 00 00
 0.147354 1  165             Rx   d 8 20 81 00 00 00 00 00 00
 0.147587 1  167             Rx   d 8 00 FF FF 00 00 02 18 00
 0.147813 1  200             Rx   d 8 00 00 80 26 80 26 F0 00
 0.148076 1  202             Rx   d 8 00 CC 00 00 00 00 00 00
 0.148324 1  204             Rx   d 8 00 00 FF 00 00 00 00 00
 0.148589 1  230             Rx   d 8 F0 1C 00 00 00 00 00 00
 0.151870 1  41              Rx   d 8 00 00 00 00 00 00 00 00
 0.152075 1  72E             Rx   d 8 2E 87 48 C1 31 87 48 C2
 0.157407 1  167             Rx   d 8 00 FF FF 00 00 02 18 00
 0.157457 1  171             Rx   d 8 F0 E0 00 00 00 00 00 00
 0.157709 1  204             Rx   d 8 00 00 FF 00 00 00 00 00
 0.157945 1  42F             Rx   d 8 7D 02 05 4E 20 64 00 00
 0.161449 1  72E             Rx   d 8 2F 53 87 48 C2 56 87 48
 0.164220 1  23A             Rx   d 8 FF FF FF FF F0 00 00 00
 0.164258 1  430             Rx   d 8 00 00 00 00 FE 00 00 00
 0.164495 1  434             Rx   d 8 00 00 00 00 0F FF 00 10
 0.164773 1  435             Rx   d 8 00 00 00 00 00 00 00 00
 0.167314 1  47              Rx   d 8 64 22 BC F4 3B 98 00 00
 0.167345 1  156             Rx   d 8 4B 00 00 00 00 00 00 00
 0.167625 1  165             Rx   d 8 20 81 00 00 00 00 00 00
 0.167836 1  166             Rx   d 8 76 00 00 FF FF FF 00 00
 0.168124 1  167             Rx   d 8 00 FF FF 00 00 02 18 00
 0.168369 1  178             Rx   d 8 00 00 02 00 02 54 CA 53
 0.168588 1  179             Rx   d 8 00 00 08 00 22 FF 00 00
 0.168825 1  17C             Rx   d 8 00 00 00 00 00 00 00 00
 0.169062 1  200             Rx   d 8 00 00 80 26 80 26 F0 00
 0.169306 1  202             Rx   d 8 00 CC 00 00 00 00 00 00
 0.169643 1  204             Rx   d 8 00 00 FF 00 00 00 00 00
 0.169867 1  230             Rx   d 8 F0 1C 00 00 00 00 00 00
 0.170102 1  421             Rx   d 8 04 00 11 00 00 00 00 00
 0.170681 1  424             Rx   d 8 00 00 00 03 00 00 00 00
 0.170722 1  42D             Rx   d 8 00 03 FF 00 00 00 F0 00
 0.171170 1  43D             Rx   d 8 14 00 21 00 00 00 00 00
 0.171203 1  43E             Rx   d 8 00 00 00 00 00 00 00 00
 0.172354 1  41              Rx   d 8 00 00 00 00 00 00 00 00
 0.172402 1  242             Rx   d 8 FF FF 3F FF 85 00 03 01
 0.172606 1  72E             Rx   d 8 20 C1 99 87 48 C2 00 87
 0.177409 1  167             Rx   d 8 00 FF FF 00 00 02 18 00
 0.177463 1  204             Rx   d 8 00 00 FF 00 00 00 00 00
 0.181286 1  72E             Rx   d 8 21 48 C1 84 87 48 95 33
 0.187200 1  47              Rx   d 8 64 22 BC F4 3B 98 00 00
 0.187406 1  165             Rx   d 8 20 81 00 00 00 00 00 00
 0.187623 1  167             Rx   d 8 00 FF FF 00 00 02 18 00
 0.187891 1  171             Rx   d 8 F0 E0 00 00 00 00 00 00
 0.188136 1  200             Rx   d 8 00 00 80 26 80 26 F0 00
 0.188406 1  202             Rx   d 8 00 CC 00 00 00 00 00 00
 0.188649 1  204             Rx   d 8 00 00 FF 00 00 00 00 00
 0.188878 1  230             Rx   d 8 F0 1C 00 00 00 00 00 00
 0.189110 1  42F             Rx   d 8 7D 02 05 4E 20 64 00 00
 0.191890 1  41              Rx   d 8 00 00 00 00 00 00 00 00
 0.191923 1  3B6             Rx   d 8 0E 00 00 00 00 00 00 00
 0.192189 1  3B7             Rx   d 8 00 00 00 00 00 00 00 00
 0.192432 1  3B8             Rx   d 8 FF FF FF FF 00 00 00 00
 0.192634 1  42C             Rx   d 8 84 02 00 00 00 00 00 00
 0.192865 1  72E             Rx   d 8 22 08 48 00 00 00 00 00
 0.197383 1  167             Rx   d 8 00 FF FF 00 00 02 18 00
 0.197428 1  204             Rx   d 8 00 00 FF 00 00 00 00 00
 0.200639 1  287             Rx   d 8 00 00 00 00 00 00 00 00
 0.200677 1  30A             Rx   d 8 85 00 00 00 00 00 00 00
 0.200682 1  318             Rx   d 8 00 00 00 00 00 00 00 00
 0.201033 1  346             Rx   d 8 00 00 00 03 03 00 C0 00
 0.201045 1  348             Rx   d 8 00 00 00 01 00 00 00 00
 0.201366 1  430             Rx   d 8 C8 00 40 9B 00 00 64 00
 0.201568 1  434             Rx   d 8 40 00 70 00 20 4D 28 00
 0.207226 1  47              Rx   d 8 64 22 BC F4 3B 98 00 00
 0.207414 1  165             Rx   d 8 20 81 00 00 00 00 00 00
 0.207631 1  167             Rx   d 8 00 FF FF 00 00 02 18 00
 0.207910 1  200             Rx   d 8 00 00 80 26 80 26 F0 00
 0.208117 1  202             Rx   d 8 00 CC 00 00 00 00 00 00
 0.208382 1  204             Rx   d 8 00 00 FF 00 00 00 00 00
 0.208621 1  230             Rx   d 8 F0 1C 00 00 00 00 00 00
 0.211526 1  41              Rx   d 8 00 00 00 00 00 00 00 00
 0.211571 1  242             Rx   d 8 FF FF 3F FF 84 00 03 01
 0.217200 1  167             Rx   d 8 00 FF FF 00 00 02 18 00
 0.217376 1  171             Rx   d 8 F0 E0 00 00 00 00 00 00
 0.217629 1  204             Rx   d 8 00 00 FF 00 00 00 00 00
 0.217840 1  42F             Rx   d 8 7D 02 05 4E 20 64 00 00
 0.218077 1  43D             Rx   d 8 14 00 21 00 00 00 00 00
 0.218329 1  43E             Rx   d 8 00 00 00 00 00 00 00 00
 0.222937 1  726             Rx   d 8 03 22 DD 00 00 00 00 00
 0.227380 1  47              Rx   d 8 64 22 BC F4 3B 98 00 00
 0.227414 1  165             Rx   d 8 20 81 00 00 00 00 00 00
 0.227643 1  167             Rx   d 8 00 FF FF 00 00 02 18 00
 0.227856 1  200             Rx   d 8 00 00 80 26 80 26 F0 00
 0.228120 1  202             Rx   d 8 00 CC 00 00 00 00 00 00
 0.228351 1  204             Rx   d 8 00 00 FF 00 00 00 00 00
 0.228583 1  230             Rx   d 8 F0 1C 00 00 00 00 00 00
 0.230544 1  41              Rx   d 8 00 00 00 00 00 00 00 00
 0.230753 1  72E             Rx   d 8 07 62 DD 00 23 60 CD 2F
 0.237250 1  167             Rx   d 8 00 FF FF 00 00 02 18 00
 0.237431 1  204             Rx   d 8 00 00 FF 00 00 00 00 00
 0.240441 1  42C             Rx   d 8 84 02 00 00 00 00 00 00
 0.247219 1  47              Rx   d 8 64 22 BC F4 3B 98 00 00
 0.247432 1  165             Rx   d 8 20 81 00 00 00 00 00 00
 0.247624 1  167             Rx   d 8 00 FF FF 00 00 02 18 00
 0.247840 1  171             Rx   d 8 F0 E0 00 00 00 00 00 00
 0.248092 1  200             Rx   d 8 00 00 80 26 80 26 F0 00
 0.248358 1  202             Rx   d 8 00 CC 00 00 00 00 00 00
 0.248594 1  204             Rx   d 8 00 00 FF 00 00 00 00 00
 0.248842 1  230             Rx   d 8 F0 1C 00 00 00 00 00 00
 0.249064 1  42F             Rx   d 8 7D 02 05 4E 20 64 00 00
 0.250287 1  41              Rx   d 8 00 00 00 00 00 00 00 00
 0.250500 1  242             Rx   d 8 FF FF 3F FF 84 00 03 01
 0.250725 1  3B5             Rx   d 8 FF FD FF FD FF FD FF FD
 0.250965 1  726             Rx   d 8 06 19 04 90 48 01 10 00
 0.257395 1  167             Rx   d 8 00 FF FF 00 00 02 18 00
 0.257437 1  204             Rx   d 8 00 00 FF 00 00 00 00 00
 0.259954 1  72E             Rx   d 8 03 7F 19 12 00 00 00 00
 0.264115 1  23A             Rx   d 8 FF FF FF FF F0 00 00 00
 0.264151 1  430             Rx   d 8 00 00 00 00 FE 00 00 00
 0.264651 1  434             Rx   d 8 00 00 00 00 0F FF 00 10
 0.264668 1  435             Rx   d 8 00 00 00 00 00 00 00 00
 0.267457 1  47              Rx   d 8 64 22 BC F4 3B 98 00 00
 0.267493 1  156             Rx   d 8 4B 00 00 00 00 00 00 00
 0.267849 1  165             Rx   d 8 20 81 00 00 00 00 00 00
 0.267869 1  166             Rx   d 8 76 00 00 FF FF FF 00 00
 0.268325 1  167             Rx   d 8 00 FF FF 00 00 02 18 00
 0.268357 1  178             Rx   d 8 00 00 02 00 02 54 CA 53
 0.269442 1  179             Rx   d 8 00 00 08 00 22 FF 00 00
 0.269498 1  17C             Rx   d 8 00 00 00 00 00 00 00 00
 0.269504 1  200             Rx   d 8 00 00 80 26 80 26 F0 00
 0.269508 1  202             Rx   d 8 00 CC 00 00 00 00 00 00
 0.269840 1  204             Rx   d 8 00 00 FF 00 00 00 00 00
 0.269854 1  41              Rx   d 8 00 00 00 00 00 00 00 00
 0.270162 1  230             Rx   d 8 F0 1C 00 00 00 00 00 00
 0.270407 1  421             Rx   d 8 04 00 11 00 00 00 00 00
 0.270614 1  424             Rx   d 8 00 00 00 03 00 00 00 00
 0.270808 1  42D             Rx   d 8 00 03 FF 00 00 00 F0 00
 0.271064 1  43D             Rx   d 8 14 00 21 00 00 00 00 00
 0.271310 1  43E             Rx   d 8 00 00 00 00 00 00 00 00
 0.277378 1  167             Rx   d 8 00 FF FF 00 00 02 18 00
 0.277411 1  171             Rx   d 8 F0 E0 00 00 00 00 00 00
 0.277650 1  204             Rx   d 8 00 00 FF 00 00 00 00 00
 0.277918 1  42F             Rx   d 8 7D 02 05 4E 20 64 00 00
 0.287190 1  47              Rx   d 8 64 22 BC F4 3B 98 00 00
 0.287352 1  165             Rx   d 8 20 81 00 00 00 00 00 00
 0.287575 1  167             Rx   d 8 00 FF FF 00 00 02 18 00
 0.287812 1  200             Rx   d 8 00 00 80 26 80 26 F0 00
 0.288069 1  202             Rx   d 8 00 CC 00 00 00 00 00 00
 0.288314 1  204             Rx   d 8 00 00 FF 00 00 00 00 00
 0.288554 1  230             Rx   d 8 F0 1C 00 00 00 00 00 00
 0.288810 1  726             Rx   d 8 06 19 04 90 48 01 11 00
 0.290206 1  41              Rx   d 8 00 00 00 00 00 00 00 00
 0.290397 1  242             Rx   d 8 FF FF 3F FF 84 00 03 01
 0.290637 1  3B3             Rx   d 8 44 88 00 0C E6 00 03 3C
 0.290835 1  40A             Rx   d 8 C1 00 57 46 30 4A 58 58
 0.291087 1  72E             Rx   d 8 03 7F 19 12 00 00 00 00
 0.291342 1  42C             Rx   d 8 84 02 00 00 00 00 00 00
 0.297478 1  167             Rx   d 8 00 FF FF 00 00 02 18 00
 0.297536 1  204             Rx   d 8 00 00 FF 00 00 00 00 00
 0.300330 1  318             Rx   d 8 00 00 00 00 00 00 00 00
 0.300372 1  346             Rx   d 8 00 00 00 03 03 00 C0 00
 0.300755 1  348             Rx   d 8 00 00 00 01 00 00 00 00
 0.300773 1  430             Rx   d 8 C8 00 40 9B 00 00 64 00
 0.301117 1  434             Rx   d 8 40 00 70 00 20 4D 28 00
 0.307383 1  47              Rx   d 8 64 22 BC F4 3B 98 00 00
 0.307422 1  165             Rx   d 8 20 81 00 00 00 00 00 00
 0.307656 1  167             Rx   d 8 00 FF FF 00 00 02 18 00
 0.307899 1  171             Rx   d 8 F0 E0 00 00 00 00 00 00
 0.308398 1  200             Rx   d 8 00 00 80 26 80 26 F0 00
 0.308427 1  202             Rx   d 8 00 CC 00 00 00 00 00 00
 0.308802 1  204             Rx   d 8 00 00 FF 00 00 00 00 00
 0.308821 1  230             Rx   d 8 F0 1C 00 00 00 00 00 00
 0.309108 1  42F             Rx   d 8 7D 02 05 4E 20 64 00 00
 0.309360 1  41              Rx   d 8 00 00 00 00 00 00 00 00
 0.317246 1  167             Rx   d 8 00 FF FF 00 00 02 18 00
 0.317451 1  204             Rx   d 8 00 00 FF 00 00 00 00 00
 0.317615 1  43D             Rx   d 8 14 00 21 00 00 00 00 00
 0.317894 1  43E             Rx   d 8 00 00 00 00 00 00 00 00
 0.323155 1  726             Rx   d 8 06 19 04 92 3B 15 10 00
 0.327220 1  47              Rx   d 8 64 22 BC F4 3B 98 00 00
 0.327452 1  165             Rx   d 8 20 81 00 00 00 00 00 00
 0.327654 1  167             Rx   d 8 00 FF FF 00 00 02 18 00
 0.327831 1  200             Rx   d 8 00 00 80 26 80 26 F0 00
 0.328101 1  202             Rx   d 8 00 CC 00 00 00 00 00 00
 0.328374 1  204             Rx   d 8 00 00 FF 00 00 00 00 00
 0.328619 1  230             Rx   d 8 F0 1C 00 00 00 00 00 00
 0.329037 1  41              Rx   d 8 00 00 00 00 00 00 00 00
 0.329269 1  242             Rx   d 8 FF FF 3F FF 84 00 03 01
 0.329507 1  72E             Rx   d 8 03 7F 19 12 00 00 00 00
 0.337396 1  167             Rx   d 8 00 FF FF 00 00 02 18 00
 0.337442 1  171             Rx   d 8 F0 E0 00 00 00 00 00 00
 0.337895 1  204             Rx   d 8 00 00 FF 00 00 00 00 00
 0.337944 1  42F             Rx   d 8 7D 02 05 4E 20 64 00 00
 0.338551 1  42C             Rx   d 8 84 02 00 00 00 00 00 00
 0.347180 1  47              Rx   d 8 64 22 BC F4 3B 98 00 00
 0.347350 1  165             Rx   d 8 20 81 00 00 00 00 00 00
 0.347580 1  167             Rx   d 8 00 FF FF 00 00 02 18 00
 0.347816 1  200             Rx   d 8 00 00 80 26 80 26 F0 00
 0.348068 1  202             Rx   d 8 00 CC 00 00 00 00 00 00
 0.348312 1  41              Rx   d 8 00 00 00 00 00 00 00 00
 0.348568 1  204             Rx   d 8 00 00 FF 00 00 00 00 00
 0.348828 1  230             Rx   d 8 F0 1C 00 00 00 00 00 00
 0.357192 1  167             Rx   d 8 00 FF FF 00 00 02 18 00
 0.357364 1  204             Rx   d 8 00 00 FF 00 00 00 00 00
 0.359981 1  726             Rx   d 8 06 19 04 92 3B 15 11 00
 0.364305 1  23A             Rx   d 8 FF FF FF FF F0 00 00 00
 0.364350 1  430             Rx   d 8 00 00 00 00 FE 00 00 00
 0.364744 1  434             Rx   d 8 00 00 00 00 0F FF 00 10
 0.364760 1  435             Rx   d 8 00 00 00 00 00 00 00 00
 0.367229 1  47              Rx   d 8 64 22 BC F4 3B 98 00 00
 0.367650 1  156             Rx   d 8 4B 00 00 00 00 00 00 00
 0.367676 1  165             Rx   d 8 20 81 00 00 00 00 00 00
 0.368095 1  166             Rx   d 8 76 00 00 FF FF FF 00 00
 0.368116 1  167             Rx   d 8 00 FF FF 00 00 02 18 00
 0.368442 1  41              Rx   d 8 00 00 00 00 00 00 00 00
 0.368805 1  171             Rx   d 8 F0 E0 00 00 00 00 00 00
 0.368823 1  178             Rx   d 8 00 00 02 00 02 54 CA 53
 0.369156 1  179             Rx   d 8 00 00 08 00 22 FF 00 00
 0.369389 1  17C             Rx   d 8 00 00 00 00 00 00 00 00
 0.369584 1  200             Rx   d 8 00 00 80 26 80 26 F0 00
 0.370426 1  202             Rx   d 8 00 CC 00 00 00 00 00 00
 0.370477 1  204             Rx   d 8 00 00 FF 00 00 00 00 00
 0.370486 1  230             Rx   d 8 F0 1C 00 00 00 00 00 00
 0.371121 1  242             Rx   d 8 FF FF 3F FF 84 00 03 01
 0.371155 1  421             Rx   d 8 04 00 11 00 00 00 00 00
 0.371160 1  424             Rx   d 8 00 00 00 03 00 00 00 00
 0.371378 1  42D             Rx   d 8 00 03 FF 00 00 00 F0 00
 0.371555 1  42F             Rx   d 8 7D 02 05 4E 20 64 00 00
 0.371808 1  43D             Rx   d 8 14 00 21 00 00 00 00 00
 0.372042 1  43E             Rx   d 8 00 00 00 00 00 00 00 00
 0.372263 1  72E             Rx   d 8 03 7F 19 12 00 00 00 00
 0.377457 1  167             Rx   d 8 00 FF FF 00 00 02 18 00
 0.377504 1  204             Rx   d 8 00 00 FF 00 00 00 00 00
 0.387190 1  47              Rx   d 8 64 22 BC F4 3B 98 00 00
 0.387372 1  165             Rx   d 8 20 81 00 00 00 00 00 00
 0.387604 1  167             Rx   d 8 00 FF FF 00 00 02 18 00
 0.387854 1  200             Rx   d 8 00 00 80 26 80 26 F0 00
 0.388111 1  41              Rx   d 8 00 00 00 00 00 00 00 00
 0.388332 1  202             Rx   d 8 00 CC 00 00 00 00 00 00
 0.388580 1  204             Rx   d 8 00 00 FF 00 00 00 00 00
 0.388814 1  230             Rx   d 8 F0 1C 00 00 00 00 00 00
 0.389056 1  42C             Rx   d 8 84 02 00 00 00 00 00 00
 0.397410 1  167             Rx   d 8 00 FF FF 00 00 02 18 00
 0.397470 1  171             Rx   d 8 F0 E0 00 00 00 00 00 00
 0.397956 1  204             Rx   d 8 00 00 FF 00 00 00 00 00
 0.397991 1  42F             Rx   d 8 7D 02 05 4E 20 64 00 00
 0.400464 1  726             Rx   d 8 06 19 04 92 3A 15 10 00
 0.400499 1  287             Rx   d 8 00 00 00 00 00 00 00 00
 0.400505 1  30A             Rx   d 8 85 00 00 00 00 00 00 00
 0.400696 1  318             Rx   d 8 00 00 00 00 00 00 00 00
 0.400938 1  346             Rx   d 8 00 00 00 03 03 00 C0 00
 0.401181 1  348             Rx   d 8 00 00 00 01 00 00 00 00
 0.401458 1  430             Rx   d 8 C8 00 40 9B 00 00 64 00
 0.401736 1  434             Rx   d 8 40 00 70 00 20 4D 28 00
 0.407327 1  47              Rx   d 8 64 22 BC F4 3B 98 00 00
 0.407357 1  165             Rx   d 8 20 81 00 00 00 00 00 00
 0.407629 1  167             Rx   d 8 00 FF FF 00 00 02 18 00
 0.407860 1  41              Rx   d 8 00 00 00 00 00 00 00 00
 0.408086 1  200             Rx   d 8 00 00 80 26 80 26 F0 00
 0.408339 1  202             Rx   d 8 00 CC 00 00 00 00 00 00
 0.408656 1  204             Rx   d 8 00 00 FF 00 00 00 00 00
 0.408923 1  230             Rx   d 8 F0 1C 00 00 00 00 00 00
 0.409117 1  242             Rx   d 8 FF FF 3F FF 84 00 03 01
 0.409513 1  72E             Rx   d 8 03 7F 19 12 00 00 00 00
 0.417193 1  167             Rx   d 8 00 FF FF 00 00 02 18 00
 0.417365 1  204             Rx   d 8 00 00 FF 00 00 00 00 00
 0.417608 1  43D             Rx   d 8 14 00 21 00 00 00 00 00
 0.417843 1  43E             Rx   d 8 00 00 00 00 00 00 00 00
 0.427286 1  41              Rx   d 8 00 00 00 00 00 00 00 00
 0.427323 1  47              Rx   d 8 64 22 BC F4 3B 98 00 00
 0.427536 1  165             Rx   d 8 20 81 00 00 00 00 00 00
 0.427755 1  167             Rx   d 8 00 FF FF 00 00 02 18 00
 0.428009 1  171             Rx   d 8 F0 E0 00 00 00 00 00 00
 0.428248 1  200             Rx   d 8 00 00 80 26 80 26 F0 00
 0.428472 1  202             Rx   d 8 00 CC 00 00 00 00 00 00
 0.428761 1  204             Rx   d 8 00 00 FF 00 00 00 00 00
 0.428999 1  230             Rx   d 8 F0 1C 00 00 00 00 00 00
 0.429259 1  42F             Rx   d 8 7D 02 05 4E 20 64 00 00
 0.436863 1  331             Rx   d 8 C0 00 48 97 02 00 00 00
 0.436895 1  3B6             Rx   d 8 0E 00 00 00 00 00 00 00
 0.437202 1  3B7             Rx   d 8 00 00 00 00 00 00 00 00
 0.437398 1  167             Rx   d 8 00 FF FF 00 00 02 18 00
 0.437644 1  204             Rx   d 8 00 00 FF 00 00 00 00 00
 0.437876 1  42C             Rx   d 8 84 02 00 00 00 00 00 00
 0.439136 1  726             Rx   d 8 06 19 04 92 3A 15 11 00
 0.447408 1  41              Rx   d 8 00 00 00 00 00 00 00 00
 0.447480 1  242             Rx   d 8 FF FF 3F FF 84 00 03 01
 0.447489 1  47              Rx   d 8 64 22 BC F4 3B 98 00 00
 0.447884 1  165             Rx   d 8 20 81 00 00 00 00 00 00
 0.447905 1  167             Rx   d 8 00 FF FF 00 00 02 18 00
 0.448128 1  200             Rx   d 8 00 00 80 26 80 26 F0 00
 0.448361 1  202             Rx   d 8 00 CC 00 00 00 00 00 00
 0.448558 1  204             Rx   d 8 00 00 FF 00 00 00 00 00
 0.448811 1  230             Rx   d 8 F0 1C 00 00 00 00 00 00
 0.449019 1  72E             Rx   d 8 03 7F 19 12 00 00 00 00
 0.457196 1  167             Rx   d 8 00 FF FF 00 00 02 18 00
 0.457367 1  171             Rx   d 8 F0 E0 00 00 00 00 00 00
 0.457603 1  204             Rx   d 8 00 00 FF 00 00 00 00 00
 0.457826 1  42F             Rx   d 8 7D 02 05 4E 20 64 00 00
 0.464255 1  23A             Rx   d 8 FF FF FF FF F0 00 00 00
 0.464298 1  430             Rx   d 8 00 00 00 00 FE 00 00 00
 0.464539 1  434             Rx   d 8 00 00 00 00 0F FF 00 10
 0.464807 1  435             Rx   d 8 00 00 00 00 00 00 00 00
 0.466539 1  41              Rx   d 8 00 00 00 00 00 00 00 00
 0.467432 1  47              Rx   d 8 64 22 BC F4 3B 98 00 00
 0.467470 1  156             Rx   d 8 4B 00 00 00 00 00 00 00
 0.467885 1  165             Rx   d 8 20 81 00 00 00 00 00 00
 0.467910 1  166             Rx   d 8 76 00 00 FF FF FF 00 00
 0.468174 1  167             Rx   d 8 00 FF FF 00 00 02 18 00
 0.468657 1  178             Rx   d 8 00 00 02 00 02 54 CA 53
 0.468672 1  179             Rx   d 8 00 00 08 00 22 FF 00 00
 0.468840 1  17C             Rx   d 8 00 00 00 00 00 00 00 00
 0.469083 1  200             Rx   d 8 00 00 80 26 80 26 F0 00
 0.469365 1  202             Rx   d 8 00 CC 00 00 00 00 00 00
 0.469590 1  204             Rx   d 8 00 00 FF 00 00 00 00 00
 0.469844 1  230             Rx   d 8 F0 1C 00 00 00 00 00 00
 0.470089 1  421             Rx   d 8 04 00 11 00 00 00 00 00
 0.470321 1  424             Rx   d 8 00 00 00 03 00 00 00 00
 0.470581 1  42D             Rx   d 8 00 03 FF 00 00 00 F0 00
 0.470820 1  43D             Rx   d 8 14 00 21 00 00 00 00 00
 0.471098 1  43E             Rx   d 8 00 00 00 00 00 00 00 00
 0.477426 1  167             Rx   d 8 00 FF FF 00 00 02 18 00
 0.477486 1  204             Rx   d 8 00 00 FF 00 00 00 00 00
 0.478797 1  726             Rx   d 8 06 19 04 92 47 15 10 00
 0.486729 1  41              Rx   d 8 00 00 00 00 00 00 00 00
 0.486904 1  242             Rx   d 8 FF FF 3F FF 84 00 03 01
 0.487172 1  47              Rx   d 8 64 22 BC F4 3B 98 00 00
 0.487396 1  165             Rx   d 8 20 81 00 00 00 00 00 00
 0.487643 1  167             Rx   d 8 00 FF FF 00 00 02 18 00
 0.487880 1  171             Rx   d 8 F0 E0 00 00 00 00 00 00
 0.488166 1  200             Rx   d 8 00 00 80 26 80 26 F0 00
 0.488403 1  202             Rx   d 8 00 CC 00 00 00 00 00 00
 0.488634 1  204             Rx   d 8 00 00 FF 00 00 00 00 00
 0.488887 1  230             Rx   d 8 F0 1C 00 00 00 00 00 00
 0.489106 1  40A             Rx   d 8 C1 01 47 41 48 4A 48 45
 0.489333 1  42F             Rx   d 8 7D 02 05 4E 20 64 00 00
 0.489598 1  42C             Rx   d 8 84 02 00 00 00 00 00 00
 0.489838 1  72E             Rx   d 8 03 7F 19 12 00 00 00 00
 0.497347 1  167             Rx   d 8 00 FF FF 00 00 02 18 00
 0.497391 1  204             Rx   d 8 00 00 FF 00 00 00 00 00
 0.500421 1  318             Rx   d 8 00 00 00 00 00 00 00 00
 0.500466 1  346             Rx   d 8 00 00 00 03 03 00 C0 00
 0.500891 1  348             Rx   d 8 00 00 00 01 00 00 00 00
 0.500910 1  430             Rx   d 8 C8 00 40 9B 00 00 64 00
 0.501214 1  434             Rx   d 8 40 00 70 00 20 4D 28 00
 0.505855 1  41              Rx   d 8 00 00 00 00 00 00 00 00
 0.507958 1  47              Rx   d 8 64 22 BC F4 3B 98 00 00
 0.507999 1  165             Rx   d 8 20 81 00 00 00 00 00 00
 0.508005 1  167             Rx   d 8 00 FF FF 00 00 02 18 00
 0.508009 1  200             Rx   d 8 00 00 80 26 80 26 F0 00
 0.508400 1  202             Rx   d 8 00 CC 00 00 00 00 00 00
 0.508442 1  204             Rx   d 8 00 00 FF 00 00 00 00 00
 0.508612 1  230             Rx   d 8 F0 1C 00 00 00 00 00 00
 0.517176 1  167             Rx   d 8 00 FF FF 00 00 02 18 00
 0.517339 1  171             Rx   d 8 F0 E0 00 00 00 00 00 00
 0.517585 1  204             Rx   d 8 00 00 FF 00 00 00 00 00
 0.517835 1  42F             Rx   d 8 7D 02 05 4E 20 64 00 00
 0.518072 1  43D             Rx   d 8 14 00 21 00 00 00 00 00
 0.518321 1  43E             Rx   d 8 00 00 00 00 00 00 00 00
 0.521684 1  726             Rx   d 8 06 19 04 92 47 15 11 00
 0.525808 1  41              Rx   d 8 00 00 00 00 00 00 00 00
 0.525841 1  242             Rx   d 8 FF FF 3F FF 85 00 03 01
 0.526089 1  72E             Rx   d 8 03 7F 19 12 00 00 00 00
 0.527221 1  47              Rx   d 8 64 22 BC F4 3B 98 00 00
 0.527452 1  165             Rx   d 8 20 81 00 00 00 00 00 00
 0.527634 1  167             Rx   d 8 00 FF FF 00 00 02 18 00
 0.527922 1  200             Rx   d 8 00 00 80 26 80 26 F0 00
 0.528106 1  202             Rx   d 8 00 CC 00 00 00 00 00 00
 0.528368 1  204             Rx   d 8 00 00 FF 00 00 00 00 00
 0.528621 1  230             Rx   d 8 F0 1C 00 00 00 00 00 00
 0.535156 1  42C             Rx   d 8 84 02 00 00 00 00 00 00
 0.537461 1  167             Rx   d 8 00 FF FF 00 00 02 18 00
 0.537508 1  204             Rx   d 8 00 00 FF 00 00 00 00 00
 0.544978 1  41              Rx   d 8 00 00 00 00 00 00 00 00
 0.547693 1  47              Rx   d 8 64 22 BC F4 3B 98 00 00
 0.547748 1  165             Rx   d 8 20 81 00 00 00 00 00 00
 0.547758 1  167             Rx   d 8 00 FF FF 00 00 02 18 00
 0.548104 1  171             Rx   d 8 F0 E0 00 00 00 00 00 00
 0.548123 1  200             Rx   d 8 00 00 80 26 80 26 F0 00
 0.548371 1  202             Rx   d 8 00 CC 00 00 00 00 00 00
 0.548591 1  204             Rx   d 8 00 00 FF 00 00 00 00 00
 0.548869 1  230             Rx   d 8 F0 1C 00 00 00 00 00 00
 0.549105 1  42F             Rx   d 8 7D 02 05 4E 20 64 00 00
 0.555010 1  726             Rx   d 8 06 19 04 92 48 15 10 00
 0.557210 1  167             Rx   d 8 00 FF FF 00 00 02 18 00
 0.557467 1  204             Rx   d 8 00 00 FF 00 00 00 00 00
 0.564123 1  23A             Rx   d 8 FF FF FF FF F0 00 00 00
 0.564319 1  430             Rx   d 8 00 00 00 00 FE 00 00 00
 0.564523 1  434             Rx   d 8 00 00 00 00 0F FF 00 10
 0.564760 1  435             Rx   d 8 00 00 00 00 00 00 00 00
 0.565011 1  41              Rx   d 8 00 00 00 00 00 00 00 00
 0.565251 1  242             Rx   d 8 FF FF 3F FF 84 00 03 01
 0.565486 1  72E             Rx   d 8 03 7F 19 12 00 00 00 00
 0.567199 1  47              Rx   d 8 64 22 BC F4 3B 98 00 00
 0.567421 1  156             Rx   d 8 4B 00 00 00 00 00 00 00
 0.567610 1  165             Rx   d 8 20 81 00 00 00 00 00 00
 0.567888 1  166             Rx   d 8 76 00 00 FF FF FF 00 00
 0.568134 1  167             Rx   d 8 00 FF FF 00 00 02 18 00
 0.568367 1  178             Rx   d 8 00 00 02 00 02 54 CA 53
 0.568644 1  179             Rx   d 8 00 00 08 00 22 FF 00 00
 0.568932 1  17C             Rx   d 8 00 00 00 00 00 00 00 00
 0.569176 1  200             Rx   d 8 00 00 80 26 80 26 F0 00
 0.569398 1  202             Rx   d 8 00 CC 00 00 00 00 00 00
 0.569633 1  204             Rx   d 8 00 00 FF 00 00 00 00 00
 0.569883 1  230             Rx   d 8 F0 1C 00 00 00 00 00 00
 0.570109 1  421             Rx   d 8 04 00 11 00 00 00 00 00
 0.570387 1  424             Rx   d 8 00 00 00 03 00 00 00 00
 0.570608 1  42D             Rx   d 8 00 03 FF 00 00 00 F0 00
 0.570870 1  43D             Rx   d 8 14 00 21 00 00 00 00 00
 0.571176 1  43E             Rx   d 8 00 00 00 00 00 00 00 00
 0.577382 1  167             Rx   d 8 00 FF FF 00 00 02 18 00
 0.577419 1  171             Rx   d 8 F0 E0 00 00 00 00 00 00
 0.577676 1  204             Rx   d 8 00 00 FF 00 00 00 00 00
 0.577897 1  42F             Rx   d 8 7D 02 05 4E 20 64 00 00
 0.585077 1  41              Rx   d 8 00 00 00 00 00 00 00 00
 0.585118 1  42C             Rx   d 8 84 02 00 00 00 00 00 00
 0.587190 1  47              Rx   d 8 64 22 BC F4 3B 98 00 00
 0.587394 1  165             Rx   d 8 20 81 00 00 00 00 00 00
 0.587595 1  167             Rx   d 8 00 FF FF 00 00 02 18 00
 0.587850 1  200             Rx   d 8 00 00 80 26 80 26 F0 00
 0.588130 1  202             Rx   d 8 00 CC 00 00 00 00 00 00
 0.588367 1  204             Rx   d 8 00 00 FF 00 00 00 00 00
 0.588604 1  230             Rx   d 8 F0 1C 00 00 00 00 00 00
 0.597546 1  167             Rx   d 8 00 FF FF 00 00 02 18 00
 0.597611 1  204             Rx   d 8 00 00 FF 00 00 00 00 00
 0.599179 1  726             Rx   d 8 06 19 04 92 48 15 11 00
 0.600093 1  287             Rx   d 8 00 00 00 00 00 00 00 00
 0.600346 1  30A             Rx   d 8 85 00 00 00 00 00 00 00
 0.600579 1  318             Rx   d 8 00 00 00 00 00 00 00 00
 0.600854 1  346             Rx   d 8 00 00 00 03 03 00 C0 00
 0.601068 1  348             Rx   d 8 00 00 00 01 00 00 00 00
 0.601514 1  430             Rx   d 8 C8 00 40 9B 00 00 64 00
 0.601530 1  434             Rx   d 8 40 00 70 00 20 4D 28 00
 0.604390 1  41              Rx   d 8 00 00 00 00 00 00 00 00
 0.604434 1  242             Rx   d 8 FF FF 3F FF 84 00 03 01
 0.604727 1  72E             Rx   d 8 03 7F 19 12 00 00 00 00
 0.607664 1  47              Rx   d 8 64 22 BC F4 3B 98 00 00
 0.607706 1  165             Rx   d 8 20 81 00 00 00 00 00 00
 0.607713 1  167             Rx   d 8 00 FF FF 00 00 02 18 00
 0.608181 1  171             Rx   d 8 F0 E0 00 00 00 00 00 00
 0.608209 1  200             Rx   d 8 00 00 80 26 80 26 F0 00
 0.608652 1  202             Rx   d 8 00 CC 00 00 00 00 00 00
 0.608676 1  204             Rx   d 8 00 00 FF 00 00 00 00 00
 0.608923 1  230             Rx   d 8 F0 1C 00 00 00 00 00 00
 0.609183 1  42F             Rx   d 8 7D 02 05 4E 20 64 00 00
 0.617440 1  167             Rx   d 8 00 FF FF 00 00 02 18 00
 0.617489 1  204             Rx   d 8 00 00 FF 00 00 00 00 00
 0.617853 1  43D             Rx   d 8 14 00 21 00 00 00 00 00
 0.617871 1  43E             Rx   d 8 00 00 00 00 00 00 00 00
 0.624087 1  41              Rx   d 8 00 00 00 00 00 00 00 00
 0.627478 1  47              Rx   d 8 64 22 BC F4 3B 98 00 00
 0.627520 1  165             Rx   d 8 20 81 00 00 00 00 00 00
 0.627865 1  167             Rx   d 8 00 FF FF 00 00 02 18 00
 0.627881 1  200             Rx   d 8 00 00 80 26 80 26 F0 00
 0.628390 1  202             Rx   d 8 00 CC 00 00 00 00 00 00
 0.628431 1  204             Rx   d 8 00 00 FF 00 00 00 00 00
 0.628679 1  230             Rx   d 8 F0 1C 00 00 00 00 00 00
 0.633301 1  42C             Rx   d 8 84 02 00 00 00 00 00 00
 0.635227 1  726             Rx   d 8 06 19 04 9D 01 15 10 00
 0.637215 1  167             Rx   d 8 00 FF FF 00 00 02 18 00
 0.637428 1  171             Rx   d 8 F0 E0 00 00 00 00 00 00
 0.637597 1  204             Rx   d 8 00 00 FF 00 00 00 00 00
 0.637849 1  42F             Rx   d 8 7D 02 05 4E 20 64 00 00
 0.644131 1  41              Rx   d 8 00 00 00 00 00 00 00 00
 0.644172 1  242             Rx   d 8 FF FF 3F FF 84 00 03 01
 0.644415 1  72E             Rx   d 8 03 7F 19 12 00 00 00 00
 0.647387 1  47              Rx   d 8 64 22 BC F4 3B 98 00 00
 0.647428 1  165             Rx   d 8 20 81 00 00 00 00 00 00
 0.647693 1  167             Rx   d 8 00 FF FF 00 00 02 18 00
 0.647910 1  200             Rx   d 8 00 00 80 26 80 26 F0 00
 0.648095 1  202             Rx   d 8 00 CC 00 00 00 00 00 00
 0.648375 1  204             Rx   d 8 00 00 FF 00 00 00 00 00
 0.648798 1  230             Rx   d 8 F0 1C 00 00 00 00 00 00
 0.657203 1  167             Rx   d 8 00 FF FF 00 00 02 18 00
 0.657388 1  204             Rx   d 8 00 00 FF 00 00 00 00 00
 0.663093 1  41              Rx   d 8 00 00 00 00 00 00 00 00
 0.664321 1  23A             Rx   d 8 FF FF FF FF F0 00 00 00
 0.664358 1  430             Rx   d 8 00 00 00 00 FE 00 00 00
 0.664599 1  434             Rx   d 8 00 00 00 00 0F FF 00 10
 0.664826 1  435             Rx   d 8 00 00 00 00 00 00 00 00
 0.667159 1  47              Rx   d 8 64 22 BC F4 3B 98 00 00
 0.667377 1  156             Rx   d 8 4B 00 00 00 00 00 00 00
 0.667585 1  165             Rx   d 8 20 81 00 00 00 00 00 00
 0.667820 1  166             Rx   d 8 76 00 00 FF FF FF 00 00
 0.668081 1  167             Rx   d 8 00 FF FF 00 00 02 18 00
 0.668314 1  171             Rx   d 8 F0 E0 00 00 00 00 00 00
 0.668551 1  178             Rx   d 8 00 00 02 00 02 54 CA 53
 0.668791 1  179             Rx   d 8 00 00 08 00 22 FF 00 00
 0.669040 1  17C             Rx   d 8 00 00 00 00 00 00 00 00
 0.669291 1  200             Rx   d 8 00 00 80 26 80 26 F0 00
 0.669565 1  202             Rx   d 8 00 CC 00 00 00 00 00 00
 0.669810 1  204             Rx   d 8 00 00 FF 00 00 00 00 00
 0.670060 1  230             Rx   d 8 F0 1C 00 00 00 00 00 00
 0.670294 1  421             Rx   d 8 04 00 11 00 00 00 00 00
 0.670521 1  424             Rx   d 8 00 00 00 03 00 00 00 00
 0.670793 1  42D             Rx   d 8 00 03 FF 00 00 00 F0 00
 0.671025 1  42F             Rx   d 8 7D 02 05 4E 20 64 00 00
 0.671330 1  43D             Rx   d 8 14 00 21 00 00 00 00 00
 0.671585 1  43E             Rx   d 8 00 00 00 00 00 00 00 00
 0.671819 1  581             Rx   d 8 81 00 FF FF FF FF FF FF
 0.677408 1  167             Rx   d 8 00 FF FF 00 00 02 18 00
 0.677455 1  204             Rx   d 8 00 00 FF 00 00 00 00 00
 0.678774 1  726             Rx   d 8 06 19 04 9D 01 15 11 00
 0.683657 1  41              Rx   d 8 00 00 00 00 00 00 00 00
 0.683864 1  242             Rx   d 8 FF FF 3F FF 84 00 03 01
 0.684020 1  38D             Rx   d 8 20 00 00 00 00 00 00 F0
 0.684331 1  3B1             Rx   d 8 00 00 00 00 00 00 00 00
 0.684577 1  3B6             Rx   d 8 0E 00 00 00 00 00 00 00
 0.684817 1  3B7             Rx   d 8 00 00 00 00 00 00 00 00
 0.685084 1  3B8             Rx   d 8 FF FF FF FF 00 00 00 00
 0.685324 1  3E3             Rx   d 8 00 01 04 11 80 00 00 00
 0.685655 1  72E             Rx   d 8 03 7F 19 12 00 00 00 00
 0.686785 1  3EB             Rx   d 8 00 04 04 00 00 00 00 00
 0.686842 1  40A             Rx   d 8 C1 02 32 38 38 33 36 00
 0.686856 1  42C             Rx   d 8 84 02 00 00 00 00 00 00
 0.686864 1  43C             Rx   d 8 B2 00 4B 2C 3C 99 88 14
 0.686867 1  447             Rx   d 8 20 00 00 4B 00 20 00 00
 0.687708 1  47              Rx   d 8 64 22 BC F4 3B 98 00 00
 0.687743 1  165             Rx   d 8 20 81 00 00 00 00 00 00
 0.687749 1  167             Rx   d 8 00 FF FF 00 00 02 18 00
 0.688075 1  200             Rx   d 8 00 00 80 26 80 26 F0 00
 0.688089 1  202             Rx   d 8 00 CC 00 00 00 00 00 00
 0.688429 1  204             Rx   d 8 00 00 FF 00 00 00 00 00
 0.688647 1  230             Rx   d 8 F0 1C 00 00 00 00 00 00
 0.697206 1  167             Rx   d 8 00 FF FF 00 00 02 18 00
 0.697404 1  171             Rx   d 8 F0 E0 00 00 00 00 00 00
 0.697645 1  204             Rx   d 8 00 00 FF 00 00 00 00 00
 0.697882 1  42F             Rx   d 8 7D 02 05 4E 20 64 00 00
 0.700075 1  318             Rx   d 8 00 00 00 00 00 00 00 00
 0.700414 1  346             Rx   d 8 00 00 00 03 03 00 C0 00
 0.700433 1  348             Rx   d 8 00 00 00 01 00 00 00 00
 0.700761 1  430             Rx   d 8 C8 00 40 9B 00 00 64 00
 0.700951 1  434             Rx   d 8 40 00 70 00 20 4D 28 00
 0.702179 1  41              Rx   d 8 00 00 00 00 00 00 00 00
 0.707210 1  47              Rx   d 8 64 22 BC F4 3B 98 00 00
 0.707411 1  165             Rx   d 8 20 81 00 00 00 00 00 00
 0.707597 1  167             Rx   d 8 00 FF FF 00 00 02 18 00
 0.707854 1  200             Rx   d 8 00 00 80 26 80 26 F0 00
 0.708105 1  202             Rx   d 8 00 CC 00 00 00 00 00 00
 0.708380 1  204             Rx   d 8 00 00 FF 00 00 00 00 00
 0.708622 1  230             Rx   d 8 F0 1C 00 00 00 00 00 00
 0.714967 1  726             Rx   d 8 06 19 04 9D 00 15 10 00
 0.718152 1  167             Rx   d 8 00 FF FF 00 00 02 18 00
 0.718211 1  204             Rx   d 8 00 00 FF 00 00 00 00 00
 0.718219 1  43D             Rx   d 8 14 00 21 00 00 00 00 00
 0.718223 1  43E             Rx   d 8 00 00 00 00 00 00 00 00
 0.723056 1  41              Rx   d 8 00 00 00 00 00 00 00 00
 0.723114 1  242             Rx   d 8 FF FF 3F FF 84 00 03 01
 0.723124 1  72E             Rx   d 8 03 7F 19 12 00 00 00 00
 0.727176 1  47              Rx   d 8 64 22 BC F4 3B 98 00 00
 0.727349 1  165             Rx   d 8 20 81 00 00 00 00 00 00
 0.727599 1  167             Rx   d 8 00 FF FF 00 00 02 18 00
 0.727814 1  171             Rx   d 8 F0 E0 00 00 00 00 00 00
 0.728055 1  200             Rx   d 8 00 00 80 26 80 26 F0 00
 0.728353 1  202             Rx   d 8 00 CC 00 00 00 00 00 00
 0.728627 1  204             Rx   d 8 00 00 FF 00 00 00 00 00
 0.728860 1  230             Rx   d 8 F0 1C 00 00 00 00 00 00
 0.729107 1  42F             Rx   d 8 7D 02 05 4E 20 64 00 00
 0.731544 1  3B4             Rx   d 8 34 21 11 FF 1E 1A 00 00
 0.731803 1  42C             Rx   d 8 84 02 00 00 00 00 00 00
 0.737183 1  167             Rx   d 8 00 FF FF 00 00 02 18 00
 0.737345 1  204             Rx   d 8 00 00 FF 00 00 00 00 00
 0.741689 1  41              Rx   d 8 00 00 00 00 00 00 00 00
 0.741887 1  3B5             Rx   d 8 FF FD FF FD FF FD FF FD
 0.747468 1  47              Rx   d 8 64 22 BC F4 3B 98 00 00
 0.747543 1  165             Rx   d 8 20 81 00 00 00 00 00 00
 0.747916 1  167             Rx   d 8 00 FF FF 00 00 02 18 00
 0.747933 1  200             Rx   d 8 00 00 80 26 80 26 F0 00
 0.748144 1  202             Rx   d 8 00 CC 00 00 00 00 00 00
 0.748393 1  204             Rx   d 8 00 00 FF 00 00 00 00 00
 0.748643 1  230             Rx   d 8 F0 1C 00 00 00 00 00 00
 0.753548 1  726             Rx   d 8 06 19 04 9D 00 15 11 00
 0.753839 1  59E             Rx   d 8 9E 00 FF FF FF FF FF FF
 0.757753 1  167             Rx   d 8 00 FF FF 00 00 02 18 00
 0.757813 1  171             Rx   d 8 F0 E0 00 00 00 00 00 00
 0.757824 1  204             Rx   d 8 00 00 FF 00 00 00 00 00
 0.758299 1  42F             Rx   d 8 7D 02 05 4E 20 64 00 00
 0.761574 1  41              Rx   d 8 00 00 00 00 00 00 00 00
 0.761750 1  242             Rx   d 8 FF FF 3F FF 84 00 03 01
 0.761974 1  3C7             Rx   d 8 00 00 40 00 00 00 00 00
 0.762211 1  72E             Rx   d 8 03 7F 19 12 00 00 00 00
 0.764605 1  23A             Rx   d 8 FF FF FF FF F0 00 00 00
 0.764805 1  2F1             Rx   d 8 00 00 00 00 00 00 00 00
 0.765027 1  386             Rx   d 8 00 00 00 00 00 00 00 00
 0.765278 1  430             Rx   d 8 00 00 00 00 FE 00 00 00
 0.765535 1  434             Rx   d 8 00 00 00 00 0F FF 00 10
 0.765762 1  435             Rx   d 8 00 00 00 00 00 00 00 00
 0.766024 1  437             Rx   d 8 00 00 00 00 00 00 00 00
 0.766258 1  438             Rx   d 8 00 00 00 00 00 00 00 00
 0.766558 1  439             Rx   d 8 00 00 04 00 04 00 00 00
 0.766743 1  43A             Rx   d 8 00 00 00 00 00 00 00 00
 0.767103 1  47              Rx   d 8 64 22 BC F4 3B 98 00 00
 0.767331 1  156             Rx   d 8 4B 00 00 00 00 00 00 00
 0.767592 1  165             Rx   d 8 20 81 00 00 00 00 00 00
 0.767832 1  166             Rx   d 8 76 00 00 FF FF FF 00 00
 0.768068 1  167             Rx   d 8 00 FF FF 00 00 02 18 00
 0.768301 1  178             Rx   d 8 00 00 02 00 02 54 CA 53
 0.768545 1  179             Rx   d 8 00 00 08 00 22 FF 00 00
 0.768830 1  17C             Rx   d 8 00 00 00 00 00 00 00 00
 0.769067 1  200             Rx   d 8 00 00 80 26 80 26 F0 00
 0.769332 1  202             Rx   d 8 00 CC 00 00 00 00 00 00
 0.769587 1  204             Rx   d 8 00 00 FF 00 00 00 00 00
 0.769799 1  230             Rx   d 8 F0 1C 00 00 00 00 00 00
 0.770063 1  421             Rx   d 8 04 00 11 00 00 00 00 00
 0.770307 1  424             Rx   d 8 00 00 00 03 00 00 00 00
 0.770541 1  42D             Rx   d 8 00 03 FF 00 00 00 F0 00
 0.770794 1  43D             Rx   d 8 14 00 21 00 00 00 00 00
 0.771041 1  43E             Rx   d 8 00 00 00 00 00 00 00 00
 0.777177 1  167             Rx   d 8 00 FF FF 00 00 02 18 00
 0.777366 1  204             Rx   d 8 00 00 FF 00 00 00 00 00
 0.781995 1  41              Rx   d 8 00 00 00 00 00 00 00 00
 0.782036 1  3B3             Rx   d 8 44 88 00 0C E6 00 03 3C
 0.782530 1  3C3             Rx   d 8 5C 80 10 C1 00 00 00 00
 0.782550 1  42C             Rx   d 8 84 02 00 00 00 00 00 00
 0.787353 1  47              Rx   d 8 64 22 BC F4 3B 98 00 00
 0.787387 1  165             Rx   d 8 20 81 00 00 00 00 00 00
 0.787658 1  167             Rx   d 8 00 FF FF 00 00 02 18 00
 0.788211 1  171             Rx   d 8 F0 E0 00 00 00 00 00 00
 0.788264 1  200             Rx   d 8 00 00 80 26 80 26 F0 00
 0.789261 1  202             Rx   d 8 00 CC 00 00 00 00 00 00
 0.789294 1  204             Rx   d 8 00 00 FF 00 00 00 00 00
 0.789301 1  230             Rx   d 8 F0 1C 00 00 00 00 00 00
 0.789305 1  42F             Rx   d 8 7D 02 05 4E 20 64 00 00
 0.794818 1  726             Rx   d 8 06 19 04 93 10 14 10 00
 0.797196 1  167             Rx   d 8 00 FF FF 00 00 02 18 00
 0.797361 1  204             Rx   d 8 00 00 FF 00 00 00 00 00
 0.800017 1  18B             Rx   d 8 00 00 00 1E 00 00 00 00
 0.800228 1  19A             Rx   d 8 00 00 00 02 40 00 00 00
 0.800502 1  220             Rx   d 8 10 01 00 00 00 00 00 00
 0.800739 1  225             Rx   d 8 A0 81 00 00 00 00 00 00
 0.800997 1  287             Rx   d 8 00 00 00 00 00 00 00 00
 0.801255 1  41              Rx   d 8 00 00 00 00 00 00 00 00
 0.801498 1  242             Rx   d 8 FF FF 3F FF 84 00 03 01
 0.801745 1  2F4             Rx   d 8 10 01 00 00 00 00 00 00
 0.801973 1  72E             Rx   d 8 03 7F 19 12 00 00 00 00
 0.802229 1  2FD             Rx   d 8 09 00 00 04 FC 00 00 00
 0.802485 1  30A             Rx   d 8 85 00 00 00 00 00 00 00
 0.802738 1  315             Rx   d 8 00 00 00 00 00 00 00 00
 0.802996 1  318             Rx   d 8 00 00 00 00 00 00 00 00
 0.803288 1  346             Rx   d 8 00 00 00 03 03 00 C0 00
 0.803558 1  348             Rx   d 8 00 00 00 01 00 00 00 00
 0.803804 1  350             Rx   d 8 00 00 00 00 00 00 00 00
 0.804103 1  353             Rx   d 8 00 00 00 00 00 00 00 00
 0.804368 1  3C8             Rx   d 8 00 00 00 EC 00 00 00 00
 0.804628 1  3E0             Rx   d 8 00 00 00 00 80 00 00 00
 0.804892 1  3FB             Rx   d 8 00 01 09 02 04 00 00 00
 0.805129 1  430             Rx   d 8 C8 00 40 9B 00 00 64 00
 0.805382 1  434             Rx   d 8 40 00 70 00 20 4D 28 00
 0.807212 1  47              Rx   d 8 64 22 BC F4 3B 98 00 00
 0.807407 1  165             Rx   d 8 20 81 00 00 00 00 00 00
 0.807625 1  167             Rx   d 8 00 FF FF 00 00 02 18 00
 0.807842 1  200             Rx   d 8 00 00 80 26 80 26 F0 00
 0.817353 1  167             Rx   d 8 00 FF FF 00 00 02 18 00
 0.817382 1  171             Rx   d 8 F0 E0 00 00 00 00 00 00
 0.817647 1  204             Rx   d 8 00 00 FF 00 00 00 00 00
 0.817896 1  42F             Rx   d 8 7D 02 05 4E 20 64 00 00
 0.818143 1  43D             Rx   d 8 14 00 21 00 00 00 00 00
 0.818362 1  43E             Rx   d 8 00 00 00 00 00 00 00 00
 0.820423 1  41              Rx   d 8 00 00 00 00 00 00 00 00
 0.827376 1  47              Rx   d 8 64 22 BC F4 3B 98 00 00
 0.827412 1  165             Rx   d 8 20 81 00 00 00 00 00 00
 0.827625 1  167             Rx   d 8 00 FF FF 00 00 02 18 00
 0.827852 1  200             Rx   d 8 00 00 80 26 80 26 F0 00
 0.828129 1  202             Rx   d 8 00 CC 00 00 00 00 00 00
 0.828614 1  230             Rx   d 8 F0 1C 00 00 00 00 00 00
 0.832950 1  726             Rx   d 8 06 19 04 93 10 14 11 00
 0.837174 1  167             Rx   d 8 00 FF FF 00 00 02 18 00
 0.837349 1  204             Rx   d 8 00 00 FF 00 00 00 00 00
 0.840475 1  41              Rx   d 8 00 00 00 00 00 00 00 00
 0.840665 1  242             Rx   d 8 FF FF 3F FF 84 00 03 01
 0.840840 1  72E             Rx   d 8 03 7F 19 12 00 00 00 00
 0.847177 1  47              Rx   d 8 64 22 BC F4 3B 98 00 00
 0.847369 1  165             Rx   d 8 20 81 00 00 00 00 00 00
 0.847615 1  167             Rx   d 8 00 FF FF 00 00 02 18 00
 0.847858 1  171             Rx   d 8 F0 E0 00 00 00 00 00 00
 0.848087 1  200             Rx   d 8 00 00 80 26 80 26 F0 00
 0.848340 1  202             Rx   d 8 00 CC 00 00 00 00 00 00
 0.848592 1  204             Rx   d 8 00 00 FF 00 00 00 00 00
 0.848819 1  230             Rx   d 8 F0 1C 00 00 00 00 00 00
 0.849060 1  42F             Rx   d 8 7D 02 05 4E 20 64 00 00
 0.857554 1  167             Rx   d 8 00 FF FF 00 00 02 18 00
 0.857619 1  204             Rx   d 8 00 00 FF 00 00 00 00 00
 0.859703 1  41              Rx   d 8 00 00 00 00 00 00 00 00
 0.864365 1  23A             Rx   d 8 FF FF FF FF F0 00 00 00
 0.864424 1  430             Rx   d 8 00 00 00 00 FE 00 00 00
 0.864740 1  434             Rx   d 8 00 00 00 00 0F FF 00 10
 0.864922 1  435             Rx   d 8 00 00 00 00 00 00 00 00
 0.867147 1  47              Rx   d 8 64 22 BC F4 3B 98 00 00
 0.867344 1  156             Rx   d 8 4B 00 00 00 00 00 00 00
 0.867573 1  165             Rx   d 8 20 81 00 00 00 00 00 00
 0.867808 1  166             Rx   d 8 76 00 00 FF FF FF 00 00
 0.868080 1  167             Rx   d 8 00 FF FF 00 00 02 18 00
 0.868306 1  178             Rx   d 8 00 00 02 00 02 54 CA 53
 0.869306 1  202             Rx   d 8 00 CC 00 00 00 00 00 00
 0.870281 1  424             Rx   d 8 00 00 00 03 00 00 00 00
 0.871264 1  591             Rx   d 8 91 00 FF FF FF FF FF FF
 0.872854 1  726             Rx   d 8 06 19 04 02 30 14 10 00
 0.877364 1  167             Rx   d 8 00 FF FF 00 00 02 18 00
 0.877394 1  171             Rx   d 8 F0 E0 00 00 00 00 00 00
 0.877676 1  204             Rx   d 8 00 00 FF 00 00 00 00 00
 0.877851 1  42F             Rx   d 8 7D 02 05 4E 20 64 00 00
 0.880523 1  41              Rx   d 8 00 00 00 00 00 00 00 00
 0.880550 1  242             Rx   d 8 FF FF 3F FF 85 00 03 01
 0.880831 1  40A             Rx   d 8 C1 04 01 8A 07 54 85 41
 0.887191 1  47              Rx   d 8 64 22 BC F4 3B 98 00 00
 0.887376 1  165             Rx   d 8 20 81 00 00 00 00 00 00
 0.887609 1  167             Rx   d 8 00 FF FF 00 00 02 18 00
 0.887833 1  200             Rx   d 8 00 00 80 26 80 26 F0 00
 0.888099 1  202             Rx   d 8 00 CC 00 00 00 00 00 00
 0.888346 1  204             Rx   d 8 00 00 FF 00 00 00 00 00
 0.888583 1  230             Rx   d 8 F0 1C 00 00 00 00 00 00
 0.897573 1  167             Rx   d 8 00 FF FF 00 00 02 18 00
 0.897650 1  204             Rx   d 8 00 00 FF 00 00 00 00 00
 0.899154 1  41              Rx   d 8 00 00 00 00 00 00 00 00
 0.900150 1  318             Rx   d 8 00 00 00 00 00 00 00 00
 0.900176 1  346             Rx   d 8 00 00 00 03 03 00 C0 00
 0.900516 1  348             Rx   d 8 00 00 00 01 00 00 00 00
 0.907166 1  47              Rx   d 8 64 22 BC F4 3B 98 00 00
 0.907331 1  165             Rx   d 8 20 81 00 00 00 00 00 00
 0.907573 1  167             Rx   d 8 00 FF FF 00 00 02 18 00
 0.907817 1  171             Rx   d 8 F0 E0 00 00 00 00 00 00
 0.908083 1  200             Rx   d 8 00 00 80 26 80 26 F0 00
 0.910414 1  726             Rx   d 8 06 19 04 02 30 14 11 00
 0.917217 1  167             Rx   d 8 00 FF FF 00 00 02 18 00
 0.917429 1  204             Rx   d 8 00 00 FF 00 00 00 00 00
 0.917616 1  43D             Rx   d 8 14 00 21 00 00 00 00 00
 0.917894 1  43E             Rx   d 8 00 00 00 00 00 00 00 00
 0.919091 1  41              Rx   d 8 00 00 00 00 00 00 00 00
 0.919310 1  242             Rx   d 8 FF FF 3F FF 84 00 03 01
 0.919487 1  72E             Rx   d 8 03 7F 19 12 00 00 00 00
 0.927416 1  47              Rx   d 8 64 22 BC F4 3B 98 00 00
 0.927466 1  165             Rx   d 8 20 81 00 00 00 00 00 00
 0.927690 1  167             Rx   d 8 00 FF FF 00 00 02 18 00
 0.927885 1  200             Rx   d 8 00 00 80 26 80 26 F0 00
 0.928116 1  202             Rx   d 8 00 CC 00 00 00 00 00 00
 0.928353 1  204             Rx   d 8 00 00 FF 00 00 00 00 00
 0.928599 1  230             Rx   d 8 F0 1C 00 00 00 00 00 00
 0.928862 1  331             Rx   d 8 C0 00 48 97 02 00 00 00
 0.929117 1  3B6             Rx   d 8 0E 00 00 00 00 00 00 00
 0.937713 1  167             Rx   d 8 00 FF FF 00 00 02 18 00
 0.937757 1  171             Rx   d 8 F0 E0 00 00 00 00 00 00
 0.937764 1  204             Rx   d 8 00 00 FF 00 00 00 00 00
 0.938071 1  42F             Rx   d 8 7D 02 05 4E 20 64 00 00
 0.947186 1  47              Rx   d 8 64 22 BC F4 3B 98 00 00
 0.947353 1  165             Rx   d 8 20 81 00 00 00 00 00 00
 0.947577 1  167             Rx   d 8 00 FF FF 00 00 02 18 00
 0.947809 1  200             Rx   d 8 00 00 80 26 80 26 F0 00
 0.948076 1  202             Rx   d 8 00 CC 00 00 00 00 00 00
 0.948314 1  204             Rx   d 8 00 00 FF 00 00 00 00 00
 0.948551 1  230             Rx   d 8 F0 1C 00 00 00 00 00 00
 0.953353 1  726             Rx   d 8 06 19 04 C2 12 87 10 00
 0.957221 1  167             Rx   d 8 00 FF FF 00 00 02 18 00
 0.957422 1  204             Rx   d 8 00 00 FF 00 00 00 00 00
 0.958371 1  41              Rx   d 8 00 00 00 00 00 00 00 00
 0.958572 1  242             Rx   d 8 FF FF 3F FF 85 00 03 01
 0.958804 1  72E             Rx   d 8 03 7F 19 12 00 00 00 00
 0.964579 1  23A             Rx   d 8 FF FF FF FF F0 00 00 00
 0.964624 1  430             Rx   d 8 00 00 00 00 FE 00 00 00
 0.964966 1  434             Rx   d 8 00 00 00 00 0F FF 00 10
 0.964988 1  435             Rx   d 8 00 00 00 00 00 00 00 00
 0.967381 1  47              Rx   d 8 64 22 BC F4 3B 98 00 00
 0.967420 1  156             Rx   d 8 4B 00 00 00 00 00 00 00
 0.967671 1  165             Rx   d 8 20 81 00 00 00 00 00 00
 0.967898 1  166             Rx   d 8 76 00 00 FF FF FF 00 00
 0.968182 1  167             Rx   d 8 00 FF FF 00 00 02 18 00
 0.968405 1  171             Rx   d 8 F0 E0 00 00 00 00 00 00
 0.969118 1  179             Rx   d 8 00 00 08 00 22 FF 00 00
 0.971598 1  43E             Rx   d 8 00 00 00 00 00 00 00 00
 0.977381 1  167             Rx   d 8 00 FF FF 00 00 02 18 00
 0.977409 1  204             Rx   d 8 00 00 FF 00 00 00 00 00
 0.978520 1  41              Rx   d 8 00 00 00 00 00 00 00 00
 0.978734 1  42C             Rx   d 8 84 02 00 00 00 00 00 00
 0.987052 1  84              Rx   d 8 00 00 00 01 01 07 0C 00
 0.987238 1  47              Rx   d 8 64 22 BC F4 3B 98 00 00
 0.987470 1  165             Rx   d 8 20 81 00 00 00 00 00 00
 0.987700 1  167             Rx   d 8 00 FF FF 00 00 02 18 00
 0.987955 1  200             Rx   d 8 00 00 80 26 80 26 F0 00
 0.988229 1  202             Rx   d 8 00 CC 00 00 00 00 00 00
 0.988459 1  204             Rx   d 8 00 00 FF 00 00 00 00 00
 0.988711 1  230             Rx   d 8 F0 1C 00 00 00 00 00 00
 0.988931 1  726             Rx   d 8 06 19 04 C2 12 87 11 00
 0.997185 1  167             Rx   d 8 00 FF FF 00 00 02 18 00
 0.997351 1  171             Rx   d 8 F0 E0 00 00 00 00 00 00
 0.997602 1  41              Rx   d 8 00 00 00 00 00 00 00 00
 0.997883 1  204             Rx   d 8 00 00 FF 00 00 00 00 00
 0.998107 1  242             Rx   d 8 FF FF 3F FF 85 00 03 01
 0.998347 1  42F             Rx   d 8 7D 02 05 4E 20 64 00 00
 0.998595 1  72E             Rx   d 8 03 7F 19 12 00 00 00 00
 1.000182 1  287             Rx   d 8 00 00 00 00 00 00 00 00
 1.000216 1  30A             Rx   d 8 85 00 00 00 00 00 00 00
 1.000553 1  318             Rx   d 8 00 00 00 00 00 00 00 00
 1.000830 1  346             Rx   d 8 00 00 00 03 03 00 C0 00
 1.007980 1  47              Rx   d 8 64 22 BC F4 3B 98 00 00
 1.008058 1  165             Rx   d 8 20 81 00 00 00 00 00 00
 1.008069 1  167             Rx   d 8 00 FF FF 00 00 02 18 00
 1.016944 1  41              Rx   d 8 00 00 00 00 00 00 00 00
 1.017126 1  167             Rx   d 8 00 FF FF 00 00 02 18 00
 1.017347 1  204             Rx   d 8 00 00 FF 00 00 00 00 00
 1.017588 1  43D             Rx   d 8 14 00 21 00 00 00 00 00
 1.017849 1  43E             Rx   d 8 00 00 00 00 00 00 00 00
 1.026566 1  42C             Rx   d 8 84 02 00 00 00 00 00 00
 1.027121 1  47              Rx   d 8 64 22 BC F4 3B 98 00 00
 1.027345 1  165             Rx   d 8 20 81 00 00 00 00 00 00
 1.027583 1  167             Rx   d 8 00 FF FF 00 00 02 18 00
 1.027813 1  171             Rx   d 8 F0 E0 00 00 00 00 00 00
 1.028056 1  200             Rx   d 8 00 00 80 26 80 26 F0 00
 1.028300 1  202             Rx   d 8 00 CC 00 00 00 00 00 00
 1.028560 1  204             Rx   d 8 00 00 FF 00 00 00 00 00
 1.028807 1  230             Rx   d 8 F0 1C 00 00 00 00 00 00
 1.029065 1  42F             Rx   d 8 7D 02 05 4E 20 64 00 00
 1.029304 1  726             Rx   d 8 06 19 04 91 D8 01 10 00
 1.036980 1  41              Rx   d 8 00 00 00 00 00 00 00 00
 1.037014 1  242             Rx   d 8 FF FF 3F FF 84 00 03 01
 1.037310 1  167             Rx   d 8 00 FF FF 00 00 02 18 00
 1.037529 1  204             Rx   d 8 00 00 FF 00 00 00 00 00
 1.037766 1  72E             Rx   d 8 03 7F 19 12 00 00 00 00
 1.047181 1  47              Rx   d 8 64 22 BC F4 3B 98 00 00
 1.047345 1  165             Rx   d 8 20 81 00 00 00 00 00 00
 1.047597 1  167             Rx   d 8 00 FF FF 00 00 02 18 00
 1.047834 1  200             Rx   d 8 00 00 80 26 80 26 F0 00
 1.048063 1  202             Rx   d 8 00 CC 00 00 00 00 00 00
 1.048309 1  204             Rx   d 8 00 00 FF 00 00 00 00 00
 1.056284 1  41              Rx   d 8 00 00 00 00 00 00 00 00
 1.057198 1  167             Rx   d 8 00 FF FF 00 00 02 18 00
 1.057439 1  171             Rx   d 8 F0 E0 00 00 00 00 00 00
 1.057675 1  204             Rx   d 8 00 00 FF 00 00 00 00 00
 1.057890 1  42F             Rx   d 8 7D 02 05 4E 20 64 00 00
 1.064339 1  23A             Rx   d 8 FF FF FF FF F0 00 00 00
 1.064556 1  430             Rx   d 8 00 00 00 00 FE 00 00 00
 1.064754 1  434             Rx   d 8 00 00 00 00 0F FF 00 10
 1.064983 1  435             Rx   d 8 00 00 00 00 00 00 00 00
 1.067407 1  47              Rx   d 8 64 22 BC F4 3B 98 00 00
 1.067443 1  156             Rx   d 8 4B 00 00 00 00 00 00 00
 1.067853 1  165             Rx   d 8 20 81 00 00 00 00 00 00
 1.067873 1  166             Rx   d 8 76 00 00 FF FF FF 00 00
 1.068338 1  167             Rx   d 8 00 FF FF 00 00 02 18 00
 1.068360 1  178             Rx   d 8 00 00 02 00 02 54 CA 53
 1.068669 1  179             Rx   d 8 00 00 08 00 22 FF 00 00
 1.069154 1  17C             Rx   d 8 00 00 00 00 00 00 00 00
 1.069199 1  200             Rx   d 8 00 00 80 26 80 26 F0 00
 1.069636 1  202             Rx   d 8 00 CC 00 00 00 00 00 00
 1.071398 1  726             Rx   d 8 06 19 04 91 D8 01 11 00
 1.077331 1  41              Rx   d 8 00 00 00 00 00 00 00 00
 1.077374 1  167             Rx   d 8 00 FF FF 00 00 02 18 00
 1.077633 1  204             Rx   d 8 00 00 FF 00 00 00 00 00
 1.087177 1  47              Rx   d 8 64 22 BC F4 3B 98 00 00
 1.087343 1  165             Rx   d 8 20 81 00 00 00 00 00 00
 1.087579 1  167             Rx   d 8 00 FF FF 00 00 02 18 00
 1.087811 1  171             Rx   d 8 F0 E0 00 00 00 00 00 00
 1.088058 1  200             Rx   d 8 00 00 80 26 80 26 F0 00
 1.088317 1  202             Rx   d 8 00 CC 00 00 00 00 00 00
 1.088598 1  204             Rx   d 8 00 00 FF 00 00 00 00 00
 1.088840 1  230             Rx   d 8 F0 1C 00 00 00 00 00 00
 1.089066 1  42F             Rx   d 8 7D 02 05 4E 20 64 00 00
 1.095660 1  41              Rx   d 8 00 00 00 00 00 00 00 00
 1.097163 1  167             Rx   d 8 00 FF FF 00 00 02 18 00
 1.097342 1  204             Rx   d 8 00 00 FF 00 00 00 00 00
 1.100123 1  318             Rx   d 8 00 00 00 00 00 00 00 00
 1.100369 1  346             Rx   d 8 00 00 00 03 03 00 C0 00
 1.100561 1  348             Rx   d 8 00 00 00 01 00 00 00 00
 1.100835 1  430             Rx   d 8 C8 00 40 9B 00 00 64 00
 1.101094 1  434             Rx   d 8 40 00 70 00 20 4D 28 00
 1.107384 1  726             Rx   d 8 06 19 04 9C 55 14 10 00
 1.107441 1  47              Rx   d 8 64 22 BC F4 3B 98 00 00
 1.108425 1  165             Rx   d 8 20 81 00 00 00 00 00 00
 1.108537 1  167             Rx   d 8 00 FF FF 00 00 02 18 00
 1.108549 1  200             Rx   d 8 00 00 80 26 80 26 F0 00
 1.108560 1  202             Rx   d 8 00 CC 00 00 00 00 00 00
 1.115480 1  41              Rx   d 8 00 00 00 00 00 00 00 00
 1.115655 1  242             Rx   d 8 FF FF 3F FF 84 00 03 01
 1.115869 1  72E             Rx   d 8 03 7F 19 12 00 00 00 00
 1.117140 1  167             Rx   d 8 00 FF FF 00 00 02 18 00
 1.117352 1  171             Rx   d 8 F0 E0 00 00 00 00 00 00
 1.117598 1  204             Rx   d 8 00 00 FF 00 00 00 00 00
 1.124752 1  42C             Rx   d 8 84 02 00 00 00 00 00 00
 1.127191 1  47              Rx   d 8 64 22 BC F4 3B 98 00 00
 1.127393 1  165             Rx   d 8 20 81 00 00 00 00 00 00
 1.127582 1  167             Rx   d 8 00 FF FF 00 00 02 18 00
 1.127832 1  200             Rx   d 8 00 00 80 26 80 26 F0 00
 1.128057 1  202             Rx   d 8 00 CC 00 00 00 00 00 00
 1.128299 1  204             Rx   d 8 00 00 FF 00 00 00 00 00
 1.128562 1  230             Rx   d 8 F0 1C 00 00 00 00 00 00
 1.134946 1  41              Rx   d 8 00 00 00 00 00 00 00 00
 1.137378 1  167             Rx   d 8 00 FF FF 00 00 02 18 00
 1.137428 1  204             Rx   d 8 00 00 FF 00 00 00 00 00
 1.144461 1  726             Rx   d 8 06 19 04 9C 55 14 11 00
 1.148146 1  47              Rx   d 8 64 22 BC F4 3B 98 00 00
 1.148211 1  165             Rx   d 8 20 81 00 00 00 00 00 00
 1.148219 1  167             Rx   d 8 00 FF FF 00 00 02 18 00
 1.148225 1  171             Rx   d 8 F0 E0 00 00 00 00 00 00
 1.148229 1  200             Rx   d 8 00 00 80 26 80 26 F0 00
 1.149155 1  202             Rx   d 8 00 CC 00 00 00 00 00 00
 1.149190 1  204             Rx   d 8 00 00 FF 00 00 00 00 00
 1.149197 1  230             Rx   d 8 F0 1C 00 00 00 00 00 00
 1.149200 1  42F             Rx   d 8 7D 02 05 4E 20 64 00 00
 1.154992 1  41              Rx   d 8 00 00 00 00 00 00 00 00
 1.155158 1  242             Rx   d 8 FF FF 3F FF 84 00 03 01
 1.155398 1  72E             Rx   d 8 03 7F 19 12 00 00 00 00
 1.157146 1  167             Rx   d 8 00 FF FF 00 00 02 18 00
 1.157346 1  204             Rx   d 8 00 00 FF 00 00 00 00 00
 1.164353 1  23A             Rx   d 8 FF FF FF FF F0 00 00 00
 1.164520 1  430             Rx   d 8 00 00 00 00 FE 00 00 00
 1.164801 1  434             Rx   d 8 00 00 00 00 0F FF 00 10
 1.165010 1  435             Rx   d 8 00 00 00 00 00 00 00 00
 1.167145 1  47              Rx   d 8 64 22 BC F4 3B 98 00 00
 1.167365 1  156             Rx   d 8 4B 00 00 00 00 00 00 00
 1.167607 1  165             Rx   d 8 20 81 00 00 00 00 00 00
 1.167856 1  166             Rx   d 8 76 00 00 FF FF FF 00 00
 1.168103 1  167             Rx   d 8 00 FF FF 00 00 02 18 00
 1.168334 1  178             Rx   d 8 00 00 02 00 02 54 CA 53
 1.168572 1  179             Rx   d 8 00 00 08 00 22 FF 00 00
 1.168831 1  17C             Rx   d 8 00 00 00 00 00 00 00 00
 1.169071 1  200             Rx   d 8 00 00 80 26 80 26 F0 00
 1.169323 1  202             Rx   d 8 00 CC 00 00 00 00 00 00
 1.169585 1  204             Rx   d 8 00 00 FF 00 00 00 00 00
 1.169838 1  230             Rx   d 8 F0 1C 00 00 00 00 00 00
 1.170088 1  421             Rx   d 8 04 00 11 00 00 00 00 00
 1.170907 1  43D             Rx   d 8 14 00 21 00 00 00 00 00
 1.175242 1  41              Rx   d 8 00 00 00 00 00 00 00 00
 1.175277 1  3B6             Rx   d 8 0E 00 00 00 00 00 00 00
 1.177987 1  167             Rx   d 8 00 FF FF 00 00 02 18 00
 1.183927 1  726             Rx   d 8 06 19 04 93 0F 14 10 00
 1.183987 1  72E             Rx   d 8 03 7F 19 12 00 00 00 00
 1.187205 1  47              Rx   d 8 64 22 BC F4 3B 98 00 00
 1.187442 1  165             Rx   d 8 20 81 00 00 00 00 00 00
 1.187607 1  167             Rx   d 8 00 FF FF 00 00 02 18 00
 1.194270 1  41              Rx   d 8 00 00 00 00 00 00 00 00
 1.194308 1  242             Rx   d 8 FF FF 3F FF 84 00 03 01
 1.197204 1  167             Rx   d 8 00 FF FF 00 00 02 18 00
 1.197411 1  204             Rx   d 8 00 00 FF 00 00 00 00 00
 1.199971 1  287             Rx   d 8 00 00 00 00 00 00 00 00
 1.200175 1  30A             Rx   d 8 85 00 00 00 00 00 00 00
 1.200398 1  318             Rx   d 8 00 00 00 00 00 00 00 00
 1.200660 1  346             Rx   d 8 00 00 00 03 03 00 C0 00
 1.201418 1  434             Rx   d 8 40 00 70 00 20 4D 28 00
 1.207473 1  47              Rx   d 8 64 22 BC F4 3B 98 00 00
 1.207516 1  165             Rx   d 8 20 81 00 00 00 00 00 00
 1.207821 1  167             Rx   d 8 00 FF FF 00 00 02 18 00
 1.207834 1  171             Rx   d 8 F0 E0 00 00 00 00 00 00
 1.213408 1  726             Rx   d 8 06 19 04 93 0F 14 11 00
 1.213797 1  41              Rx   d 8 00 00 00 00 00 00 00 00
 1.218080 1  167             Rx   d 8 00 FF FF 00 00 02 18 00
 1.218146 1  204             Rx   d 8 00 00 FF 00 00 00 00 00
 1.218159 1  43D             Rx   d 8 14 00 21 00 00 00 00 00
 1.223060 1  42C             Rx   d 8 84 02 00 00 00 00 00 00
 1.227201 1  47              Rx   d 8 64 22 BC F4 3B 98 00 00
 1.227393 1  165             Rx   d 8 20 81 00 00 00 00 00 00
 1.227610 1  167             Rx   d 8 00 FF FF 00 00 02 18 00
 1.227838 1  200             Rx   d 8 00 00 80 26 80 26 F0 00
 1.228100 1  202             Rx   d 8 00 CC 00 00 00 00 00 00
 1.228375 1  204             Rx   d 8 00 00 FF 00 00 00 00 00
 1.228595 1  230             Rx   d 8 F0 1C 00 00 00 00 00 00
 1.233439 1  41              Rx   d 8 00 00 00 00 00 00 00 00
 1.233615 1  242             Rx   d 8 FF FF 3F FF 84 00 03 01
 1.233857 1  3B5             Rx   d 8 FF FD FF FD FF FD FF FD
 1.237187 1  167             Rx   d 8 00 FF FF 00 00 02 18 00
 1.237374 1  171             Rx   d 8 F0 E0 00 00 00 00 00 00
 1.237608 1  204             Rx   d 8 00 00 FF 00 00 00 00 00
 1.237832 1  42F             Rx   d 8 7D 02 05 4E 20 64 00 00
 1.243334 1  726             Rx   d 8 06 19 04 94 35 14 10 00
 1.247394 1  47              Rx   d 8 64 22 BC F4 3B 98 00 00
 1.247429 1  165             Rx   d 8 20 81 00 00 00 00 00 00
 1.247625 1  167             Rx   d 8 00 FF FF 00 00 02 18 00
 1.247865 1  200             Rx   d 8 00 00 80 26 80 26 F0 00
 1.248133 1  202             Rx   d 8 00 CC 00 00 00 00 00 00
 1.248385 1  204             Rx   d 8 00 00 FF 00 00 00 00 00
 1.248638 1  230             Rx   d 8 F0 1C 00 00 00 00 00 00
 1.253028 1  41              Rx   d 8 00 00 00 00 00 00 00 00
 1.253060 1  72E             Rx   d 8 03 7F 19 12 00 00 00 00
 1.257147 1  167             Rx   d 8 00 FF FF 00 00 02 18 00
 1.257340 1  204             Rx   d 8 00 00 FF 00 00 00 00 00
 1.264410 1  23A             Rx   d 8 FF FF FF FF F0 00 00 00
 1.264630 1  430             Rx   d 8 00 00 00 00 FE 00 00 00
 1.264829 1  434             Rx   d 8 00 00 00 00 0F FF 00 10
 1.265116 1  435             Rx   d 8 00 00 00 00 00 00 00 00
 1.267144 1  47              Rx   d 8 64 22 BC F4 3B 98 00 00
 1.267325 1  156             Rx   d 8 4B 00 00 00 00 00 00 00
 1.267584 1  165             Rx   d 8 20 81 00 00 00 00 00 00
 1.267809 1  166             Rx   d 8 76 00 00 FF FF FF 00 00
 1.268062 1  167             Rx   d 8 00 FF FF 00 00 02 18 00
 1.268311 1  171             Rx   d 8 F0 E0 00 00 00 00 00 00
 1.268577 1  178             Rx   d 8 00 00 02 00 02 54 CA 53
 1.268804 1  179             Rx   d 8 00 00 08 00 22 FF 00 00
 1.269033 1  17C             Rx   d 8 00 00 00 00 00 00 00 00
 1.269284 1  200             Rx   d 8 00 00 80 26 80 26 F0 00
 1.269554 1  202             Rx   d 8 00 CC 00 00 00 00 00 00
 1.270783 1  42D             Rx   d 8 00 03 FF 00 00 00 F0 00
 1.273473 1  41              Rx   d 8 00 00 00 00 00 00 00 00
 1.273675 1  242             Rx   d 8 FF FF 3F FF 84 00 03 01
 1.277215 1  167             Rx   d 8 00 FF FF 00 00 02 18 00
 1.277435 1  204             Rx   d 8 00 00 FF 00 00 00 00 00
 1.284005 1  726             Rx   d 8 06 19 04 94 35 14 11 00
 1.287422 1  47              Rx   d 8 64 22 BC F4 3B 98 00 00
 1.287486 1  165             Rx   d 8 20 81 00 00 00 00 00 00
 1.287837 1  167             Rx   d 8 00 FF FF 00 00 02 18 00
 1.287855 1  200             Rx   d 8 00 00 80 26 80 26 F0 00
 1.288330 1  202             Rx   d 8 00 CC 00 00 00 00 00 00
 1.288352 1  204             Rx   d 8 00 00 FF 00 00 00 00 00
 1.288700 1  230             Rx   d 8 F0 1C 00 00 00 00 00 00
 1.292407 1  41              Rx   d 8 00 00 00 00 00 00 00 00
 1.292445 1  72E             Rx   d 8 03 7F 19 12 00 00 00 00
 1.297421 1  167             Rx   d 8 00 FF FF 00 00 02 18 00
 1.297463 1  171             Rx   d 8 F0 E0 00 00 00 00 00 00
 1.297932 1  42F             Rx   d 8 7D 02 05 4E 20 64 00 00
 1.300828 1  318             Rx   d 8 00 00 00 00 00 00 00 00
 1.307182 1  47              Rx   d 8 64 22 BC F4 3B 98 00 00
 1.307350 1  165             Rx   d 8 20 81 00 00 00 00 00 00
 1.307589 1  167             Rx   d 8 00 FF FF 00 00 02 18 00
 1.307816 1  200             Rx   d 8 00 00 80 26 80 26 F0 00
 1.308071 1  202             Rx   d 8 00 CC 00 00 00 00 00 00
 1.308338 1  204             Rx   d 8 00 00 FF 00 00 00 00 00
 1.312606 1  41              Rx   d 8 00 00 00 00 00 00 00 00
 1.312657 1  242             Rx   d 8 FF FF 3F FF 84 00 03 01
 1.317454 1  167             Rx   d 8 00 FF FF 00 00 02 18 00
 1.317513 1  204             Rx   d 8 00 00 FF 00 00 00 00 00
 1.318013 1  43D             Rx   d 8 14 00 21 00 00 00 00 00
 1.321444 1  42C             Rx   d 8 84 02 00 00 00 00 00 00
 1.324865 1  726             Rx   d 8 06 19 04 94 30 14 10 00
 1.327159 1  47              Rx   d 8 64 22 BC F4 3B 98 00 00
 1.327321 1  165             Rx   d 8 20 81 00 00 00 00 00 00
 1.327571 1  167             Rx   d 8 00 FF FF 00 00 02 18 00
 1.327805 1  171             Rx   d 8 F0 E0 00 00 00 00 00 00
 1.328312 1  202             Rx   d 8 00 CC 00 00 00 00 00 00
 1.331436 1  41              Rx   d 8 00 00 00 00 00 00 00 00
 1.331618 1  72E             Rx   d 8 03 7F 19 12 00 00 00 00
 1.337163 1  167             Rx   d 8 00 FF FF 00 00 02 18 00
 1.337334 1  204             Rx   d 8 00 00 FF 00 00 00 00 00
 1.347442 1  47              Rx   d 8 64 22 BC F4 3B 98 00 00
 1.347486 1  165             Rx   d 8 20 81 00 00 00 00 00 00
 1.347871 1  167             Rx   d 8 00 FF FF 00 00 02 18 00
 1.347891 1  200             Rx   d 8 00 00 80 26 80 26 F0 00
 1.348176 1  202             Rx   d 8 00 CC 00 00 00 00 00 00
 1.348414 1  204             Rx   d 8 00 00 FF 00 00 00 00 00
 1.348634 1  230             Rx   d 8 F0 1C 00 00 00 00 00 00
 1.351538 1  41              Rx   d 8 00 00 00 00 00 00 00 00
 1.351578 1  242             Rx   d 8 FF FF 3F FF 84 00 03 01
 1.357443 1  167             Rx   d 8 00 FF FF 00 00 02 18 00
 1.357493 1  171             Rx   d 8 F0 E0 00 00 00 00 00 00
 1.357674 1  204             Rx   d 8 00 00 FF 00 00 00 00 00
 1.357837 1  42F             Rx   d 8 7D 02 05 4E 20 64 00 00
 1.362754 1  726             Rx   d 8 06 19 04 94 30 14 11 00
 1.364388 1  23A             Rx   d 8 FF FF FF FF F0 00 00 00
 1.364594 1  430             Rx   d 8 00 00 00 00 FE 00 00 00
 1.364846 1  434             Rx   d 8 00 00 00 00 0F FF 00 10
 1.365123 1  435             Rx   d 8 00 00 00 00 00 00 00 00
 1.367175 1  47              Rx   d 8 64 22 BC F4 3B 98 00 00
 1.367387 1  156             Rx   d 8 4B 00 00 00 00 00 00 00
 1.367617 1  165             Rx   d 8 20 81 00 00 00 00 00 00
 1.367837 1  166             Rx   d 8 76 00 00 FF FF FF 00 00
 1.368083 1  167             Rx   d 8 00 FF FF 00 00 02 18 00
 1.368309 1  178             Rx   d 8 00 00 02 00 02 54 CA 53
 1.368582 1  179             Rx   d 8 00 00 08 00 22 FF 00 00
 1.368827 1  17C             Rx   d 8 00 00 00 00 00 00 00 00
 1.369073 1  200             Rx   d 8 00 00 80 26 80 26 F0 00
 1.369316 1  202             Rx   d 8 00 CC 00 00 00 00 00 00
 1.370520 1  42D             Rx   d 8 00 03 FF 00 00 00 F0 00
 1.371539 1  42C             Rx   d 8 84 02 00 00 00 00 00 00
 1.377366 1  167             Rx   d 8 00 FF FF 00 00 02 18 00
 1.377403 1  204             Rx   d 8 00 00 FF 00 00 00 00 00
 1.387198 1  47              Rx   d 8 64 22 BC F4 3B 98 00 00
 1.387402 1  165             Rx   d 8 20 81 00 00 00 00 00 00
 1.387576 1  167             Rx   d 8 00 FF FF 00 00 02 18 00
 1.387848 1  171             Rx   d 8 F0 E0 00 00 00 00 00 00
 1.388134 1  200             Rx   d 8 00 00 80 26 80 26 F0 00
 1.388325 1  202             Rx   d 8 00 CC 00 00 00 00 00 00
 1.388573 1  204             Rx   d 8 00 00 FF 00 00 00 00 00
 1.388819 1  230             Rx   d 8 F0 1C 00 00 00 00 00 00
 1.390940 1  41              Rx   d 8 00 00 00 00 00 00 00 00
 1.397190 1  167             Rx   d 8 00 FF FF 00 00 02 18 00
 1.397364 1  204             Rx   d 8 00 00 FF 00 00 00 00 00
 1.399276 1  726             Rx   d 8 06 19 04 92 4B 15 10 00
 1.400025 1  287             Rx   d 8 00 00 00 00 00 00 00 00
 1.400248 1  72E             Rx   d 8 03 7F 19 12 00 00 00 00
 1.400481 1  30A             Rx   d 8 85 00 00 00 00 00 00 00
 1.400742 1  318             Rx   d 8 00 00 00 00 00 00 00 00
 1.400980 1  346             Rx   d 8 00 00 00 03 03 00 C0 00
 1.401257 1  348             Rx   d 8 00 00 00 01 00 00 00 00
 1.401519 1  430             Rx   d 8 C8 00 40 9B 00 00 64 00
 1.407212 1  47              Rx   d 8 64 22 BC F4 3B 98 00 00
 1.407403 1  165             Rx   d 8 20 81 00 00 00 00 00 00
 1.407582 1  167             Rx   d 8 00 FF FF 00 00 02 18 00
 1.407819 1  200             Rx   d 8 00 00 80 26 80 26 F0 00
 1.408072 1  202             Rx   d 8 00 CC 00 00 00 00 00 00
 1.408323 1  204             Rx   d 8 00 00 FF 00 00 00 00 00
 1.410100 1  41              Rx   d 8 00 00 00 00 00 00 00 00
 1.417407 1  167             Rx   d 8 00 FF FF 00 00 02 18 00
 1.417453 1  171             Rx   d 8 F0 E0 00 00 00 00 00 00
 1.417701 1  204             Rx   d 8 00 00 FF 00 00 00 00 00
 1.417950 1  42F             Rx   d 8 7D 02 05 4E 20 64 00 00
 1.418401 1  43D             Rx   d 8 14 00 21 00 00 00 00 00
 1.427184 1  47              Rx   d 8 64 22 BC F4 3B 98 00 00
 1.427351 1  165             Rx   d 8 20 81 00 00 00 00 00 00
 1.427596 1  167             Rx   d 8 00 FF FF 00 00 02 18 00
 1.427820 1  200             Rx   d 8 00 00 80 26 80 26 F0 00
 1.428054 1  202             Rx   d 8 00 CC 00 00 00 00 00 00
 1.429959 1  41              Rx   d 8 00 00 00 00 00 00 00 00
 1.430184 1  242             Rx   d 8 FF FF 3F FF 84 00 03 01
 1.437202 1  167             Rx   d 8 00 FF FF 00 00 02 18 00
 1.437431 1  204             Rx   d 8 00 00 FF 00 00 00 00 00
 1.439342 1  331             Rx   d 8 C0 00 48 98 02 00 00 00
 1.445014 1  726             Rx   d 8 06 19 04 92 4B 15 11 00
 1.447434 1  47              Rx   d 8 64 22 BC F4 3B 98 00 00
 1.447480 1  165             Rx   d 8 20 81 00 00 00 00 00 00
 1.448117 1  167             Rx   d 8 00 FF FF 00 00 02 18 00
 1.448145 1  171             Rx   d 8 F0 E0 00 00 00 00 00 00
 1.448153 1  200             Rx   d 8 00 00 80 26 80 26 F0 00
 1.448596 1  202             Rx   d 8 00 CC 00 00 00 00 00 00
 1.448627 1  204             Rx   d 8 00 00 FF 00 00 00 00 00
 1.449053 1  230             Rx   d 8 F0 1C 00 00 00 00 00 00
 1.449073 1  42F             Rx   d 8 7D 02 05 4E 20 64 00 00
 1.449404 1  41              Rx   d 8 00 00 00 00 00 00 00 00
 1.449713 1  72E             Rx   d 8 03 7F 19 12 00 00 00 00
 1.457330 1  167             Rx   d 8 00 FF FF 00 00 02 18 00
 1.457365 1  204             Rx   d 8 00 00 FF 00 00 00 00 00
 1.464525 1  23A             Rx   d 8 FF FF FF FF F0 00 00 00
 1.464695 1  430             Rx   d 8 00 00 00 00 FE 00 00 00
 1.464930 1  434             Rx   d 8 00 00 00 00 0F FF 00 10
 1.465168 1  435             Rx   d 8 00 00 00 00 00 00 00 00
 1.467135 1  47              Rx   d 8 64 22 BC F4 3B 98 00 00
 1.467337 1  156             Rx   d 8 4B 00 00 00 00 00 00 00
 1.467573 1  165             Rx   d 8 20 81 00 00 00 00 00 00
 1.467810 1  166             Rx   d 8 76 00 00 FF FF FF 00 00
 1.468061 1  167             Rx   d 8 00 FF FF 00 00 02 18 00
 1.468302 1  178             Rx   d 8 00 00 02 00 02 54 CA 53
 1.468534 1  179             Rx   d 8 00 00 08 00 22 FF 00 00
 1.468788 1  17C             Rx   d 8 00 00 00 00 00 00 00 00
 1.469024 1  200             Rx   d 8 00 00 80 26 80 26 F0 00
 1.469303 1  202             Rx   d 8 00 CC 00 00 00 00 00 00
 1.469595 1  204             Rx   d 8 00 00 FF 00 00 00 00 00
 1.470772 1  421             Rx   d 8 04 00 11 00 00 00 00 00
 1.477198 1  167             Rx   d 8 00 FF FF 00 00 02 18 00
 1.477387 1  171             Rx   d 8 F0 E0 00 00 00 00 00 00
 1.477618 1  204             Rx   d 8 00 00 FF 00 00 00 00 00
 1.477826 1  42F             Rx   d 8 7D 02 05 4E 20 64 00 00
 1.479424 1  726             Rx   d 8 06 19 04 92 4A 15 10 00
 1.487339 1  47              Rx   d 8 64 22 BC F4 3B 98 00 00
 1.487374 1  165             Rx   d 8 20 81 00 00 00 00 00 00
 1.487626 1  167             Rx   d 8 00 FF FF 00 00 02 18 00
 1.487946 1  200             Rx   d 8 00 00 80 26 80 26 F0 00
 1.488381 1  202             Rx   d 8 00 CC 00 00 00 00 00 00
 1.488414 1  204             Rx   d 8 00 00 FF 00 00 00 00 00
 1.488945 1  230             Rx   d 8 F0 1C 00 00 00 00 00 00
 1.489009 1  41              Rx   d 8 00 00 00 00 00 00 00 00
 1.497180 1  167             Rx   d 8 00 FF FF 00 00 02 18 00
 1.497361 1  204             Rx   d 8 00 00 FF 00 00 00 00 00
 1.500073 1  318             Rx   d 8 00 00 00 00 00 00 00 00
 1.500270 1  346             Rx   d 8 00 00 00 03 03 00 C0 00
 1.500543 1  348             Rx   d 8 00 00 00 01 00 00 00 00
 1.500787 1  430             Rx   d 8 C8 00 40 9B 00 00 64 00
 1.501063 1  434             Rx   d 8 40 00 70 00 20 4D 28 00
 1.507205 1  47              Rx   d 8 64 22 BC F4 3B 98 00 00
 1.507389 1  165             Rx   d 8 20 81 00 00 00 00 00 00
 1.507642 1  167             Rx   d 8 00 FF FF 00 00 02 18 00
 1.507858 1  171             Rx   d 8 F0 E0 00 00 00 00 00 00
 1.508092 1  200             Rx   d 8 00 00 80 26 80 26 F0 00
 1.508338 1  202             Rx   d 8 00 CC 00 00 00 00 00 00
 1.508578 1  204             Rx   d 8 00 00 FF 00 00 00 00 00
 1.508834 1  41              Rx   d 8 00 00 00 00 00 00 00 00
 1.509071 1  230             Rx   d 8 F0 1C 00 00 00 00 00 00
 1.517428 1  167             Rx   d 8 00 FF FF 00 00 02 18 00
 1.517469 1  204             Rx   d 8 00 00 FF 00 00 00 00 00
 1.517735 1  43D             Rx   d 8 14 00 21 00 00 00 00 00
 1.517982 1  43E             Rx   d 8 00 00 00 00 00 00 00 00
 1.518205 1  42C             Rx   d 8 84 02 00 00 00 00 00 00
 1.521829 1  726             Rx   d 8 06 19 04 92 4A 15 11 00
 1.527306 1  47              Rx   d 8 64 22 BC F4 3B 98 00 00
 1.527339 1  165             Rx   d 8 20 81 00 00 00 00 00 00
 1.527616 1  167             Rx   d 8 00 FF FF 00 00 02 18 00
 1.527837 1  200             Rx   d 8 00 00 80 26 80 26 F0 00
 1.528108 1  41              Rx   d 8 00 00 00 00 00 00 00 00
 1.528374 1  202             Rx   d 8 00 CC 00 00 00 00 00 00
 1.528696 1  204             Rx   d 8 00 00 FF 00 00 00 00 00
 1.529300 1  230             Rx   d 8 F0 1C 00 00 00 00 00 00
 1.537151 1  167             Rx   d 8 00 FF FF 00 00 02 18 00
 1.537328 1  171             Rx   d 8 F0 E0 00 00 00 00 00 00
 1.537576 1  204             Rx   d 8 00 00 FF 00 00 00 00 00
 1.537810 1  42F             Rx   d 8 7D 02 05 4E 20 64 00 00
 1.547170 1  47              Rx   d 8 64 22 BC F4 3B 98 00 00
 1.547333 1  165             Rx   d 8 20 81 00 00 00 00 00 00
 1.547583 1  167             Rx   d 8 00 FF FF 00 00 02 18 00
 1.547827 1  41              Rx   d 8 00 00 00 00 00 00 00 00
 1.548063 1  200             Rx   d 8 00 00 80 26 80 26 F0 00
 1.548301 1  202             Rx   d 8 00 CC 00 00 00 00 00 00
 1.548591 1  204             Rx   d 8 00 00 FF 00 00 00 00 00
 1.548844 1  230             Rx   d 8 F0 1C 00 00 00 00 00 00
 1.549096 1  242             Rx   d 8 FF FF 3F FF 84 00 03 01
 1.557436 1  167             Rx   d 8 00 FF FF 00 00 02 18 00
 1.557478 1  204             Rx   d 8 00 00 FF 00 00 00 00 00
 1.563188 1  726             Rx   d 8 06 19 04 90 9F 08 10 00
 1.564947 1  23A             Rx   d 8 FF FF FF FF F0 00 00 00
 1.564978 1  430             Rx   d 8 00 00 00 00 FE 00 00 00
 1.564983 1  434             Rx   d 8 00 00 00 00 0F FF 00 10
 1.565260 1  435             Rx   d 8 00 00 00 00 00 00 00 00
 1.567143 1  47              Rx   d 8 64 22 BC F4 3B 98 00 00
 1.567340 1  156             Rx   d 8 4B 00 00 00 00 00 00 00
 1.567597 1  41              Rx   d 8 00 00 00 00 00 00 00 00
 1.567837 1  165             Rx   d 8 20 81 00 00 00 00 00 00
 1.568063 1  166             Rx   d 8 76 00 00 FF FF FF 00 00
 1.568299 1  167             Rx   d 8 00 FF FF 00 00 02 18 00
 1.568561 1  171             Rx   d 8 F0 E0 00 00 00 00 00 00
 1.568790 1  178             Rx   d 8 00 00 02 00 02 54 CA 53
 1.569033 1  179             Rx   d 8 00 00 08 00 22 FF 00 00
 1.569275 1  17C             Rx   d 8 00 00 00 00 00 00 00 00
 1.569531 1  200             Rx   d 8 00 00 80 26 80 26 F0 00
 1.570519 1  421             Rx   d 8 04 00 11 00 00 00 00 00
 1.571258 1  42D             Rx   d 8 00 03 FF 00 00 00 F0 00
 1.572241 1  72E             Rx   d 8 03 7F 19 12 00 00 00 00
 1.577227 1  167             Rx   d 8 00 FF FF 00 00 02 18 00
 1.577454 1  204             Rx   d 8 00 00 FF 00 00 00 00 00
 1.587347 1  47              Rx   d 8 64 22 BC F4 3B 98 00 00
 1.587386 1  41              Rx   d 8 00 00 00 00 00 00 00 00
 1.587928 1  165             Rx   d 8 20 81 00 00 00 00 00 00
 1.587958 1  167             Rx   d 8 00 FF FF 00 00 02 18 00
 1.588446 1  200             Rx   d 8 00 00 80 26 80 26 F0 00
 1.588473 1  202             Rx   d 8 00 CC 00 00 00 00 00 00
 1.588664 1  204             Rx   d 8 00 00 FF 00 00 00 00 00
 1.588827 1  230             Rx   d 8 F0 1C 00 00 00 00 00 00
 1.589086 1  242             Rx   d 8 FF FF 3F FF 84 00 03 01
 1.597391 1  167             Rx   d 8 00 FF FF 00 00 02 18 00
 1.597440 1  171             Rx   d 8 F0 E0 00 00 00 00 00 00
 1.598084 1  204             Rx   d 8 00 00 FF 00 00 00 00 00
 1.598119 1  42F             Rx   d 8 7D 02 05 4E 20 64 00 00
 1.600390 1  287             Rx   d 8 00 00 00 00 00 00 00 00
 1.600417 1  30A             Rx   d 8 85 00 00 00 00 00 00 00
 1.600688 1  318             Rx   d 8 00 00 00 00 00 00 00 00
 1.600920 1  346             Rx   d 8 00 00 00 03 03 00 C0 00
 1.601174 1  348             Rx   d 8 00 00 00 01 00 00 00 00
 1.601473 1  430             Rx   d 8 C8 00 40 9B 00 00 64 00
 1.603603 1  726             Rx   d 8 06 19 04 90 9F 08 11 00
 1.606649 1  41              Rx   d 8 00 00 00 00 00 00 00 00
 1.606855 1  72E             Rx   d 8 03 7F 19 12 00 00 00 00
 1.607068 1  47              Rx   d 8 64 22 BC F4 3B 98 00 00
 1.607308 1  165             Rx   d 8 20 81 00 00 00 00 00 00
 1.607567 1  167             Rx   d 8 00 FF FF 00 00 02 18 00
 1.607810 1  200             Rx   d 8 00 00 80 26 80 26 F0 00
 1.616310 1  42C             Rx   d 8 84 02 00 00 00 00 00 00
 1.617135 1  167             Rx   d 8 00 FF FF 00 00 02 18 00
 1.617348 1  204             Rx   d 8 00 00 FF 00 00 00 00 00
 1.617597 1  43D             Rx   d 8 14 00 21 00 00 00 00 00
 1.617852 1  43E             Rx   d 8 00 00 00 00 00 00 00 00
 1.627987 1  41              Rx   d 8 00 00 00 00 00 00 00 00
 1.628046 1  47              Rx   d 8 64 22 BC F4 3B 98 00 00
 1.628051 1  165             Rx   d 8 20 81 00 00 00 00 00 00
 1.628056 1  167             Rx   d 8 00 FF FF 00 00 02 18 00
 1.628059 1  171             Rx   d 8 F0 E0 00 00 00 00 00 00
 1.628380 1  200             Rx   d 8 00 00 80 26 80 26 F0 00
 1.628390 1  202             Rx   d 8 00 CC 00 00 00 00 00 00
 1.628685 1  204             Rx   d 8 00 00 FF 00 00 00 00 00
 1.628923 1  230             Rx   d 8 F0 1C 00 00 00 00 00 00
 1.629199 1  242             Rx   d 8 FF FF 3F FF 84 00 03 01
 1.629377 1  42F             Rx   d 8 7D 02 05 4E 20 64 00 00
 1.637145 1  167             Rx   d 8 00 FF FF 00 00 02 18 00
 1.637338 1  204             Rx   d 8 00 00 FF 00 00 00 00 00
 1.638387 1  726             Rx   d 8 06 19 04 9D 17 08 10 00
 1.645966 1  41              Rx   d 8 00 00 00 00 00 00 00 00
 1.646135 1  72E             Rx   d 8 03 7F 19 12 00 00 00 00
 1.647173 1  47              Rx   d 8 64 22 BC F4 3B 98 00 00
 1.647364 1  165             Rx   d 8 20 81 00 00 00 00 00 00
 1.647604 1  167             Rx   d 8 00 FF FF 00 00 02 18 00
 1.647875 1  200             Rx   d 8 00 00 80 26 80 26 F0 00
 1.648094 1  202             Rx   d 8 00 CC 00 00 00 00 00 00
 1.648319 1  204             Rx   d 8 00 00 FF 00 00 00 00 00
 1.648577 1  230             Rx   d 8 F0 1C 00 00 00 00 00 00
 1.652421 1  581             Rx   d 8 81 00 FF FF FF FF FF FF
 1.657201 1  167             Rx   d 8 00 FF FF 00 00 02 18 00
 1.657404 1  171             Rx   d 8 F0 E0 00 00 00 00 00 00
 1.657607 1  204             Rx   d 8 00 00 FF 00 00 00 00 00
 1.657851 1  42F             Rx   d 8 7D 02 05 4E 20 64 00 00
 1.664769 1  23A             Rx   d 8 FF FF FF FF F0 00 00 00
 1.664815 1  430             Rx   d 8 00 00 00 00 FE 00 00 00
 1.665265 1  434             Rx   d 8 00 00 00 00 0F FF 00 10
 1.665293 1  435             Rx   d 8 00 00 00 00 00 00 00 00
 1.667319 1  41              Rx   d 8 00 00 00 00 00 00 00 00
 1.667377 1  242             Rx   d 8 FF FF 3F FF 85 00 03 01
 1.667383 1  38D             Rx   d 8 20 00 00 00 00 00 00 F0
 1.667388 1  3B1             Rx   d 8 00 00 00 00 00 00 00 00
 1.667391 1  47              Rx   d 8 64 22 BC F4 3B 98 00 00
 1.667756 1  156             Rx   d 8 4B 00 00 00 00 00 00 00
 1.667777 1  165             Rx   d 8 20 81 00 00 00 00 00 00
 1.668034 1  166             Rx   d 8 76 00 00 FF FF FF 00 00
 1.668283 1  167             Rx   d 8 00 FF FF 00 00 02 18 00
 1.668494 1  178             Rx   d 8 00 00 02 00 02 54 CA 53
 1.670426 1  3B7             Rx   d 8 00 00 00 00 00 00 00 00
 1.672247 1  424             Rx   d 8 00 00 00 03 00 00 00 00
 1.677162 1  167             Rx   d 8 00 FF FF 00 00 02 18 00
 1.677352 1  204             Rx   d 8 00 00 FF 00 00 00 00 00
 1.679890 1  726             Rx   d 8 06 19 04 9D 17 08 11 00
 1.685506 1  41              Rx   d 8 00 00 00 00 00 00 00 00
 1.685536 1  72E             Rx   d 8 03 7F 19 12 00 00 00 00
 1.687125 1  47              Rx   d 8 64 22 BC F4 3B 98 00 00
 1.687323 1  165             Rx   d 8 20 81 00 00 00 00 00 00
 1.687557 1  167             Rx   d 8 00 FF FF 00 00 02 18 00
 1.687799 1  171             Rx   d 8 F0 E0 00 00 00 00 00 00
 1.688050 1  200             Rx   d 8 00 00 80 26 80 26 F0 00
 1.688291 1  202             Rx   d 8 00 CC 00 00 00 00 00 00
 1.688536 1  204             Rx   d 8 00 00 FF 00 00 00 00 00
 1.688789 1  230             Rx   d 8 F0 1C 00 00 00 00 00 00
 1.689036 1  42F             Rx   d 8 7D 02 05 4E 20 64 00 00
 1.697385 1  167             Rx   d 8 00 FF FF 00 00 02 18 00
 1.697424 1  204             Rx   d 8 00 00 FF 00 00 00 00 00
 1.700346 1  318             Rx   d 8 00 00 00 00 00 00 00 00
 1.700385 1  346             Rx   d 8 00 00 00 03 03 00 C0 00
 1.700649 1  348             Rx   d 8 00 00 00 01 00 00 00 00
 1.700849 1  430             Rx   d 8 C8 00 40 9B 00 00 64 00
 1.701293 1  434             Rx   d 8 40 00 70 00 20 4D 28 00
 1.705455 1  41              Rx   d 8 00 00 00 00 00 00 00 00
 1.705502 1  242             Rx   d 8 FF FF 3F FF 85 00 03 01
 1.708150 1  47              Rx   d 8 64 22 BC F4 3B 98 00 00
 1.708191 1  165             Rx   d 8 20 81 00 00 00 00 00 00
 1.708196 1  167             Rx   d 8 00 FF FF 00 00 02 18 00
 1.708199 1  200             Rx   d 8 00 00 80 26 80 26 F0 00
 1.714523 1  3B4             Rx   d 8 34 21 11 FF 1E 1A 00 00
 1.714713 1  42C             Rx   d 8 84 02 00 00 00 00 00 00
 1.716586 1  726             Rx   d 8 06 19 04 91 DB 08 10 00
 1.717141 1  167             Rx   d 8 00 FF FF 00 00 02 18 00
 1.717367 1  171             Rx   d 8 F0 E0 00 00 00 00 00 00
 1.717610 1  204             Rx   d 8 00 00 FF 00 00 00 00 00
 1.717850 1  42F             Rx   d 8 7D 02 05 4E 20 64 00 00
 1.718102 1  43D             Rx   d 8 14 00 21 00 00 00 00 00
 1.718348 1  43E             Rx   d 8 00 00 00 00 00 00 00 00
 1.724636 1  41              Rx   d 8 00 00 00 00 00 00 00 00
 1.724817 1  3B5             Rx   d 8 FF FD FF FD FF FD FF FD
 1.725039 1  72E             Rx   d 8 03 7F 19 12 00 00 00 00
 1.727183 1  47              Rx   d 8 64 22 BC F4 3B 98 00 00
 1.727392 1  165             Rx   d 8 20 81 00 00 00 00 00 00
 1.727626 1  167             Rx   d 8 00 FF FF 00 00 02 18 00
 1.727828 1  200             Rx   d 8 00 00 80 26 80 26 F0 00
 1.728086 1  202             Rx   d 8 00 CC 00 00 00 00 00 00
 1.728322 1  204             Rx   d 8 00 00 FF 00 00 00 00 00
 1.737462 1  167             Rx   d 8 00 FF FF 00 00 02 18 00
 1.737499 1  204             Rx   d 8 00 00 FF 00 00 00 00 00
 1.744462 1  41              Rx   d 8 00 00 00 00 00 00 00 00
 1.744642 1  242             Rx   d 8 FF FF 3F FF 85 00 03 01
 1.744871 1  3C7             Rx   d 8 00 00 40 00 00 00 00 00
 1.747120 1  47              Rx   d 8 64 22 BC F4 3B 98 00 00
 1.747319 1  165             Rx   d 8 20 81 00 00 00 00 00 00
 1.747553 1  167             Rx   d 8 00 FF FF 00 00 02 18 00
 1.747810 1  171             Rx   d 8 F0 E0 00 00 00 00 00 00
 1.748045 1  200             Rx   d 8 00 00 80 26 80 26 F0 00
 1.748299 1  202             Rx   d 8 00 CC 00 00 00 00 00 00
 1.748535 1  204             Rx   d 8 00 00 FF 00 00 00 00 00
 1.748797 1  230             Rx   d 8 F0 1C 00 00 00 00 00 00
 1.749032 1  42F             Rx   d 8 7D 02 05 4E 20 64 00 00
 1.754171 1  59E             Rx   d 8 9E 00 FF FF FF FF FF FF
 1.754437 1  726             Rx   d 8 06 19 04 91 DB 08 11 00
 1.757166 1  167             Rx   d 8 00 FF FF 00 00 02 18 00
 1.757347 1  204             Rx   d 8 00 00 FF 00 00 00 00 00
 1.764446 1  41              Rx   d 8 00 00 00 00 00 00 00 00
 1.764488 1  3B3             Rx   d 8 44 88 00 0C E6 00 03 3C
 1.764874 1  23A             Rx   d 8 FF FF FF FF F0 00 00 00
 1.764893 1  2F1             Rx   d 8 00 00 00 00 00 00 00 00
 1.765359 1  386             Rx   d 8 00 00 00 00 00 00 00 00
 1.765380 1  3C3             Rx   d 8 5C 80 10 C1 00 00 00 00
 1.765693 1  430             Rx   d 8 00 00 00 00 FE 00 00 00
 1.765958 1  42C             Rx   d 8 84 02 00 00 00 00 00 00
 1.766693 1  434             Rx   d 8 00 00 00 00 0F FF 00 10
 1.766726 1  435             Rx   d 8 00 00 00 00 00 00 00 00
 1.766731 1  437             Rx   d 8 00 00 00 00 00 00 00 00
 1.767136 1  438             Rx   d 8 00 00 00 00 00 00 00 00
 1.768798 1  178             Rx   d 8 00 00 02 00 02 54 CA 53
 1.771105 1  42D             Rx   d 8 00 03 FF 00 00 00 F0 00
 1.777478 1  167             Rx   d 8 00 FF FF 00 00 02 18 00
 1.777530 1  171             Rx   d 8 F0 E0 00 00 00 00 00 00
 1.777986 1  204             Rx   d 8 00 00 FF 00 00 00 00 00
 1.784132 1  41              Rx   d 8 00 00 00 00 00 00 00 00
 1.784316 1  242             Rx   d 8 FF FF 3F FF 85 00 03 01
 1.787364 1  47              Rx   d 8 64 22 BC F4 3B 98 00 00
 1.787406 1  165             Rx   d 8 20 81 00 00 00 00 00 00
 1.787642 1  167             Rx   d 8 00 FF FF 00 00 02 18 00
 1.787931 1  200             Rx   d 8 00 00 80 26 80 26 F0 00
 1.788179 1  202             Rx   d 8 00 CC 00 00 00 00 00 00
 1.788396 1  204             Rx   d 8 00 00 FF 00 00 00 00 00
 1.797177 1  167             Rx   d 8 00 FF FF 00 00 02 18 00
 1.797368 1  204             Rx   d 8 00 00 FF 00 00 00 00 00
 1.800296 1  18B             Rx   d 8 00 00 00 1E 00 00 00 00
 1.800333 1  19A             Rx   d 8 00 00 00 02 40 00 00 00
 1.800642 1  220             Rx   d 8 10 01 00 00 00 00 00 00
 1.800917 1  225             Rx   d 8 A0 81 00 00 00 00 00 00
 1.801384 1  287             Rx   d 8 00 00 00 00 00 00 00 00
 1.801409 1  2F4             Rx   d 8 10 01 00 00 00 00 00 00
 1.801685 1  2FD             Rx   d 8 09 00 00 04 FC 00 00 00
 1.801938 1  30A             Rx   d 8 85 00 00 00 00 00 00 00
 1.803651 1  353             Rx   d 8 00 00 00 00 00 00 00 00
 1.808224 1  47              Rx   d 8 64 22 BC F4 3B 98 00 00
 1.808792 1  202             Rx   d 8 00 CC 00 00 00 00 00 00
 1.813425 1  42C             Rx   d 8 84 02 00 00 00 00 00 00
 1.813494 1  72E             Rx   d 8 03 7F 19 12 00 00 00 00
 1.817168 1  167             Rx   d 8 00 FF FF 00 00 02 18 00
 1.817336 1  204             Rx   d 8 00 00 FF 00 00 00 00 00
 1.817612 1  43D             Rx   d 8 14 00 21 00 00 00 00 00
 1.817847 1  43E             Rx   d 8 00 00 00 00 00 00 00 00
 1.823216 1  41              Rx   d 8 00 00 00 00 00 00 00 00
 1.823406 1  242             Rx   d 8 FF FF 3F FF 84 00 03 01
 1.827162 1  47              Rx   d 8 64 22 BC F4 3B 98 00 00
 1.827330 1  165             Rx   d 8 20 81 00 00 00 00 00 00
 1.827582 1  167             Rx   d 8 00 FF FF 00 00 02 18 00
 1.827810 1  200             Rx   d 8 00 00 80 26 80 26 F0 00
 1.828070 1  202             Rx   d 8 00 CC 00 00 00 00 00 00
 1.828331 1  204             Rx   d 8 00 00 FF 00 00 00 00 00
 1.828556 1  230             Rx   d 8 F0 1C 00 00 00 00 00 00
 1.837181 1  167             Rx   d 8 00 FF FF 00 00 02 18 00
 1.837378 1  171             Rx   d 8 F0 E0 00 00 00 00 00 00
 1.837629 1  204             Rx   d 8 00 00 FF 00 00 00 00 00
 1.837848 1  42F             Rx   d 8 7D 02 05 4E 20 64 00 00
 1.842416 1  726             Rx   d 8 06 19 04 90 D9 87 11 00
 1.842702 1  41              Rx   d 8 00 00 00 00 00 00 00 00
 1.847332 1  47              Rx   d 8 64 22 BC F4 3B 98 00 00
 1.847358 1  165             Rx   d 8 20 81 00 00 00 00 00 00
 1.847641 1  167             Rx   d 8 00 FF FF 00 00 02 18 00
 1.847828 1  200             Rx   d 8 00 00 80 26 80 26 F0 00
 1.848050 1  202             Rx   d 8 00 CC 00 00 00 00 00 00
 1.848302 1  204             Rx   d 8 00 00 FF 00 00 00 00 00
 1.848578 1  230             Rx   d 8 F0 1C 00 00 00 00 00 00
 1.852224 1  72E             Rx   d 8 03 7F 19 12 00 00 00 00
 1.857222 1  167             Rx   d 8 00 FF FF 00 00 02 18 00
 1.857421 1  204             Rx   d 8 00 00 FF 00 00 00 00 00
 1.862958 1  41              Rx   d 8 00 00 00 00 00 00 00 00
 1.863188 1  242             Rx   d 8 FF FF 3F FF 85 00 03 01
 1.863324 1  40A             Rx   d 8 C1 02 32 38 38 33 36 00
 1.863587 1  42C             Rx   d 8 84 02 00 00 00 00 00 00
 1.865156 1  23A             Rx   d 8 FF FF FF FF F0 00 00 00
 1.865375 1  430             Rx   d 8 00 00 00 00 FE 00 00 00
 1.865629 1  434             Rx   d 8 00 00 00 00 0F FF 00 10
 1.865897 1  435             Rx   d 8 00 00 00 00 00 00 00 00
 1.867171 1  47              Rx   d 8 64 22 BC F4 3B 98 00 00
 1.867359 1  156             Rx   d 8 4B 00 00 00 00 00 00 00
 1.867630 1  165             Rx   d 8 20 81 00 00 00 00 00 00
 1.867869 1  166             Rx   d 8 76 00 00 FF FF FF 00 00
 1.868138 1  167             Rx   d 8 00 FF FF 00 00 02 18 00
 1.868347 1  171             Rx   d 8 F0 E0 00 00 00 00 00 00
 1.868642 1  178             Rx   d 8 00 00 02 00 02 54 CA 53
 1.869160 1  179             Rx   d 8 00 00 08 00 22 FF 00 00
 1.869185 1  17C             Rx   d 8 00 00 00 00 00 00 00 00
 1.869556 1  200             Rx   d 8 00 00 80 26 80 26 F0 00
 1.871636 1  43D             Rx   d 8 14 00 21 00 00 00 00 00
 1.877348 1  167             Rx   d 8 00 FF FF 00 00 02 18 00
 1.877397 1  204             Rx   d 8 00 00 FF 00 00 00 00 00
 1.881394 1  726             Rx   d 8 06 19 04 C1 00 87 10 00
 1.882408 1  41              Rx   d 8 00 00 00 00 00 00 00 00
 1.882435 1  72E             Rx   d 8 03 7F 19 12 00 00 00 00
 1.887138 1  47              Rx   d 8 64 22 BC F4 3B 98 00 00
 1.887317 1  165             Rx   d 8 20 81 00 00 00 00 00 00
 1.887554 1  167             Rx   d 8 00 FF FF 00 00 02 18 00
 1.887791 1  200             Rx   d 8 00 00 80 26 80 26 F0 00
 1.888068 1  202             Rx   d 8 00 CC 00 00 00 00 00 00
 1.888311 1  204             Rx   d 8 00 00 FF 00 00 00 00 00
 1.897168 1  167             Rx   d 8 00 FF FF 00 00 02 18 00
 1.897338 1  171             Rx   d 8 F0 E0 00 00 00 00 00 00
 1.897584 1  204             Rx   d 8 00 00 FF 00 00 00 00 00
 1.897806 1  42F             Rx   d 8 7D 02 05 4E 20 64 00 00
 1.900258 1  318             Rx   d 8 00 00 00 00 00 00 00 00
 1.900457 1  346             Rx   d 8 00 00 00 03 03 00 C0 00
 1.900730 1  348             Rx   d 8 00 00 00 01 00 00 00 00
 1.900983 1  430             Rx   d 8 C8 00 40 9B 00 00 64 00
 1.901225 1  434             Rx   d 8 40 00 70 00 20 4D 28 00
 1.901849 1  41              Rx   d 8 00 00 00 00 00 00 00 00
 1.902028 1  242             Rx   d 8 FF FF 3F FF 85 00 03 01
 1.907361 1  47              Rx   d 8 64 22 BC F4 3B 98 00 00
 1.907394 1  165             Rx   d 8 20 81 00 00 00 00 00 00
 1.907680 1  167             Rx   d 8 00 FF FF 00 00 02 18 00
 1.907897 1  200             Rx   d 8 00 00 80 26 80 26 F0 00
 1.908154 1  202             Rx   d 8 00 CC 00 00 00 00 00 00
 1.911424 1  331             Rx   d 8 C0 00 48 98 02 00 00 00
 1.911998 1  42C             Rx   d 8 84 02 00 00 00 00 00 00
 1.917414 1  167             Rx   d 8 00 FF FF 00 00 02 18 00
 1.917455 1  204             Rx   d 8 00 00 FF 00 00 00 00 00
 1.917660 1  43D             Rx   d 8 14 00 21 00 00 00 00 00
 1.921214 1  41              Rx   d 8 00 00 00 00 00 00 00 00
 1.921422 1  72E             Rx   d 8 03 7F 19 12 00 00 00 00
 1.927176 1  47              Rx   d 8 64 22 BC F4 3B 98 00 00
 1.927375 1  165             Rx   d 8 20 81 00 00 00 00 00 00
 1.927605 1  167             Rx   d 8 00 FF FF 00 00 02 18 00
 1.927824 1  171             Rx   d 8 F0 E0 00 00 00 00 00 00
 1.928086 1  200             Rx   d 8 00 00 80 26 80 26 F0 00
 1.928320 1  202             Rx   d 8 00 CC 00 00 00 00 00 00
 1.928579 1  204             Rx   d 8 00 00 FF 00 00 00 00 00
 1.928819 1  230             Rx   d 8 F0 1C 00 00 00 00 00 00
 1.929052 1  42F             Rx   d 8 7D 02 05 4E 20 64 00 00
 1.937205 1  167             Rx   d 8 00 FF FF 00 00 02 18 00
 1.937432 1  204             Rx   d 8 00 00 FF 00 00 00 00 00
 1.941450 1  41              Rx   d 8 00 00 00 00 00 00 00 00
 1.941494 1  242             Rx   d 8 FF FF 3F FF 85 00 03 01
 1.947384 1  47              Rx   d 8 64 22 BC F4 3B 98 00 00
 1.947424 1  165             Rx   d 8 20 81 00 00 00 00 00 00
