date Wed Mar 12 12:14:26.370 AM 2025
base hex  timestamps absolute
internal events logged
Begin Triggerblock Wed Mar 12 12:14:26.451 AM 2025
 0.000000 Start of measurement
 0.000000 1  7DF             Rx   d 8 02 01 0D 00 00 00 00 00
 0.212715 1  7DF             Rx   d 8 02 01 04 00 00 00 00 00
 0.425804 1  7DF             Rx   d 8 02 01 0E 00 00 00 00 00
 0.639141 1  7DF             Rx   d 8 02 01 0B 00 00 00 00 00
 0.851973 1  7DF             Rx   d 8 02 01 10 00 00 00 00 00
 1.064890 1  7DF             Rx   d 8 02 01 03 00 00 00 00 00
 1.277829 1  7DF             Rx   d 8 02 01 03 00 00 00 00 00
 1.494877 1  7DF             Rx   d 8 02 01 11 00 00 00 00 00
 1.697164 1  591             Tx   d 8 91 00 FF FF FF FF FF FF
 1.697947 1  3B2             Tx   d 8 40 00 00 80 00 00 00 00
 1.707723 1  7DF             Rx   d 8 02 01 0C 00 00 00 00 00
 1.920876 1  7DF             Rx   d 8 02 01 0D 00 00 00 00 00
 2.134022 1  7DF             Rx   d 8 02 01 04 00 00 00 00 00
 2.346716 1  7DF             Rx   d 8 02 01 0E 00 00 00 00 00
 2.561420 1  7DF             Rx   d 8 02 01 0B 00 00 00 00 00
 2.777173 1  7DF             Rx   d 8 02 01 10 00 00 00 00 00
 2.990109 1  7DF             Rx   d 8 02 01 03 00 00 00 00 00
 3.203035 1  7DF             Rx   d 8 02 01 03 00 00 00 00 00
 3.420324 1  7DF             Rx   d 8 02 01 11 00 00 00 00 00
 3.633158 1  7DF             Rx   d 8 02 01 0C 00 00 00 00 00
 3.846015 1  7DF             Rx   d 8 02 01 0D 00 00 00 00 00
 4.059191 1  7DF             Rx   d 8 02 01 04 00 00 00 00 00
 4.272049 1  7DF             Rx   d 8 02 01 0E 00 00 00 00 00
 4.487155 1  7DF             Rx   d 8 02 01 0B 00 00 00 00 00
 4.702122 1  7DF             Rx   d 8 02 01 10 00 00 00 00 00
 4.915437 1  7DF             Rx   d 8 02 01 03 00 00 00 00 00
 5.128018 1  7DF             Rx   d 8 02 01 03 00 00 00 00 00
 5.343474 1  7DF             Rx   d 8 02 01 11 00 00 00 00 00
 5.558126 1  7DF             Rx   d 8 02 01 0C 00 00 00 00 00
 5.771408 1  7DF             Rx   d 8 02 01 0D 00 00 00 00 00
 5.986241 1  7DF             Rx   d 8 02 01 04 00 00 00 00 00
 6.201627 1  7DF             Rx   d 8 02 01 0E 00 00 00 00 00
 6.415357 1  7DF             Rx   d 8 02 01 0B 00 00 00 00 00
 6.627694 1  7DF             Rx   d 8 02 01 10 00 00 00 00 00
 6.840522 1  7DF             Rx   d 8 02 01 03 00 00 00 00 00
 7.055149 1  7DF             Rx   d 8 02 01 03 00 00 00 00 00
 7.269296 1  7DF             Rx   d 8 02 01 11 00 00 00 00 00
 7.484946 1  7DF             Rx   d 8 02 01 0C 00 00 00 00 00
 7.696845 1  7DF             Rx   d 8 02 01 0D 00 00 00 00 00
 7.706698 1  3B2             Tx   d 8 40 00 00 80 00 00 00 00
 7.706770 1  42F             Tx   d 8 00 00 00 00 00 00 60 00
 7.708477 1  202             Tx   d 8 40 00 00 00 41 41 13 00
 7.708512 1  156             Tx   d 8 64 00 00 00 23 00 00 00
 7.709936 1  4C              Tx   d 8 00 55 55 00 00 00 00 00
 7.709971 1  3C3             Tx   d 8 00 00 00 00 00 00 00 00
 7.711320 1  416             Tx   d 8 00 00 00 00 00 00 00 00
 7.711349 1  3B4             Tx   d 8 31 00 00 00 00 00 00 00
 7.714291 1  421             Tx   d 8 08 00 00 00 00 00 00 00
 7.716940 1  42C             Tx   d 8 00 00 A6 00 00 00 00 00
 7.720281 1  77              Tx   d 8 23 00 00 00 00 00 00 00
 7.722236 1  191             Tx   d 8 41 11 00 00 00 00 00 00
 7.730538 1  3B3             Tx   d 8 00 00 00 00 96 00 FF 00
 7.731994 1  3D8             Tx   d 8 00 00 00 00 00 00 00 00
 7.732029 1  ErrorFrame
 7.732888 1  46B             Tx   d 8 00 00 00 00 00 00 00 00
 7.909797 1  7DF             Rx   d 8 02 01 04 00 00 00 00 00
 8.125148 1  7DF             Rx   d 8 02 01 0E 00 00 00 00 00
 8.339613 1  7DF             Rx   d 8 02 01 0B 00 00 00 00 00
 8.553852 1  7DF             Rx   d 8 02 01 10 00 00 00 00 00
 8.734621 1  3B2             Tx   d 8 40 00 00 80 00 00 00 00
 8.734848 1  42F             Tx   d 8 00 00 00 00 00 00 60 00
 8.735527 1  202             Tx   d 8 40 00 00 00 41 41 13 00
 8.735764 1  156             Tx   d 8 B4 00 00 00 23 00 00 00
 8.737536 1  4C              Tx   d 8 00 55 55 00 00 00 00 00
 8.738291 1  3C3             Tx   d 8 00 00 00 00 00 00 00 00
 8.740172 1  416             Tx   d 8 00 00 00 00 00 00 00 00
 8.741060 1  3B4             Tx   d 8 31 00 00 00 00 00 00 00
 8.742880 1  421             Tx   d 8 08 00 00 00 00 00 00 00
 8.743577 1  42C             Tx   d 8 00 00 A6 00 00 00 00 00
 8.744917 1  77              Tx   d 8 23 00 00 00 00 00 00 00
 8.745502 1  191             Tx   d 8 41 11 00 00 00 00 00 00
 8.746806 1  3B3             Tx   d 8 00 00 00 00 96 00 FF 00
 8.747424 1  3D8             Tx   d 8 00 00 00 00 00 00 00 00
 8.748804 1  46B             Tx   d 8 00 00 00 00 00 00 00 00
 8.765884 1  7DF             Rx   d 8 02 01 03 00 00 00 00 00
 8.978869 1  7DF             Rx   d 8 02 01 03 00 00 00 00 00
 9.200334 1  7DF             Rx   d 8 02 01 11 00 00 00 00 00
 9.413543 1  7DF             Rx   d 8 02 01 0C 00 00 00 00 00
 9.625925 1  7DF             Rx   d 8 02 01 0D 00 00 00 00 00
 9.751283 1  3B2             Tx   d 8 40 00 00 80 00 00 00 00
 9.752019 1  42F             Tx   d 8 00 00 00 00 00 00 60 00
 9.752967 1  202             Tx   d 8 40 00 00 00 41 41 13 00
 9.755895 1  156             Tx   d 8 64 00 00 00 23 00 00 00
 9.757533 1  4C              Tx   d 8 00 55 55 00 00 00 00 00
 9.759976 1  3C3             Tx   d 8 00 00 00 00 00 00 00 00
 9.760650 1  416             Tx   d 8 00 00 00 00 00 00 00 00
 9.762357 1  3B4             Tx   d 8 31 00 00 00 00 00 00 00
 9.763233 1  421             Tx   d 8 08 00 00 00 00 00 00 00
 9.765027 1  42C             Tx   d 8 00 00 A6 00 00 00 00 00
 9.765992 1  77              Tx   d 8 23 00 00 00 00 00 00 00
 9.767761 1  191             Tx   d 8 41 11 00 00 00 00 00 00
 9.768292 1  3B3             Tx   d 8 00 00 00 00 96 00 FF 00
 9.769624 1  3D8             Tx   d 8 00 00 00 00 00 00 00 00
 9.770362 1  46B             Tx   d 8 00 00 00 00 00 00 00 00
 9.839715 1  7DF             Rx   d 8 02 01 04 00 00 00 00 00
 10.052036 1  7DF             Rx   d 8 02 01 0E 00 00 00 00 00
 10.265238 1  7DF             Rx   d 8 02 01 0B 00 00 00 00 00
 10.478229 1  7DF             Rx   d 8 02 01 10 00 00 00 00 00
 10.691152 1  7DF             Rx   d 8 02 01 03 00 00 00 00 00
 10.773585 1  3B2             Tx   d 8 40 00 00 80 00 00 00 00
 10.773801 1  42F             Tx   d 8 00 00 00 00 00 00 60 00
 10.774645 1  202             Tx   d 8 40 00 00 00 41 41 13 00
 10.775177 1  156             Tx   d 8 B4 00 00 00 23 00 00 00
 10.775904 1  4C              Tx   d 8 00 55 55 00 00 00 00 00
 10.777867 1  3C3             Tx   d 8 00 00 00 00 00 00 00 00
 10.778761 1  416             Tx   d 8 00 00 00 00 00 00 00 00
 10.780417 1  3B4             Tx   d 8 31 00 00 00 00 00 00 00
 10.781192 1  421             Tx   d 8 08 00 00 00 00 00 00 00
 10.783338 1  42C             Tx   d 8 00 00 A6 00 00 00 00 00
 10.784088 1  77              Tx   d 8 23 00 00 00 00 00 00 00
 10.785723 1  191             Tx   d 8 41 11 00 00 00 00 00 00
 10.787184 1  3B3             Tx   d 8 00 00 00 00 96 00 FF 00
 10.787913 1  3D8             Tx   d 8 00 00 00 00 00 00 00 00
 10.789818 1  46B             Tx   d 8 00 00 00 00 00 00 00 00
 10.905750 1  7DF             Rx   d 8 02 01 03 00 00 00 00 00
 11.124044 1  7DF             Rx   d 8 02 01 11 00 00 00 00 00
 11.338105 1  7DF             Rx   d 8 02 01 0C 00 00 00 00 00
 11.551272 1  7DF             Rx   d 8 02 01 0D 00 00 00 00 00
 11.764863 1  7DF             Rx   d 8 02 01 04 00 00 00 00 00
 11.793318 1  3B2             Tx   d 8 40 00 00 80 00 00 00 00
 11.794118 1  42F             Tx   d 8 00 00 00 00 00 00 60 00
 11.794987 1  202             Tx   d 8 40 00 00 00 41 41 13 00
 11.797629 1  156             Tx   d 8 64 00 00 00 23 00 00 00
 11.799889 1  4C              Tx   d 8 00 55 55 00 00 00 00 00
 11.800492 1  3C3             Tx   d 8 00 00 00 00 00 00 00 00
 11.802350 1  416             Tx   d 8 00 00 00 00 00 00 00 00
 11.803169 1  3B4             Tx   d 8 31 00 00 00 00 00 00 00
 11.805118 1  421             Tx   d 8 08 00 00 00 00 00 00 00
 11.805838 1  42C             Tx   d 8 00 00 A6 00 00 00 00 00
 11.807608 1  77              Tx   d 8 23 00 00 00 00 00 00 00
 11.808186 1  191             Tx   d 8 41 11 00 00 00 00 00 00
 11.810074 1  3B3             Tx   d 8 00 00 00 00 96 00 FF 00
 11.810355 1  3D8             Tx   d 8 00 00 00 00 00 00 00 00
 11.811243 1  46B             Tx   d 8 00 00 00 00 00 00 00 00
 11.977468 1  7DF             Rx   d 8 02 01 0E 00 00 00 00 00
 12.190265 1  7DF             Rx   d 8 02 01 0B 00 00 00 00 00
 12.403499 1  7DF             Rx   d 8 02 01 10 00 00 00 00 00
 12.616210 1  7DF             Rx   d 8 02 01 03 00 00 00 00 00
 12.815202 1  3B2             Tx   d 8 40 00 00 80 00 00 00 00
 12.815491 1  42F             Tx   d 8 00 00 00 00 00 00 60 00
 12.815801 1  202             Tx   d 8 40 00 00 00 41 41 13 00
 12.816046 1  156             Tx   d 8 B4 00 00 00 23 00 00 00
 12.816615 1  4C              Tx   d 8 00 55 55 00 00 00 00 00
 12.818548 1  3C3             Tx   d 8 00 00 00 00 00 00 00 00
 12.818787 1  416             Tx   d 8 00 00 00 00 00 00 00 00
 12.819505 1  3B4             Tx   d 8 31 00 00 00 00 00 00 00
 12.819746 1  421             Tx   d 8 08 00 00 00 00 00 00 00
 12.821874 1  42C             Tx   d 8 00 00 A6 00 00 00 00 00
 12.822435 1  77              Tx   d 8 23 00 00 00 00 00 00 00
 12.822779 1  191             Tx   d 8 41 11 00 00 00 00 00 00
 12.823091 1  3B3             Tx   d 8 00 00 00 00 96 00 FF 00
 12.823392 1  3D8             Tx   d 8 00 00 00 00 00 00 00 00
 12.823642 1  46B             Tx   d 8 00 00 00 00 00 00 00 00
 12.829287 1  7DF             Rx   d 8 02 01 03 00 00 00 00 00
 13.044778 1  7DF             Rx   d 8 02 01 11 00 00 00 00 00
 13.259377 1  7DF             Rx   d 8 02 01 0C 00 00 00 00 00
 13.473276 1  7DF             Rx   d 8 02 01 0D 00 00 00 00 00
 13.685328 1  7DF             Rx   d 8 02 01 04 00 00 00 00 00
 13.827267 1  3B2             Tx   d 8 40 00 00 80 00 00 00 00
 13.827587 1  42F             Tx   d 8 00 00 00 00 00 00 60 00
 13.827805 1  202             Tx   d 8 40 00 00 00 41 41 13 00
 13.828430 1  156             Tx   d 8 64 00 00 00 23 00 00 00
 13.830420 1  4C              Tx   d 8 00 55 55 00 00 00 00 00
 13.830771 1  3C3             Tx   d 8 00 00 00 00 00 00 00 00
 13.831015 1  416             Tx   d 8 00 00 00 00 00 00 00 00
 13.833050 1  3B4             Tx   d 8 31 00 00 00 00 00 00 00
 13.833337 1  421             Tx   d 8 08 00 00 00 00 00 00 00
 13.833688 1  42C             Tx   d 8 00 00 A6 00 00 00 00 00
 13.833938 1  77              Tx   d 8 23 00 00 00 00 00 00 00
 13.835764 1  191             Tx   d 8 41 11 00 00 00 00 00 00
 13.836102 1  3B3             Tx   d 8 00 00 00 00 96 00 FF 00
 13.836356 1  3D8             Tx   d 8 00 00 00 00 00 00 00 00
 13.838080 1  46B             Tx   d 8 00 00 00 00 00 00 00 00
 13.897898 1  7DF             Rx   d 8 02 01 0E 00 00 00 00 00
 14.111188 1  7DF             Rx   d 8 02 01 0B 00 00 00 00 00
 14.324268 1  7DF             Rx   d 8 02 01 10 00 00 00 00 00
 14.538594 1  7DF             Rx   d 8 02 01 03 00 00 00 00 00
 14.751396 1  7DF             Rx   d 8 02 01 03 00 00 00 00 00
 14.841415 1  3B2             Tx   d 8 40 00 00 80 00 00 00 00
 14.841795 1  42F             Tx   d 8 00 00 00 00 00 00 60 00
 14.842016 1  202             Tx   d 8 40 00 00 00 41 41 13 00
 14.842498 1  156             Tx   d 8 B4 00 00 00 23 00 00 00
 14.843122 1  4C              Tx   d 8 00 55 55 00 00 00 00 00
 14.843518 1  3C3             Tx   d 8 00 00 00 00 00 00 00 00
 14.843832 1  416             Tx   d 8 00 00 00 00 00 00 00 00
 14.844081 1  3B4             Tx   d 8 31 00 00 00 00 00 00 00
 14.846371 1  421             Tx   d 8 08 00 00 00 00 00 00 00
 14.846703 1  42C             Tx   d 8 00 00 A6 00 00 00 00 00
 14.847017 1  77              Tx   d 8 23 00 00 00 00 00 00 00
 14.847255 1  191             Tx   d 8 41 11 00 00 00 00 00 00
 14.848172 1  3B3             Tx   d 8 00 00 00 00 96 00 FF 00
 14.850031 1  3D8             Tx   d 8 00 00 00 00 00 00 00 00
 14.850289 1  46B             Tx   d 8 00 00 00 00 00 00 00 00
 14.966104 1  7DF             Rx   d 8 02 01 11 00 00 00 00 00
 15.180740 1  7DF             Rx   d 8 02 01 0C 00 00 00 00 00
 15.393510 1  7DF             Rx   d 8 02 01 0D 00 00 00 00 00
 15.606468 1  7DF             Rx   d 8 02 01 04 00 00 00 00 00
 15.819695 1  7DF             Rx   d 8 02 01 0E 00 00 00 00 00
 15.852844 1  3B2             Tx   d 8 40 00 00 80 00 00 00 00
 15.853194 1  42F             Tx   d 8 00 00 00 00 00 00 60 00
 15.854087 1  202             Tx   d 8 40 00 00 00 41 41 13 00
 15.854264 1  156             Tx   d 8 64 00 00 00 23 00 00 00
 15.854662 1  4C              Tx   d 8 00 55 55 00 00 00 00 00
 15.854860 1  3C3             Tx   d 8 00 00 00 00 00 00 00 00
 15.855522 1  416             Tx   d 8 00 00 00 00 00 00 00 00
 15.855912 1  3B4             Tx   d 8 31 00 00 00 00 00 00 00
 15.856347 1  421             Tx   d 8 08 00 00 00 00 00 00 00
 15.856723 1  42C             Tx   d 8 00 00 A6 00 00 00 00 00
 15.857085 1  77              Tx   d 8 23 00 00 00 00 00 00 00
 15.857416 1  191             Tx   d 8 41 11 00 00 00 00 00 00
 15.857657 1  3B3             Tx   d 8 00 00 00 00 96 00 FF 00
 15.859920 1  3D8             Tx   d 8 00 00 00 00 00 00 00 00
 15.862256 1  46B             Tx   d 8 00 00 00 00 00 00 00 00
 16.032504 1  7DF             Rx   d 8 02 01 0B 00 00 00 00 00
 16.246949 1  7DF             Rx   d 8 02 01 10 00 00 00 00 00
 16.462786 1  7DF             Rx   d 8 02 01 03 00 00 00 00 00
 16.677805 1  7DF             Rx   d 8 02 01 03 00 00 00 00 00
 16.864403 1  3B2             Tx   d 8 40 00 00 80 00 00 00 00
 16.864704 1  42F             Tx   d 8 00 00 00 00 00 00 60 00
 16.865011 1  202             Tx   d 8 40 00 00 00 41 41 13 00
 16.865251 1  156             Tx   d 8 B4 00 00 00 23 00 00 00
 16.865890 1  4C              Tx   d 8 00 55 55 00 00 00 00 00
 16.867944 1  3C3             Tx   d 8 00 00 00 00 00 00 00 00
 16.868464 1  416             Tx   d 8 00 00 00 00 00 00 00 00
 16.868729 1  3B4             Tx   d 8 31 00 00 00 00 00 00 00
 16.871414 1  421             Tx   d 8 08 00 00 00 00 00 00 00
 16.873505 1  42C             Tx   d 8 00 00 A6 00 00 00 00 00
 16.873734 1  77              Tx   d 8 23 00 00 00 00 00 00 00
 16.875608 1  191             Tx   d 8 41 11 00 00 00 00 00 00
 16.875934 1  3B3             Tx   d 8 00 00 00 00 96 00 FF 00
 16.876191 1  3D8             Tx   d 8 00 00 00 00 00 00 00 00
 16.877921 1  46B             Tx   d 8 00 00 00 00 00 00 00 00
 16.896432 1  7DF             Rx   d 8 02 01 11 00 00 00 00 00
 17.109883 1  7DF             Rx   d 8 02 01 0C 00 00 00 00 00
 17.324590 1  7DF             Rx   d 8 02 01 0D 00 00 00 00 00
 17.536494 1  7DF             Rx   d 8 02 01 04 00 00 00 00 00
 17.749867 1  7DF             Rx   d 8 02 01 0E 00 00 00 00 00
 17.881319 1  3B2             Tx   d 8 40 00 00 80 00 00 00 00
 17.881576 1  42F             Tx   d 8 00 00 00 00 00 00 60 00
 17.881856 1  202             Tx   d 8 40 00 00 00 41 41 13 00
 17.882113 1  156             Tx   d 8 64 00 00 00 23 00 00 00
 17.882644 1  4C              Tx   d 8 00 55 55 00 00 00 00 00
 17.884394 1  3C3             Tx   d 8 00 00 00 00 00 00 00 00
 17.884649 1  416             Tx   d 8 00 00 00 00 00 00 00 00
 17.884892 1  3B4             Tx   d 8 31 00 00 00 00 00 00 00
 17.886559 1  421             Tx   d 8 08 00 00 00 00 00 00 00
 17.886862 1  42C             Tx   d 8 00 00 A6 00 00 00 00 00
 17.887113 1  77              Tx   d 8 23 00 00 00 00 00 00 00
 17.888628 1  191             Tx   d 8 41 11 00 00 00 00 00 00
 17.889988 1  3B3             Tx   d 8 00 00 00 00 96 00 FF 00
 17.891357 1  3D8             Tx   d 8 00 00 00 00 00 00 00 00
 17.891581 1  46B             Tx   d 8 00 00 00 00 00 00 00 00
 17.961936 1  7DF             Rx   d 8 02 01 0B 00 00 00 00 00
 18.174949 1  7DF             Rx   d 8 02 01 10 00 00 00 00 00
 18.387931 1  7DF             Rx   d 8 02 01 03 00 00 00 00 00
 18.600954 1  7DF             Rx   d 8 02 01 03 00 00 00 00 00
 18.816740 1  7DF             Rx   d 8 02 01 11 00 00 00 00 00
 18.893756 1  3B2             Tx   d 8 40 00 00 80 00 00 00 00
 18.894048 1  42F             Tx   d 8 00 00 00 00 00 00 60 00
 18.894344 1  202             Tx   d 8 40 00 00 00 41 41 13 00
 18.894655 1  156             Tx   d 8 B4 00 00 00 23 00 00 00
 18.894889 1  4C              Tx   d 8 00 55 55 00 00 00 00 00
 18.895468 1  3C3             Tx   d 8 00 00 00 00 00 00 00 00
 18.897384 1  416             Tx   d 8 00 00 00 00 00 00 00 00
 18.897679 1  3B4             Tx   d 8 31 00 00 00 00 00 00 00
 18.897931 1  421             Tx   d 8 08 00 00 00 00 00 00 00
 18.898543 1  42C             Tx   d 8 00 00 A6 00 00 00 00 00
 18.900236 1  77              Tx   d 8 23 00 00 00 00 00 00 00
 18.900716 1  191             Tx   d 8 41 11 00 00 00 00 00 00
 18.900960 1  3B3             Tx   d 8 00 00 00 00 96 00 FF 00
 18.902950 1  3D8             Tx   d 8 00 00 00 00 00 00 00 00
 18.903200 1  46B             Tx   d 8 00 00 00 00 00 00 00 00
 19.031289 1  7DF             Rx   d 8 02 01 0C 00 00 00 00 00
 19.243910 1  7DF             Rx   d 8 02 01 0D 00 00 00 00 00
 19.456955 1  7DF             Rx   d 8 02 01 04 00 00 00 00 00
 19.671253 1  7DF             Rx   d 8 02 01 0E 00 00 00 00 00
 19.883248 1  7DF             Rx   d 8 02 01 0B 00 00 00 00 00
 19.905732 1  3B2             Tx   d 8 40 00 00 80 00 00 00 00
 19.906052 1  42F             Tx   d 8 00 00 00 00 00 00 60 00
 19.906407 1  202             Tx   d 8 40 00 00 00 41 41 13 00
 19.906754 1  156             Tx   d 8 64 00 00 00 23 00 00 00
 19.907051 1  4C              Tx   d 8 00 55 55 00 00 00 00 00
 19.907353 1  3C3             Tx   d 8 00 00 00 00 00 00 00 00
 19.907662 1  416             Tx   d 8 00 00 00 00 00 00 00 00
 19.907989 1  3B4             Tx   d 8 31 00 00 00 00 00 00 00
 19.908321 1  421             Tx   d 8 08 00 00 00 00 00 00 00
 19.908673 1  42C             Tx   d 8 00 00 A6 00 00 00 00 00
 19.909097 1  77              Tx   d 8 23 00 00 00 00 00 00 00
 19.909419 1  191             Tx   d 8 41 11 00 00 00 00 00 00
 19.911609 1  3B3             Tx   d 8 00 00 00 00 96 00 FF 00
 19.912240 1  3D8             Tx   d 8 00 00 00 00 00 00 00 00
 19.914503 1  46B             Tx   d 8 00 00 00 00 00 00 00 00
 20.095881 1  7DF             Rx   d 8 02 01 10 00 00 00 00 00
 20.308749 1  7DF             Rx   d 8 02 01 03 00 00 00 00 00
 20.522252 1  7DF             Rx   d 8 02 01 03 00 00 00 00 00
 20.738329 1  7DF             Rx   d 8 02 01 11 00 00 00 00 00
 20.916467 1  3B2             Tx   d 8 40 00 00 80 00 00 00 00
 20.916784 1  42F             Tx   d 8 00 00 00 00 00 00 60 00
 20.917077 1  202             Tx   d 8 40 00 00 00 41 41 13 00
 20.917312 1  156             Tx   d 8 B4 00 00 00 23 00 00 00
 20.917999 1  4C              Tx   d 8 00 55 55 00 00 00 00 00
 20.920128 1  3C3             Tx   d 8 00 00 00 00 00 00 00 00
 20.920677 1  416             Tx   d 8 00 00 00 00 00 00 00 00
 20.920918 1  3B4             Tx   d 8 31 00 00 00 00 00 00 00
 20.921450 1  421             Tx   d 8 08 00 00 00 00 00 00 00
 20.921858 1  42C             Tx   d 8 00 00 A6 00 00 00 00 00
 20.922003 1  77              Tx   d 8 23 00 00 00 00 00 00 00
 20.924111 1  191             Tx   d 8 41 11 00 00 00 00 00 00
 20.924650 1  3B3             Tx   d 8 00 00 00 00 96 00 FF 00
 20.924899 1  3D8             Tx   d 8 00 00 00 00 00 00 00 00
 20.926920 1  46B             Tx   d 8 00 00 00 00 00 00 00 00
 20.952287 1  7DF             Rx   d 8 02 01 0C 00 00 00 00 00
 21.165215 1  7DF             Rx   d 8 02 01 0D 00 00 00 00 00
 21.378160 1  7DF             Rx   d 8 02 01 04 00 00 00 00 00
 21.591640 1  7DF             Rx   d 8 02 01 0E 00 00 00 00 00
 21.804641 1  7DF             Rx   d 8 02 01 0B 00 00 00 00 00
 21.929086 1  3B2             Tx   d 8 40 00 00 80 00 00 00 00
 21.929381 1  42F             Tx   d 8 00 00 00 00 00 00 60 00
 21.929681 1  202             Tx   d 8 40 00 00 00 41 41 13 00
 21.929985 1  156             Tx   d 8 64 00 00 00 23 00 00 00
 21.930239 1  4C              Tx   d 8 00 55 55 00 00 00 00 00
 21.930779 1  3C3             Tx   d 8 00 00 00 00 00 00 00 00
 21.932977 1  416             Tx   d 8 00 00 00 00 00 00 00 00
 21.933422 1  3B4             Tx   d 8 31 00 00 00 00 00 00 00
 21.933792 1  421             Tx   d 8 08 00 00 00 00 00 00 00
 21.934177 1  42C             Tx   d 8 00 00 A6 00 00 00 00 00
 21.934513 1  77              Tx   d 8 23 00 00 00 00 00 00 00
 21.934753 1  191             Tx   d 8 41 11 00 00 00 00 00 00
 21.936597 1  3B3             Tx   d 8 00 00 00 00 96 00 FF 00
 21.937113 1  3D8             Tx   d 8 00 00 00 00 00 00 00 00
 21.938853 1  46B             Tx   d 8 00 00 00 00 00 00 00 00
 22.017159 1  7DF             Rx   d 8 02 01 10 00 00 00 00 00
 22.230195 1  7DF             Rx   d 8 02 01 03 00 00 00 00 00
 22.444201 1  7DF             Rx   d 8 02 01 03 00 00 00 00 00
 22.658413 1  7DF             Rx   d 8 02 01 11 00 00 00 00 00
 22.873245 1  7DF             Rx   d 8 02 01 0C 00 00 00 00 00
 22.942371 1  3B2             Tx   d 8 40 00 00 80 00 00 00 00
 22.942700 1  42F             Tx   d 8 00 00 00 00 00 00 60 00
 22.942998 1  202             Tx   d 8 40 00 00 00 41 41 13 00
 22.943282 1  156             Tx   d 8 B4 00 00 00 23 00 00 00
 22.943525 1  4C              Tx   d 8 00 55 55 00 00 00 00 00
 22.943846 1  3C3             Tx   d 8 00 00 00 00 00 00 00 00
 22.944046 1  416             Tx   d 8 00 00 00 00 00 00 00 00
 22.944298 1  3B4             Tx   d 8 31 00 00 00 00 00 00 00
 22.944726 1  421             Tx   d 8 08 00 00 00 00 00 00 00
 22.946654 1  42C             Tx   d 8 00 00 A6 00 00 00 00 00
 22.947233 1  77              Tx   d 8 23 00 00 00 00 00 00 00
 22.949027 1  191             Tx   d 8 41 11 00 00 00 00 00 00
 22.950018 1  3B3             Tx   d 8 00 00 00 00 96 00 FF 00
 22.954078 1  3D8             Tx   d 8 00 00 00 00 00 00 00 00
 22.955086 1  46B             Tx   d 8 00 00 00 00 00 00 00 00
 23.086265 1  7DF             Rx   d 8 02 01 0D 00 00 00 00 00
 23.299159 1  7DF             Rx   d 8 02 01 04 00 00 00 00 00
 23.512609 1  7DF             Rx   d 8 02 01 0E 00 00 00 00 00
 23.725526 1  7DF             Rx   d 8 02 01 0B 00 00 00 00 00
 23.939341 1  7DF             Rx   d 8 02 01 10 00 00 00 00 00
 23.959486 1  3B2             Tx   d 8 40 00 00 80 00 00 00 00
 23.959766 1  42F             Tx   d 8 00 00 00 00 00 00 60 00
 23.960069 1  202             Tx   d 8 40 00 00 00 41 41 13 00
 23.960416 1  156             Tx   d 8 64 00 00 00 23 00 00 00
 23.960637 1  4C              Tx   d 8 00 55 55 00 00 00 00 00
 23.961369 1  3C3             Tx   d 8 00 00 00 00 00 00 00 00
 23.963874 1  416             Tx   d 8 00 00 00 00 00 00 00 00
 23.964225 1  3B4             Tx   d 8 31 00 00 00 00 00 00 00
 23.964505 1  421             Tx   d 8 08 00 00 00 00 00 00 00
 23.965144 1  42C             Tx   d 8 00 00 A6 00 00 00 00 00
 23.965868 1  77              Tx   d 8 23 00 00 00 00 00 00 00
 23.967932 1  191             Tx   d 8 41 11 00 00 00 00 00 00
 23.968157 1  3B3             Tx   d 8 00 00 00 00 96 00 FF 00
 23.968892 1  3D8             Tx   d 8 00 00 00 00 00 00 00 00
 23.970682 1  46B             Tx   d 8 00 00 00 00 00 00 00 00
 24.151498 1  7DF             Rx   d 8 02 01 03 00 00 00 00 00
 24.364407 1  7DF             Rx   d 8 02 01 03 00 00 00 00 00
 24.580304 1  7DF             Rx   d 8 02 01 11 00 00 00 00 00
 24.794599 1  7DF             Rx   d 8 02 01 0C 00 00 00 00 00
 24.973051 1  3B2             Tx   d 8 40 00 00 80 00 00 00 00
 24.973526 1  42F             Tx   d 8 00 00 00 00 00 00 60 00
 24.973701 1  202             Tx   d 8 40 00 00 00 41 41 13 00
 24.974306 1  156             Tx   d 8 B4 00 00 00 23 00 00 00
 24.974575 1  4C              Tx   d 8 00 55 55 00 00 00 00 00
 24.975173 1  3C3             Tx   d 8 00 00 00 00 00 00 00 00
 24.976937 1  416             Tx   d 8 00 00 00 00 00 00 00 00
 24.977504 1  3B4             Tx   d 8 31 00 00 00 00 00 00 00
 24.979050 1  421             Tx   d 8 08 00 00 00 00 00 00 00
 24.979565 1  42C             Tx   d 8 00 00 A6 00 00 00 00 00
 24.980983 1  77              Tx   d 8 23 00 00 00 00 00 00 00
 24.981509 1  191             Tx   d 8 41 11 00 00 00 00 00 00
 24.983084 1  3B3             Tx   d 8 00 00 00 00 96 00 FF 00
 24.983625 1  3D8             Tx   d 8 00 00 00 00 00 00 00 00
 24.985061 1  46B             Tx   d 8 00 00 00 00 00 00 00 00
 25.007730 1  7DF             Rx   d 8 02 01 0D 00 00 00 00 00
 25.220385 1  7DF             Rx   d 8 02 01 04 00 00 00 00 00
 25.433391 1  7DF             Rx   d 8 02 01 0E 00 00 00 00 00
 25.646952 1  7DF             Rx   d 8 02 01 0B 00 00 00 00 00
 25.859377 1  7DF             Rx   d 8 02 01 10 00 00 00 00 00
 25.987999 1  3B2             Tx   d 8 40 00 00 80 00 00 00 00
