date Wed Mar 12 12:08:14.000 AM 2025
base hex  timestamps absolute
internal events logged
Begin Triggerblock Wed Mar 12 12:08:13.998 AM 2025
 0.000000 Start of measurement
 0.000000 1  348             Rx   d 8 00 00 00 01 00 00 00 00
 0.000246 1  430             Rx   d 8 C8 00 40 9B 00 00 64 00
 0.000521 1  434             Rx   d 8 40 00 70 00 20 4D 28 00
 0.004537 1  41              Rx   d 8 00 00 00 00 00 00 00 00
 0.004583 1  3B6             Rx   d 8 0E 00 00 00 00 00 00 00
 0.005001 1  3B7             Rx   d 8 00 00 00 00 00 00 00 00
 0.005028 1  3B8             Rx   d 8 FF FF FF FF 00 00 00 00
 0.005242 1  42C             Rx   d 8 80 02 00 00 00 00 00 00
 0.007499 1  47              Rx   d 8 64 22 BC F4 3B 98 00 00
 0.007529 1  165             Rx   d 8 20 81 00 00 00 00 00 00
 0.007775 1  167             Rx   d 8 00 FF FF 00 00 02 0E 00
 0.008002 1  200             Rx   d 8 00 00 80 26 80 26 F0 00
 0.008249 1  202             Rx   d 8 00 CC 00 00 00 00 00 00
 0.008515 1  204             Rx   d 8 00 00 FF 00 00 00 00 00
 0.008744 1  230             Rx   d 8 F0 1C 00 00 00 00 00 00
 0.017417 1  167             Rx   d 8 00 FF FF 00 00 02 0E 00
 0.017606 1  204             Rx   d 8 00 00 FF 00 00 00 00 00
 0.017767 1  43D             Rx   d 8 14 00 21 00 00 00 00 00
 0.018017 1  43E             Rx   d 8 00 00 00 00 00 00 00 00
 0.023943 1  41              Rx   d 8 00 00 00 00 00 00 00 00
 0.024091 1  242             Rx   d 8 FF FF 3F FF B6 00 03 01
 0.027327 1  47              Rx   d 8 64 22 BC F4 3B 98 00 00
 0.027496 1  165             Rx   d 8 20 81 00 00 00 00 00 00
 0.027745 1  167             Rx   d 8 00 FF FF 00 00 02 0E 00
 0.027994 1  171             Rx   d 8 F0 E0 00 00 00 00 00 00
 0.028279 1  200             Rx   d 8 00 00 80 26 80 26 F0 00
 0.028497 1  202             Rx   d 8 00 CC 00 00 00 00 00 00
 0.028752 1  204             Rx   d 8 00 00 FF 00 00 00 00 00
 0.028994 1  230             Rx   d 8 F0 1C 00 00 00 00 00 00
 0.029228 1  42F             Rx   d 8 7D 02 05 4E 20 FF 00 00
 0.037485 1  7DF             Rx   d 8 02 01 0E 00 00 00 00 00
 0.037526 1  167             Rx   d 8 00 FF FF 00 00 02 0E 00
 0.037732 1  204             Rx   d 8 00 00 FF 00 00 00 00 00
 0.043131 1  41              Rx   d 8 00 00 00 00 00 00 00 00
 0.047555 1  47              Rx   d 8 64 22 BC F4 3B 98 00 00
 0.047587 1  165             Rx   d 8 20 81 00 00 00 00 00 00
 0.047793 1  167             Rx   d 8 00 FF FF 00 00 02 0E 00
 0.048018 1  200             Rx   d 8 00 00 80 26 80 26 F0 00
 0.048263 1  202             Rx   d 8 00 CC 00 00 00 00 00 00
 0.048552 1  204             Rx   d 8 00 00 FF 00 00 00 00 00
 0.048753 1  230             Rx   d 8 F0 1C 00 00 00 00 00 00
 0.052928 1  42C             Rx   d 8 80 02 00 00 00 00 00 00
 0.057539 1  167             Rx   d 8 00 FF FF 00 00 02 0E 00
 0.057570 1  171             Rx   d 8 F0 E0 00 00 00 00 00 00
 0.057825 1  204             Rx   d 8 00 00 FF 00 00 00 00 00
 0.058032 1  42F             Rx   d 8 7D 02 05 4E 20 FF 00 00
 0.060634 1  7E8             Rx   d 8 03 41 0E 80 00 00 00 00
 0.063390 1  41              Rx   d 8 00 00 00 00 00 00 00 00
 0.063428 1  242             Rx   d 8 FF FF 3F FF B6 00 03 01
 0.063721 1  3B5             Rx   d 8 FF FD FF FD FF FD FF FD
 0.067643 1  47              Rx   d 8 64 22 BC F4 3B 98 00 00
 0.067707 1  156             Rx   d 8 BA 00 00 00 00 00 00 00
 0.068034 1  165             Rx   d 8 20 81 00 00 00 00 00 00
 0.068046 1  166             Rx   d 8 76 00 00 FF FF FF 00 00
 0.068290 1  167             Rx   d 8 00 FF FF 00 00 02 0E 00
 0.068508 1  178             Rx   d 8 00 00 02 00 02 54 C6 53
 0.068775 1  179             Rx   d 8 00 00 08 00 22 FF 00 00
 0.068996 1  17C             Rx   d 8 00 00 00 00 00 00 00 00
 0.069260 1  200             Rx   d 8 00 00 80 26 80 26 F0 00
 0.069541 1  202             Rx   d 8 00 CC 00 00 00 00 00 00
 0.069790 1  204             Rx   d 8 00 00 FF 00 00 00 00 00
 0.070057 1  230             Rx   d 8 F0 1C 00 00 00 00 00 00
 0.070298 1  421             Rx   d 8 04 00 11 00 00 00 FF 00
 0.070529 1  424             Rx   d 8 00 00 00 03 00 00 00 00
 0.070771 1  42D             Rx   d 8 00 03 FF 00 00 00 F0 00
 0.071031 1  43D             Rx   d 8 14 00 21 00 00 00 00 00
 0.071278 1  43E             Rx   d 8 00 00 00 00 00 00 00 00
 0.077599 1  167             Rx   d 8 00 FF FF 00 00 02 0E 00
 0.077647 1  204             Rx   d 8 00 00 FF 00 00 00 00 00
 0.083204 1  41              Rx   d 8 00 00 00 00 00 00 00 00
 0.087189 1  23A             Rx   d 8 FF FF FF FF F0 00 00 00
 0.087245 1  430             Rx   d 8 00 00 00 00 FE 00 00 00
 0.087251 1  434             Rx   d 8 00 00 00 00 0F FF 00 10
 0.087613 1  47              Rx   d 8 64 22 BC F4 3B 98 00 00
 0.087634 1  165             Rx   d 8 20 81 00 00 00 00 00 00
 0.087840 1  167             Rx   d 8 00 FF FF 00 00 02 0E 00
 0.088070 1  171             Rx   d 8 F0 E0 00 00 00 00 00 00
 0.088311 1  200             Rx   d 8 00 00 80 26 80 26 F0 00
 0.088567 1  202             Rx   d 8 00 CC 00 00 00 00 00 00
 0.088809 1  204             Rx   d 8 00 00 FF 00 00 00 00 00
 0.089053 1  230             Rx   d 8 F0 1C 00 00 00 00 00 00
 0.089278 1  42F             Rx   d 8 7D 02 05 4E 20 FF 00 00
 0.089546 1  435             Rx   d 8 00 00 00 00 00 00 00 00
 0.097595 1  167             Rx   d 8 00 FF FF 00 00 02 0E 00
 0.097639 1  204             Rx   d 8 00 00 FF 00 00 00 00 00
 0.099303 1  318             Rx   d 8 00 00 00 00 00 00 00 00
 0.099344 1  346             Rx   d 8 00 00 00 03 03 00 C0 00
 0.099583 1  348             Rx   d 8 00 00 00 01 00 00 00 00
 0.099778 1  430             Rx   d 8 C8 00 40 9B 00 00 64 00
 0.100014 1  434             Rx   d 8 40 00 70 00 20 4D 28 00
 0.103195 1  41              Rx   d 8 00 00 00 00 00 00 00 00
 0.103241 1  242             Rx   d 8 FF FF 3F FF B6 00 03 01
 0.103487 1  3B3             Rx   d 8 44 8C C0 0C E6 00 03 3E
 0.103695 1  40A             Rx   d 8 C1 01 47 41 48 4A 48 45
 0.103946 1  42C             Rx   d 8 80 02 00 00 00 00 00 00
 0.107625 1  47              Rx   d 8 64 22 BC F4 3B 98 00 00
 0.107670 1  165             Rx   d 8 20 81 00 00 00 00 00 00
 0.108005 1  167             Rx   d 8 00 FF FF 00 00 02 0E 00
 0.108025 1  200             Rx   d 8 00 00 80 26 80 26 F0 00
 0.108325 1  202             Rx   d 8 00 CC 00 00 00 00 00 00
 0.108555 1  204             Rx   d 8 00 00 FF 00 00 00 00 00
 0.108784 1  230             Rx   d 8 F0 1C 00 00 00 00 00 00
 0.117581 1  167             Rx   d 8 00 FF FF 00 00 02 0E 00
 0.117633 1  171             Rx   d 8 F0 E0 00 00 00 00 00 00
 0.117891 1  204             Rx   d 8 00 00 FF 00 00 00 00 00
 0.118091 1  42F             Rx   d 8 7D 02 05 4E 20 FF 00 00
 0.118289 1  43D             Rx   d 8 14 00 21 00 00 00 00 00
 0.118590 1  43E             Rx   d 8 00 00 00 00 00 00 00 00
 0.122189 1  41              Rx   d 8 00 00 00 00 00 00 00 00
 0.124981 1  7DF             Rx   d 8 02 01 0B 00 00 00 00 00
 0.128149 1  47              Rx   d 8 64 22 BC F4 3B 98 00 00
 0.128205 1  165             Rx   d 8 20 81 00 00 00 00 00 00
 0.128217 1  167             Rx   d 8 00 FF FF 00 00 02 0E 00
 0.128224 1  200             Rx   d 8 00 00 80 26 80 26 F0 00
 0.128610 1  202             Rx   d 8 00 CC 00 00 00 00 00 00
 0.128633 1  204             Rx   d 8 00 00 FF 00 00 00 00 00
 0.128916 1  230             Rx   d 8 F0 1C 00 00 00 00 00 00
 0.137882 1  167             Rx   d 8 00 FF FF 00 00 02 0E 00
 0.137950 1  204             Rx   d 8 00 00 FF 00 00 00 00 00
 0.142215 1  41              Rx   d 8 00 00 00 00 00 00 00 00
 0.142293 1  242             Rx   d 8 FF FF 3F FF B6 00 03 01
 0.142581 1  331             Rx   d 8 C0 00 48 BA 02 00 00 00
 0.147383 1  47              Rx   d 8 64 22 BC F4 3B 98 00 00
 0.147780 1  165             Rx   d 8 20 81 00 00 00 00 00 00
 0.147800 1  167             Rx   d 8 00 FF FF 00 00 02 0E 00
 0.148085 1  171             Rx   d 8 F0 E0 00 00 00 00 00 00
 0.148266 1  200             Rx   d 8 00 00 80 26 80 26 F0 00
 0.148520 1  202             Rx   d 8 00 CC 00 00 00 00 00 00
 0.148795 1  204             Rx   d 8 00 00 FF 00 00 00 00 00
 0.149020 1  230             Rx   d 8 F0 1C 00 00 00 00 00 00
 0.149284 1  42F             Rx   d 8 7D 02 05 4E 20 FF 00 00
 0.150658 1  7E8             Rx   d 8 03 41 0B FF 00 00 00 00
 0.151080 1  42C             Rx   d 8 80 02 00 00 00 00 00 00
 0.157699 1  167             Rx   d 8 00 FF FF 00 00 02 0E 00
 0.157749 1  204             Rx   d 8 00 00 FF 00 00 00 00 00
 0.161684 1  41              Rx   d 8 00 00 00 00 00 00 00 00
 0.168663 1  47              Rx   d 8 64 22 BC F4 3B 98 00 00
 0.168730 1  156             Rx   d 8 BA 00 00 00 00 00 00 00
 0.168743 1  165             Rx   d 8 20 81 00 00 00 00 00 00
 0.168750 1  166             Rx   d 8 76 00 00 FF FF FF 00 00
 0.168754 1  167             Rx   d 8 00 FF FF 00 00 02 0E 00
 0.168759 1  178             Rx   d 8 00 00 02 00 02 54 C6 53
 0.170564 1  179             Rx   d 8 00 00 08 00 22 FF 00 00
 0.170638 1  17C             Rx   d 8 00 00 00 00 00 00 00 00
 0.170646 1  200             Rx   d 8 00 00 80 26 80 26 F0 00
 0.170649 1  202             Rx   d 8 00 CC 00 00 00 00 00 00
 0.170651 1  204             Rx   d 8 00 00 FF 00 00 00 00 00
 0.170654 1  230             Rx   d 8 F0 1C 00 00 00 00 00 00
 0.170657 1  421             Rx   d 8 04 00 11 00 00 00 FF 00
 0.170662 1  424             Rx   d 8 00 00 00 03 00 00 00 00
 0.171442 1  42D             Rx   d 8 00 03 FF 00 00 00 F0 00
 0.171482 1  43D             Rx   d 8 14 00 21 00 00 00 00 00
 0.171489 1  43E             Rx   d 8 00 00 00 00 00 00 00 00
 0.176332 1  59E             Rx   d 8 9E 00 FF FF FF FF FF FF
 0.177357 1  167             Rx   d 8 00 FF FF 00 00 02 0E 00
 0.177576 1  171             Rx   d 8 F0 E0 00 00 00 00 00 00
 0.177780 1  204             Rx   d 8 00 00 FF 00 00 00 00 00
 0.178029 1  42F             Rx   d 8 7D 02 05 4E 20 FF 00 00
 0.181767 1  41              Rx   d 8 00 00 00 00 00 00 00 00
 0.181802 1  242             Rx   d 8 FF FF 3F FF B6 00 03 01
 0.187556 1  23A             Rx   d 8 FF FF FF FF F0 00 00 00
 0.187614 1  2F1             Rx   d 8 00 00 00 00 00 00 00 00
 0.187624 1  47              Rx   d 8 64 22 BC F4 3B 98 00 00
 0.188469 1  165             Rx   d 8 20 81 00 00 00 00 00 00
 0.188517 1  167             Rx   d 8 00 FF FF 00 00 02 0E 00
 0.188522 1  200             Rx   d 8 00 00 80 26 80 26 F0 00
 0.188529 1  202             Rx   d 8 00 CC 00 00 00 00 00 00
 0.189001 1  204             Rx   d 8 00 00 FF 00 00 00 00 00
 0.189019 1  230             Rx   d 8 F0 1C 00 00 00 00 00 00
 0.189536 1  386             Rx   d 8 00 00 00 00 00 00 00 00
 0.189564 1  430             Rx   d 8 00 00 00 00 FE 00 00 00
 0.189912 1  434             Rx   d 8 00 00 00 00 0F FF 00 10
 0.189927 1  435             Rx   d 8 00 00 00 00 00 00 00 00
 0.190226 1  437             Rx   d 8 00 00 00 00 00 00 00 00
 0.190442 1  438             Rx   d 8 00 00 00 00 00 00 00 00
 0.190757 1  439             Rx   d 8 00 00 04 00 04 00 00 00
 0.190991 1  43A             Rx   d 8 00 00 00 00 00 00 00 00
 0.197686 1  167             Rx   d 8 00 FF FF 00 00 02 0E 00
 0.197736 1  204             Rx   d 8 00 00 FF 00 00 00 00 00
 0.199314 1  18B             Rx   d 8 00 00 00 1E 00 00 00 00
 0.199379 1  19A             Rx   d 8 00 00 00 02 40 00 00 00
 0.200505 1  220             Rx   d 8 10 01 00 00 00 00 00 00
 0.200547 1  225             Rx   d 8 A0 81 00 00 00 00 00 00
 0.200553 1  287             Rx   d 8 00 00 00 00 00 00 00 00
 0.200558 1  2F4             Rx   d 8 10 01 00 00 00 00 00 00
 0.200561 1  2FD             Rx   d 8 09 00 00 04 FC 00 00 00
 0.200948 1  30A             Rx   d 8 85 00 00 00 00 00 00 00
 0.200963 1  315             Rx   d 8 00 00 00 00 00 00 00 00
 0.201283 1  318             Rx   d 8 00 00 00 00 00 00 00 00
 0.201486 1  41              Rx   d 8 00 00 00 00 00 00 00 00
 0.201776 1  346             Rx   d 8 00 00 00 03 03 00 C0 00
 0.201959 1  42C             Rx   d 8 80 02 00 00 00 00 00 00
 0.202273 1  348             Rx   d 8 00 00 00 01 00 00 00 00
 0.202540 1  350             Rx   d 8 00 00 00 00 00 00 00 00
 0.202739 1  353             Rx   d 8 00 00 00 00 00 00 00 00
 0.203005 1  3C8             Rx   d 8 00 00 00 EC 00 00 00 00
 0.203272 1  3E0             Rx   d 8 00 00 00 00 80 00 00 00
 0.203535 1  3FB             Rx   d 8 00 01 09 02 04 00 00 00
 0.203783 1  430             Rx   d 8 C8 00 40 9B 00 00 64 00
 0.204015 1  434             Rx   d 8 40 00 70 00 20 4D 28 00
 0.208315 1  47              Rx   d 8 64 22 BC F4 3B 98 00 00
 0.208369 1  165             Rx   d 8 20 81 00 00 00 00 00 00
 0.208375 1  167             Rx   d 8 00 FF FF 00 00 02 0E 00
 0.208382 1  171             Rx   d 8 F0 E0 00 00 00 00 00 00
 0.208385 1  200             Rx   d 8 00 00 80 26 80 26 F0 00
 0.208774 1  202             Rx   d 8 00 CC 00 00 00 00 00 00
 0.208787 1  204             Rx   d 8 00 00 FF 00 00 00 00 00
 0.209049 1  230             Rx   d 8 F0 1C 00 00 00 00 00 00
 0.209328 1  42F             Rx   d 8 7D 02 05 4E 20 FF 00 00
 0.213855 1  7DF             Rx   d 8 02 01 10 00 00 00 00 00
 0.217530 1  167             Rx   d 8 00 FF FF 00 00 02 0E 00
 0.217568 1  204             Rx   d 8 00 00 FF 00 00 00 00 00
 0.217864 1  43D             Rx   d 8 14 00 21 00 00 00 00 00
 0.218086 1  43E             Rx   d 8 00 00 00 00 00 00 00 00
 0.221042 1  41              Rx   d 8 00 00 00 00 00 00 00 00
 0.221096 1  242             Rx   d 8 FF FF 3F FF B6 00 03 01
 0.227852 1  47              Rx   d 8 64 22 BC F4 3B 98 00 00
 0.227891 1  165             Rx   d 8 20 81 00 00 00 00 00 00
 0.227897 1  167             Rx   d 8 00 FF FF 00 00 02 0E 00
 0.228269 1  200             Rx   d 8 00 00 80 26 80 26 F0 00
 0.228287 1  202             Rx   d 8 00 CC 00 00 00 00 00 00
 0.228904 1  204             Rx   d 8 00 00 FF 00 00 00 00 00
 0.228950 1  230             Rx   d 8 F0 1C 00 00 00 00 00 00
 0.237389 1  167             Rx   d 8 00 FF FF 00 00 02 0E 00
 0.237560 1  171             Rx   d 8 F0 E0 00 00 00 00 00 00
 0.237773 1  204             Rx   d 8 00 00 FF 00 00 00 00 00
 0.238004 1  42F             Rx   d 8 7D 02 05 4E 20 FF 00 00
 0.239980 1  41              Rx   d 8 00 00 00 00 00 00 00 00
 0.247560 1  47              Rx   d 8 64 22 BC F4 3B 98 00 00
 0.247598 1  165             Rx   d 8 20 81 00 00 00 00 00 00
 0.247857 1  167             Rx   d 8 00 FF FF 00 00 02 0E 00
 0.248249 1  200             Rx   d 8 00 00 80 26 80 26 F0 00
 0.248267 1  202             Rx   d 8 00 CC 00 00 00 00 00 00
 0.248616 1  204             Rx   d 8 00 00 FF 00 00 00 00 00
 0.248953 1  230             Rx   d 8 F0 1C 00 00 00 00 00 00
 0.249333 1  591             Rx   d 8 91 00 FF FF FF FF FF FF
 0.249363 1  3B6             Rx   d 8 0E 00 00 00 00 00 00 00
 0.249694 1  3B7             Rx   d 8 00 00 00 00 00 00 00 00
 0.249959 1  42C             Rx   d 8 80 02 00 00 00 00 00 00
 0.257809 1  167             Rx   d 8 00 FF FF 00 00 02 0E 00
 0.257874 1  204             Rx   d 8 00 00 FF 00 00 00 00 00
 0.260283 1  41              Rx   d 8 00 00 00 00 00 00 00 00
 0.260342 1  242             Rx   d 8 FF FF 3F FF B6 00 03 01
 0.267397 1  47              Rx   d 8 64 22 BC F4 3B 98 00 00
 0.267616 1  156             Rx   d 8 BA 00 00 00 00 00 00 00
 0.267780 1  165             Rx   d 8 20 81 00 00 00 00 00 00
 0.268019 1  166             Rx   d 8 76 00 00 FF FF FF 00 00
 0.268243 1  167             Rx   d 8 00 FF FF 00 00 02 0E 00
 0.268508 1  171             Rx   d 8 F0 E0 00 00 00 00 00 00
 0.268734 1  178             Rx   d 8 00 00 02 00 02 54 C6 53
 0.268990 1  179             Rx   d 8 00 00 08 00 22 FF 00 00
 0.269257 1  17C             Rx   d 8 00 00 00 00 00 00 00 00
 0.269495 1  200             Rx   d 8 00 00 80 26 80 26 F0 00
 0.269747 1  202             Rx   d 8 00 CC 00 00 00 00 00 00
 0.269994 1  204             Rx   d 8 00 00 FF 00 00 00 00 00
 0.270235 1  230             Rx   d 8 F0 1C 00 00 00 00 00 00
 0.270497 1  421             Rx   d 8 04 00 11 00 00 00 FF 00
 0.270717 1  424             Rx   d 8 00 00 00 03 00 00 00 00
 0.270996 1  42D             Rx   d 8 00 03 FF 00 00 00 F0 00
 0.271248 1  42F             Rx   d 8 7D 02 05 4E 20 FF 00 00
 0.271514 1  43D             Rx   d 8 14 00 21 00 00 00 00 00
 0.271736 1  43E             Rx   d 8 00 00 00 00 00 00 00 00
 0.271954 1  595             Rx   d 8 95 00 FF FF FF FF FF FF
 0.277394 1  167             Rx   d 8 00 FF FF 00 00 02 0E 00
 0.277598 1  204             Rx   d 8 00 00 FF 00 00 00 00 00
 0.279690 1  41              Rx   d 8 00 00 00 00 00 00 00 00
 0.287271 1  23A             Rx   d 8 FF FF FF FF F0 00 00 00
 0.287345 1  430             Rx   d 8 00 00 00 00 FE 00 00 00
 0.287366 1  434             Rx   d 8 00 00 00 00 0F FF 00 10
 0.288458 1  47              Rx   d 8 64 22 BC F4 3B 98 00 00
 0.288512 1  165             Rx   d 8 20 81 00 00 00 00 00 00
 0.288517 1  167             Rx   d 8 00 FF FF 00 00 02 0E 00
 0.288520 1  200             Rx   d 8 00 00 80 26 80 26 F0 00
 0.288523 1  202             Rx   d 8 00 CC 00 00 00 00 00 00
 0.288789 1  204             Rx   d 8 00 00 FF 00 00 00 00 00
 0.288970 1  230             Rx   d 8 F0 1C 00 00 00 00 00 00
 0.289229 1  435             Rx   d 8 00 00 00 00 00 00 00 00
 0.297572 1  167             Rx   d 8 00 FF FF 00 00 02 0E 00
 0.297605 1  171             Rx   d 8 F0 E0 00 00 00 00 00 00
 0.297841 1  204             Rx   d 8 00 00 FF 00 00 00 00 00
 0.298046 1  42F             Rx   d 8 7D 02 05 4E 20 FF 00 00
 0.299001 1  318             Rx   d 8 00 00 00 00 00 00 00 00
 0.299214 1  346             Rx   d 8 00 00 00 03 03 00 C0 00
 0.299498 1  348             Rx   d 8 00 00 00 01 00 00 00 00
 0.299722 1  41              Rx   d 8 00 00 00 00 00 00 00 00
 0.299990 1  242             Rx   d 8 FF FF 3F FF B6 00 03 01
 0.300206 1  40A             Rx   d 8 C1 02 32 38 38 33 36 00
 0.300446 1  430             Rx   d 8 C8 00 40 9B 00 00 64 00
 0.300699 1  42C             Rx   d 8 80 02 00 00 00 00 00 00
 0.300936 1  434             Rx   d 8 40 00 70 00 20 4D 28 00
 0.307387 1  47              Rx   d 8 64 22 BC F4 3B 98 00 00
 0.307581 1  165             Rx   d 8 20 81 00 00 00 00 00 00
 0.307784 1  167             Rx   d 8 00 FF FF 00 00 02 0E 00
 0.308043 1  200             Rx   d 8 00 00 80 26 80 26 F0 00
 0.308278 1  202             Rx   d 8 00 CC 00 00 00 00 00 00
 0.308547 1  204             Rx   d 8 00 00 FF 00 00 00 00 00
 0.308783 1  230             Rx   d 8 F0 1C 00 00 00 00 00 00
 0.317657 1  167             Rx   d 8 00 FF FF 00 00 02 0E 00
 0.317718 1  204             Rx   d 8 00 00 FF 00 00 00 00 00
 0.318123 1  43D             Rx   d 8 14 00 21 00 00 00 00 00
 0.318158 1  43E             Rx   d 8 00 00 00 00 00 00 00 00
 0.318755 1  41              Rx   d 8 00 00 00 00 00 00 00 00
 0.327526 1  47              Rx   d 8 64 22 BC F4 3B 98 00 00
 0.327558 1  165             Rx   d 8 20 81 00 00 00 00 00 00
 0.327818 1  167             Rx   d 8 00 FF FF 00 00 02 0E 00
 0.328055 1  171             Rx   d 8 F0 E0 00 00 00 00 00 00
 0.328277 1  200             Rx   d 8 00 00 80 26 80 26 F0 00
 0.328516 1  202             Rx   d 8 00 CC 00 00 00 00 00 00
 0.328758 1  204             Rx   d 8 00 00 FF 00 00 00 00 00
 0.329027 1  230             Rx   d 8 F0 1C 00 00 00 00 00 00
 0.329278 1  42F             Rx   d 8 7D 02 05 4E 20 FF 00 00
 0.337365 1  167             Rx   d 8 00 FF FF 00 00 02 0E 00
 0.337572 1  204             Rx   d 8 00 00 FF 00 00 00 00 00
 0.338532 1  41              Rx   d 8 00 00 00 00 00 00 00 00
 0.338751 1  242             Rx   d 8 FF FF 3F FF B6 00 03 01
 0.347348 1  47              Rx   d 8 64 22 BC F4 3B 98 00 00
 0.347525 1  165             Rx   d 8 20 81 00 00 00 00 00 00
 0.347767 1  167             Rx   d 8 00 FF FF 00 00 02 0E 00
 0.348015 1  200             Rx   d 8 00 00 80 26 80 26 F0 00
 0.348275 1  202             Rx   d 8 00 CC 00 00 00 00 00 00
 0.348522 1  204             Rx   d 8 00 00 FF 00 00 00 00 00
 0.348744 1  230             Rx   d 8 F0 1C 00 00 00 00 00 00
 0.349012 1  42C             Rx   d 8 80 02 00 00 00 00 00 00
 0.357570 1  167             Rx   d 8 00 FF FF 00 00 02 0E 00
 0.357611 1  171             Rx   d 8 F0 E0 00 00 00 00 00 00
 0.357849 1  41              Rx   d 8 00 00 00 00 00 00 00 00
 0.358137 1  204             Rx   d 8 00 00 FF 00 00 00 00 00
 0.358438 1  42F             Rx   d 8 7D 02 05 4E 20 FF 00 00
 0.367507 1  47              Rx   d 8 64 22 BC F4 3B 98 00 00
 0.367538 1  156             Rx   d 8 BA 00 00 00 00 00 00 00
 0.368088 1  165             Rx   d 8 20 81 00 00 00 00 00 00
 0.368124 1  166             Rx   d 8 76 00 00 FF FF FF 00 00
 0.368621 1  167             Rx   d 8 00 FF FF 00 00 02 0E 00
 0.368650 1  178             Rx   d 8 00 00 02 00 02 54 C6 53
 0.369274 1  179             Rx   d 8 00 00 08 00 22 FF 00 00
 0.369305 1  17C             Rx   d 8 00 00 00 00 00 00 00 00
 0.369315 1  200             Rx   d 8 00 00 80 26 80 26 F0 00
 0.370020 1  202             Rx   d 8 00 CC 00 00 00 00 00 00
 0.370058 1  204             Rx   d 8 00 00 FF 00 00 00 00 00
 0.370064 1  230             Rx   d 8 F0 1C 00 00 00 00 00 00
 0.370550 1  421             Rx   d 8 04 00 11 00 00 00 FF 00
 0.370574 1  424             Rx   d 8 00 00 00 03 00 00 00 00
 0.370803 1  42D             Rx   d 8 00 03 FF 00 00 00 F0 00
 0.371071 1  43D             Rx   d 8 14 00 21 00 00 00 00 00
 0.371245 1  43E             Rx   d 8 00 00 00 00 00 00 00 00
 0.377378 1  167             Rx   d 8 00 FF FF 00 00 02 0E 00
 0.377561 1  204             Rx   d 8 00 00 FF 00 00 00 00 00
 0.378166 1  41              Rx   d 8 00 00 00 00 00 00 00 00
 0.378349 1  242             Rx   d 8 FF FF 3F FF B6 00 03 01
 0.386862 1  23A             Rx   d 8 FF FF FF FF F0 00 00 00
 0.387046 1  84              Rx   d 8 00 00 00 01 01 29 0C 00
 0.387250 1  430             Rx   d 8 00 00 00 00 FE 00 00 00
 0.387485 1  47              Rx   d 8 64 22 BC F4 3B 98 00 00
 0.387724 1  165             Rx   d 8 20 81 00 00 00 00 00 00
 0.388008 1  167             Rx   d 8 00 FF FF 00 00 02 0E 00
 0.388272 1  171             Rx   d 8 F0 E0 00 00 00 00 00 00
 0.388489 1  200             Rx   d 8 00 00 80 26 80 26 F0 00
 0.388739 1  202             Rx   d 8 00 CC 00 00 00 00 00 00
 0.388992 1  204             Rx   d 8 00 00 FF 00 00 00 00 00
 0.389245 1  230             Rx   d 8 F0 1C 00 00 00 00 00 00
 0.389469 1  42F             Rx   d 8 7D 02 05 4E 20 FF 00 00
 0.389735 1  434             Rx   d 8 00 00 00 00 0F FF 00 10
 0.390025 1  435             Rx   d 8 00 00 00 00 00 00 00 00
 0.397624 1  167             Rx   d 8 00 FF FF 00 00 02 0E 00
 0.397682 1  204             Rx   d 8 00 00 FF 00 00 00 00 00
 0.398269 1  41              Rx   d 8 00 00 00 00 00 00 00 00
 0.398316 1  42C             Rx   d 8 80 02 00 00 00 00 00 00
 0.399293 1  287             Rx   d 8 00 00 00 00 00 00 00 00
 0.399337 1  30A             Rx   d 8 85 00 00 00 00 00 00 00
 0.399822 1  318             Rx   d 8 00 00 00 00 00 00 00 00
 0.399842 1  346             Rx   d 8 00 00 00 03 03 00 C0 00
 0.400076 1  348             Rx   d 8 00 00 00 01 00 00 00 00
 0.400306 1  430             Rx   d 8 C8 00 40 9B 00 00 64 00
 0.400565 1  434             Rx   d 8 40 00 70 00 20 4D 28 00
 0.407662 1  47              Rx   d 8 64 22 BC F4 3B 98 00 00
 0.407719 1  165             Rx   d 8 20 81 00 00 00 00 00 00
 0.408109 1  167             Rx   d 8 00 FF FF 00 00 02 0E 00
 0.408130 1  200             Rx   d 8 00 00 80 26 80 26 F0 00
 0.408385 1  202             Rx   d 8 00 CC 00 00 00 00 00 00
 0.408855 1  204             Rx   d 8 00 00 FF 00 00 00 00 00
 0.408873 1  230             Rx   d 8 F0 1C 00 00 00 00 00 00
 0.417315 1  41              Rx   d 8 00 00 00 00 00 00 00 00
 0.417342 1  167             Rx   d 8 00 FF FF 00 00 02 0E 00
 0.417656 1  171             Rx   d 8 F0 E0 00 00 00 00 00 00
 0.417864 1  204             Rx   d 8 00 00 FF 00 00 00 00 00
 0.418117 1  242             Rx   d 8 FF FF 3F FF B6 00 03 01
 0.418359 1  42F             Rx   d 8 7D 02 05 4E 20 FF 00 00
 0.418617 1  43D             Rx   d 8 14 00 21 00 00 00 00 00
 0.418840 1  43E             Rx   d 8 00 00 00 00 00 00 00 00
 0.427547 1  47              Rx   d 8 64 22 BC F4 3B 98 00 00
 0.427584 1  165             Rx   d 8 20 81 00 00 00 00 00 00
 0.427831 1  167             Rx   d 8 00 FF FF 00 00 02 0E 00
 0.428061 1  200             Rx   d 8 00 00 80 26 80 26 F0 00
 0.428365 1  202             Rx   d 8 00 CC 00 00 00 00 00 00
 0.428849 1  204             Rx   d 8 00 00 FF 00 00 00 00 00
 0.428878 1  230             Rx   d 8 F0 1C 00 00 00 00 00 00
 0.429143 1  7DF             Rx   d 8 02 01 03 00 00 00 00 00
 0.436785 1  41              Rx   d 8 00 00 00 00 00 00 00 00
 0.437533 1  167             Rx   d 8 00 FF FF 00 00 02 0E 00
 0.437554 1  204             Rx   d 8 00 00 FF 00 00 00 00 00
 0.445953 1  42C             Rx   d 8 80 02 00 00 00 00 00 00
 0.447306 1  47              Rx   d 8 64 22 BC F4 3B 98 00 00
 0.447522 1  165             Rx   d 8 20 81 00 00 00 00 00 00
 0.447767 1  167             Rx   d 8 00 FF FF 00 00 02 0E 00
 0.448014 1  171             Rx   d 8 F0 E0 00 00 00 00 00 00
 0.448235 1  200             Rx   d 8 00 00 80 26 80 26 F0 00
 0.448488 1  202             Rx   d 8 00 CC 00 00 00 00 00 00
 0.448737 1  204             Rx   d 8 00 00 FF 00 00 00 00 00
 0.448980 1  230             Rx   d 8 F0 1C 00 00 00 00 00 00
 0.449214 1  42F             Rx   d 8 7D 02 05 4E 20 FF 00 00
 0.450556 1  7E8             Rx   d 8 04 41 03 01 00 00 00 00
 0.456906 1  41              Rx   d 8 00 00 00 00 00 00 00 00
 0.456938 1  242             Rx   d 8 FF FF 3F FF B6 00 03 01
 0.457355 1  167             Rx   d 8 00 FF FF 00 00 02 0E 00
 0.457551 1  204             Rx   d 8 00 00 FF 00 00 00 00 00
 0.467894 1  47              Rx   d 8 64 22 BC F4 3B 98 00 00
 0.467943 1  156             Rx   d 8 BA 00 00 00 00 00 00 00
 0.467952 1  165             Rx   d 8 20 81 00 00 00 00 00 00
 0.468328 1  166             Rx   d 8 76 00 00 FF FF FF 00 00
 0.468344 1  167             Rx   d 8 00 FF FF 00 00 02 0E 00
 0.468519 1  178             Rx   d 8 00 00 02 00 02 54 C6 53
 0.468763 1  179             Rx   d 8 00 00 08 00 22 FF 00 00
 0.469003 1  17C             Rx   d 8 00 00 00 00 00 00 00 00
 0.469234 1  200             Rx   d 8 00 00 80 26 80 26 F0 00
 0.469550 1  202             Rx   d 8 00 CC 00 00 00 00 00 00
 0.469852 1  204             Rx   d 8 00 00 FF 00 00 00 00 00
 0.470071 1  230             Rx   d 8 F0 1C 00 00 00 00 00 00
 0.470462 1  421             Rx   d 8 04 00 11 00 00 00 FF 00
 0.470492 1  424             Rx   d 8 00 00 00 03 00 00 00 00
 0.470810 1  42D             Rx   d 8 00 03 FF 00 00 00 F0 00
 0.471020 1  43D             Rx   d 8 14 00 21 00 00 00 00 00
 0.471313 1  43E             Rx   d 8 00 00 00 00 00 00 00 00
 0.476269 1  41              Rx   d 8 00 00 00 00 00 00 00 00
 0.477534 1  167             Rx   d 8 00 FF FF 00 00 02 0E 00
 0.477566 1  171             Rx   d 8 F0 E0 00 00 00 00 00 00
 0.477854 1  204             Rx   d 8 00 00 FF 00 00 00 00 00
 0.478167 1  42F             Rx   d 8 7D 02 05 4E 20 FF 00 00
 0.482151 1  581             Rx   d 8 81 00 FF FF FF FF FF FF
 0.486901 1  23A             Rx   d 8 FF FF FF FF F0 00 00 00
 0.487072 1  430             Rx   d 8 00 00 00 00 FE 00 00 00
 0.487311 1  47              Rx   d 8 64 22 BC F4 3B 98 00 00
 0.487579 1  165             Rx   d 8 20 81 00 00 00 00 00 00
 0.487801 1  167             Rx   d 8 00 FF FF 00 00 02 0E 00
 0.488046 1  200             Rx   d 8 00 00 80 26 80 26 F0 00
 0.488317 1  202             Rx   d 8 00 CC 00 00 00 00 00 00
 0.488583 1  204             Rx   d 8 00 00 FF 00 00 00 00 00
 0.488797 1  230             Rx   d 8 F0 1C 00 00 00 00 00 00
 0.489037 1  434             Rx   d 8 00 00 00 00 0F FF 00 10
 0.489284 1  435             Rx   d 8 00 00 00 00 00 00 00 00
 0.496291 1  41              Rx   d 8 00 00 00 00 00 00 00 00
 0.496470 1  242             Rx   d 8 FF FF 3F FF B6 00 03 01
 0.496699 1  38D             Rx   d 8 20 00 00 00 00 00 00 F0
 0.496934 1  3B1             Rx   d 8 00 00 00 00 00 00 00 00
 0.497220 1  3B6             Rx   d 8 0E 00 00 00 00 00 00 00
 0.497445 1  167             Rx   d 8 00 FF FF 00 00 02 0E 00
 0.497694 1  204             Rx   d 8 00 00 FF 00 00 00 00 00
 0.497930 1  3B7             Rx   d 8 00 00 00 00 00 00 00 00
 0.498219 1  3B8             Rx   d 8 FF FF FF FF 00 00 00 00
 0.498450 1  3E3             Rx   d 8 00 01 04 11 80 00 00 00
 0.498697 1  3EB             Rx   d 8 00 04 04 00 00 00 00 00
 0.498934 1  40A             Rx   d 8 C1 04 01 8A 07 54 85 41
 0.499192 1  318             Rx   d 8 00 00 00 00 00 00 00 00
 0.499433 1  42C             Rx   d 8 80 02 00 00 00 00 00 00
 0.499701 1  346             Rx   d 8 00 00 00 03 03 00 C0 00
 0.499936 1  43C             Rx   d 8 B2 00 4B 2C 3C 99 88 14
 0.500198 1  348             Rx   d 8 00 00 00 01 00 00 00 00
 0.500428 1  447             Rx   d 8 20 00 00 4B 00 20 00 00
 0.500663 1  430             Rx   d 8 C8 00 40 9B 00 00 64 00
 0.500918 1  434             Rx   d 8 40 00 70 00 20 4D 28 00
 0.507569 1  47              Rx   d 8 64 22 BC F4 3B 98 00 00
 0.507612 1  165             Rx   d 8 20 81 00 00 00 00 00 00
 0.507878 1  167             Rx   d 8 00 FF FF 00 00 02 0E 00
 0.508356 1  171             Rx   d 8 F0 E0 00 00 00 00 00 00
 0.508375 1  200             Rx   d 8 00 00 80 26 80 26 F0 00
 0.508613 1  202             Rx   d 8 00 CC 00 00 00 00 00 00
 0.508835 1  204             Rx   d 8 00 00 FF 00 00 00 00 00
 0.509037 1  230             Rx   d 8 F0 1C 00 00 00 00 00 00
 0.509304 1  42F             Rx   d 8 7D 02 05 4E 20 FF 00 00
 0.515432 1  41              Rx   d 8 00 00 00 00 00 00 00 00
 0.517039 1  7DF             Rx   d 8 02 01 03 00 00 00 00 00
 0.517896 1  167             Rx   d 8 00 FF FF 00 00 02 0E 00
 0.517928 1  204             Rx   d 8 00 00 FF 00 00 00 00 00
 0.517935 1  43D             Rx   d 8 14 00 21 00 00 00 00 00
 0.518277 1  43E             Rx   d 8 00 00 00 00 00 00 00 00
 0.527513 1  47              Rx   d 8 64 22 BC F4 3B 98 00 00
 0.527545 1  165             Rx   d 8 20 81 00 00 00 00 00 00
 0.527816 1  167             Rx   d 8 00 FF FF 00 00 02 0E 00
 0.528027 1  200             Rx   d 8 00 00 80 26 80 26 F0 00
 0.528270 1  202             Rx   d 8 00 CC 00 00 00 00 00 00
 0.528552 1  204             Rx   d 8 00 00 FF 00 00 00 00 00
 0.528752 1  230             Rx   d 8 F0 1C 00 00 00 00 00 00
 0.535146 1  41              Rx   d 8 00 00 00 00 00 00 00 00
 0.535323 1  242             Rx   d 8 FF FF 3F FF B6 00 03 01
 0.537387 1  167             Rx   d 8 00 FF FF 00 00 02 0E 00
 0.537578 1  171             Rx   d 8 F0 E0 00 00 00 00 00 00
 0.537808 1  204             Rx   d 8 00 00 FF 00 00 00 00 00
 0.538043 1  42F             Rx   d 8 7D 02 05 4E 20 FF 00 00
 0.540652 1  7E8             Rx   d 8 04 41 03 01 00 00 00 00
 0.544331 1  3B4             Rx   d 8 34 21 11 FF 1E 1A 00 00
 0.544403 1  42C             Rx   d 8 80 02 00 00 00 00 00 00
 0.548137 1  47              Rx   d 8 64 22 BC F4 3B 98 00 00
 0.548183 1  165             Rx   d 8 20 81 00 00 00 00 00 00
 0.548191 1  167             Rx   d 8 00 FF FF 00 00 02 0E 00
 0.548193 1  200             Rx   d 8 00 00 80 26 80 26 F0 00
 0.548561 1  202             Rx   d 8 00 CC 00 00 00 00 00 00
 0.548578 1  204             Rx   d 8 00 00 FF 00 00 00 00 00
 0.548782 1  230             Rx   d 8 F0 1C 00 00 00 00 00 00
 0.554909 1  41              Rx   d 8 00 00 00 00 00 00 00 00
 0.554962 1  3B5             Rx   d 8 FF FD FF FD FF FD FF FD
 0.557584 1  167             Rx   d 8 00 FF FF 00 00 02 0E 00
 0.557617 1  204             Rx   d 8 00 00 FF 00 00 00 00 00
 0.567406 1  47              Rx   d 8 64 22 BC F4 3B 98 00 00
 0.567724 1  156             Rx   d 8 BA 00 00 00 00 00 00 00
 0.567737 1  165             Rx   d 8 20 81 00 00 00 00 00 00
 0.568033 1  166             Rx   d 8 76 00 00 FF FF FF 00 00
 0.568260 1  167             Rx   d 8 00 FF FF 00 00 02 0E 00
 0.568517 1  171             Rx   d 8 F0 E0 00 00 00 00 00 00
 0.568768 1  178             Rx   d 8 00 00 02 00 02 54 C6 53
 0.568998 1  179             Rx   d 8 00 00 08 00 22 FF 00 00
 0.569257 1  17C             Rx   d 8 00 00 00 00 00 00 00 00
 0.569474 1  200             Rx   d 8 00 00 80 26 80 26 F0 00
 0.569763 1  202             Rx   d 8 00 CC 00 00 00 00 00 00
 0.569966 1  204             Rx   d 8 00 00 FF 00 00 00 00 00
 0.570205 1  230             Rx   d 8 F0 1C 00 00 00 00 00 00
 0.570454 1  421             Rx   d 8 04 00 11 00 00 00 FF 00
 0.570697 1  424             Rx   d 8 00 00 00 03 00 00 00 00
 0.570953 1  42D             Rx   d 8 00 03 FF 00 00 00 F0 00
 0.571185 1  42F             Rx   d 8 7D 02 05 4E 20 FF 00 00
 0.571426 1  43D             Rx   d 8 14 00 21 00 00 00 00 00
 0.571680 1  43E             Rx   d 8 00 00 00 00 00 00 00 00
 0.574662 1  41              Rx   d 8 00 00 00 00 00 00 00 00
 0.574926 1  242             Rx   d 8 FF FF 3F FF B6 00 03 01
 0.575086 1  3C7             Rx   d 8 00 00 40 00 00 00 00 00
 0.577597 1  167             Rx   d 8 00 FF FF 00 00 02 0E 00
 0.577639 1  204             Rx   d 8 00 00 FF 00 00 00 00 00
 0.587170 1  23A             Rx   d 8 FF FF FF FF F0 00 00 00
 0.587210 1  430             Rx   d 8 00 00 00 00 FE 00 00 00
 0.587434 1  47              Rx   d 8 64 22 BC F4 3B 98 00 00
 0.587634 1  165             Rx   d 8 20 81 00 00 00 00 00 00
 0.587857 1  167             Rx   d 8 00 FF FF 00 00 02 0E 00
 0.588104 1  200             Rx   d 8 00 00 80 26 80 26 F0 00
 0.588337 1  202             Rx   d 8 00 CC 00 00 00 00 00 00
 0.588654 1  204             Rx   d 8 00 00 FF 00 00 00 00 00
 0.588880 1  230             Rx   d 8 F0 1C 00 00 00 00 00 00
 0.589087 1  434             Rx   d 8 00 00 00 00 0F FF 00 10
 0.589345 1  435             Rx   d 8 00 00 00 00 00 00 00 00
 0.594915 1  41              Rx   d 8 00 00 00 00 00 00 00 00
 0.594972 1  3B3             Rx   d 8 44 8C C0 0C E6 00 03 3E
 0.594980 1  3C3             Rx   d 8 5C 80 10 C1 01 00 00 00
 0.595213 1  42C             Rx   d 8 80 02 00 00 00 00 00 00
 0.597374 1  167             Rx   d 8 00 FF FF 00 00 02 0E 00
 0.597546 1  171             Rx   d 8 F0 E0 00 00 00 00 00 00
 0.597780 1  204             Rx   d 8 00 00 FF 00 00 00 00 00
 0.598028 1  42F             Rx   d 8 7D 02 05 4E 20 FF 00 00
 0.598957 1  287             Rx   d 8 00 00 00 00 00 00 00 00
 0.599171 1  30A             Rx   d 8 85 00 00 00 00 00 00 00
 0.599440 1  318             Rx   d 8 00 00 00 00 00 00 00 00
 0.599684 1  346             Rx   d 8 00 00 00 03 03 00 C0 00
 0.599986 1  348             Rx   d 8 00 00 00 01 00 00 00 00
 0.600234 1  430             Rx   d 8 C8 00 40 9B 00 00 64 00
 0.600463 1  434             Rx   d 8 40 00 70 00 20 4D 28 00
 0.607349 1  47              Rx   d 8 64 22 BC F4 3B 98 00 00
 0.607597 1  165             Rx   d 8 20 81 00 00 00 00 00 00
 0.607752 1  167             Rx   d 8 00 FF FF 00 00 02 0E 00
 0.607994 1  200             Rx   d 8 00 00 80 26 80 26 F0 00
 0.608238 1  202             Rx   d 8 00 CC 00 00 00 00 00 00
 0.608540 1  204             Rx   d 8 00 00 FF 00 00 00 00 00
 0.608735 1  230             Rx   d 8 F0 1C 00 00 00 00 00 00
 0.609828 1  7DF             Rx   d 8 02 01 11 00 00 00 00 00
 0.614136 1  41              Rx   d 8 00 00 00 00 00 00 00 00
 0.614176 1  242             Rx   d 8 FF FF 3F FF B6 00 03 01
 0.617555 1  167             Rx   d 8 00 FF FF 00 00 02 0E 00
 0.617597 1  204             Rx   d 8 00 00 FF 00 00 00 00 00
 0.617818 1  43D             Rx   d 8 14 00 21 00 00 00 00 00
 0.618046 1  43E             Rx   d 8 00 00 00 00 00 00 00 00
 0.628083 1  47              Rx   d 8 64 22 BC F4 3B 98 00 00
 0.628122 1  165             Rx   d 8 20 81 00 00 00 00 00 00
 0.628129 1  167             Rx   d 8 00 FF FF 00 00 02 0E 00
 0.628133 1  171             Rx   d 8 F0 E0 00 00 00 00 00 00
 0.629352 1  200             Rx   d 8 00 00 80 26 80 26 F0 00
 0.629390 1  202             Rx   d 8 00 CC 00 00 00 00 00 00
 0.629398 1  204             Rx   d 8 00 00 FF 00 00 00 00 00
 0.629403 1  230             Rx   d 8 F0 1C 00 00 00 00 00 00
 0.629406 1  42F             Rx   d 8 7D 02 05 4E 20 FF 00 00
 0.630751 1  7E8             Rx   d 8 03 41 11 FE 00 00 00 00
 0.633224 1  41              Rx   d 8 00 00 00 00 00 00 00 00
 0.637401 1  167             Rx   d 8 00 FF FF 00 00 02 0E 00
 0.637596 1  204             Rx   d 8 00 00 FF 00 00 00 00 00
 0.642537 1  42C             Rx   d 8 80 02 00 00 00 00 00 00
 0.647344 1  47              Rx   d 8 64 22 BC F4 3B 98 00 00
 0.647573 1  165             Rx   d 8 20 81 00 00 00 00 00 00
 0.647763 1  167             Rx   d 8 00 FF FF 00 00 02 0E 00
 0.647998 1  200             Rx   d 8 00 00 80 26 80 26 F0 00
 0.648241 1  202             Rx   d 8 00 CC 00 00 00 00 00 00
 0.648531 1  204             Rx   d 8 00 00 FF 00 00 00 00 00
 0.648781 1  230             Rx   d 8 F0 1C 00 00 00 00 00 00
 0.653379 1  41              Rx   d 8 00 00 00 00 00 00 00 00
 0.653422 1  242             Rx   d 8 FF FF 3F FF B6 00 03 01
 0.657656 1  167             Rx   d 8 00 FF FF 00 00 02 0E 00
 0.657704 1  171             Rx   d 8 F0 E0 00 00 00 00 00 00
 0.658077 1  204             Rx   d 8 00 00 FF 00 00 00 00 00
 0.658099 1  42F             Rx   d 8 7D 02 05 4E 20 FF 00 00
 0.667661 1  47              Rx   d 8 64 22 BC F4 3B 98 00 00
 0.667716 1  156             Rx   d 8 BA 00 00 00 00 00 00 00
 0.668121 1  165             Rx   d 8 20 81 00 00 00 00 00 00
 0.668150 1  166             Rx   d 8 76 00 00 FF FF FF 00 00
 0.668518 1  167             Rx   d 8 00 FF FF 00 00 02 0E 00
 0.668534 1  178             Rx   d 8 00 00 02 00 02 54 C6 53
 0.668818 1  179             Rx   d 8 00 00 08 00 22 FF 00 00
 0.669060 1  17C             Rx   d 8 00 00 00 00 00 00 00 00
 0.669240 1  200             Rx   d 8 00 00 80 26 80 26 F0 00
 0.669498 1  202             Rx   d 8 00 CC 00 00 00 00 00 00
 0.669719 1  204             Rx   d 8 00 00 FF 00 00 00 00 00
 0.669958 1  230             Rx   d 8 F0 1C 00 00 00 00 00 00
 0.670208 1  421             Rx   d 8 04 00 11 00 00 00 FF 00
 0.670474 1  424             Rx   d 8 00 00 00 03 00 00 00 00
 0.670701 1  42D             Rx   d 8 00 03 FF 00 00 00 F0 00
 0.670941 1  43D             Rx   d 8 14 00 21 00 00 00 00 00
 0.671197 1  43E             Rx   d 8 00 00 00 00 00 00 00 00
 0.672502 1  41              Rx   d 8 00 00 00 00 00 00 00 00
 0.677385 1  167             Rx   d 8 00 FF FF 00 00 02 0E 00
 0.677597 1  204             Rx   d 8 00 00 FF 00 00 00 00 00
 0.687052 1  23A             Rx   d 8 FF FF FF FF F0 00 00 00
 0.687258 1  430             Rx   d 8 00 00 00 00 FE 00 00 00
 0.687452 1  47              Rx   d 8 64 22 BC F4 3B 98 00 00
 0.687733 1  165             Rx   d 8 20 81 00 00 00 00 00 00
 0.687974 1  167             Rx   d 8 00 FF FF 00 00 02 0E 00
 0.688185 1  171             Rx   d 8 F0 E0 00 00 00 00 00 00
 0.688446 1  200             Rx   d 8 00 00 80 26 80 26 F0 00
 0.688720 1  202             Rx   d 8 00 CC 00 00 00 00 00 00
 0.688937 1  204             Rx   d 8 00 00 FF 00 00 00 00 00
 0.689210 1  230             Rx   d 8 F0 1C 00 00 00 00 00 00
 0.689694 1  42F             Rx   d 8 7D 02 05 4E 20 FF 00 00
 0.689732 1  434             Rx   d 8 00 00 00 00 0F FF 00 10
 0.689985 1  435             Rx   d 8 00 00 00 00 00 00 00 00
 0.692950 1  41              Rx   d 8 00 00 00 00 00 00 00 00
 0.692979 1  242             Rx   d 8 FF FF 3F FF B6 00 03 01
 0.693219 1  40A             Rx   d 8 C1 10 40 84 20 08 80 00
 0.693491 1  42C             Rx   d 8 80 02 00 00 00 00 00 00
 0.697362 1  7DF             Rx   d 8 02 01 0C 00 00 00 00 00
 0.697416 1  167             Rx   d 8 00 FF FF 00 00 02 0E 00
 0.697689 1  204             Rx   d 8 00 00 FF 00 00 00 00 00
 0.699253 1  318             Rx   d 8 00 00 00 00 00 00 00 00
 0.699278 1  346             Rx   d 8 00 00 00 03 03 00 C0 00
 0.699571 1  348             Rx   d 8 00 00 00 01 00 00 00 00
 0.699775 1  430             Rx   d 8 C8 00 40 9B 00 00 64 00
 0.700026 1  434             Rx   d 8 40 00 70 00 20 4D 28 00
 0.707489 1  47              Rx   d 8 64 22 BC F4 3B 98 00 00
 0.707516 1  165             Rx   d 8 20 81 00 00 00 00 00 00
 0.707797 1  167             Rx   d 8 00 FF FF 00 00 02 0E 00
 0.707998 1  200             Rx   d 8 00 00 80 26 80 26 F0 00
 0.708267 1  202             Rx   d 8 00 CC 00 00 00 00 00 00
 0.708491 1  204             Rx   d 8 00 00 FF 00 00 00 00 00
 0.708737 1  230             Rx   d 8 F0 1C 00 00 00 00 00 00
 0.711871 1  41              Rx   d 8 00 00 00 00 00 00 00 00
 0.717564 1  167             Rx   d 8 00 FF FF 00 00 02 0E 00
 0.717599 1  171             Rx   d 8 F0 E0 00 00 00 00 00 00
 0.717813 1  204             Rx   d 8 00 00 FF 00 00 00 00 00
 0.718055 1  42F             Rx   d 8 7D 02 05 4E 20 FF 00 00
 0.718282 1  43D             Rx   d 8 14 00 21 00 00 00 00 00
 0.718593 1  43E             Rx   d 8 00 00 00 00 00 00 00 00
 0.720543 1  7E8             Rx   d 8 04 41 0C 00 00 00 00 00
 0.727618 1  47              Rx   d 8 64 22 BC F4 3B 98 00 00
 0.727660 1  165             Rx   d 8 20 81 00 00 00 00 00 00
 0.728025 1  167             Rx   d 8 00 FF FF 00 00 02 0E 00
 0.728046 1  200             Rx   d 8 00 00 80 26 80 26 F0 00
 0.728345 1  202             Rx   d 8 00 CC 00 00 00 00 00 00
 0.728812 1  204             Rx   d 8 00 00 FF 00 00 00 00 00
 0.728838 1  230             Rx   d 8 F0 1C 00 00 00 00 00 00
 0.732046 1  41              Rx   d 8 00 00 00 00 00 00 00 00
 0.732084 1  242             Rx   d 8 FF FF 3F FF B6 00 03 01
 0.737546 1  167             Rx   d 8 00 FF FF 00 00 02 0E 00
 0.737574 1  204             Rx   d 8 00 00 FF 00 00 00 00 00
 0.741378 1  331             Rx   d 8 C0 00 48 BA 02 00 00 00
 0.741434 1  3B6             Rx   d 8 0E 00 00 00 00 00 00 00
 0.741439 1  3B7             Rx   d 8 00 00 00 00 00 00 00 00
 0.741804 1  42C             Rx   d 8 80 02 00 00 00 00 00 00
 0.747358 1  47              Rx   d 8 64 22 BC F4 3B 98 00 00
 0.747529 1  165             Rx   d 8 20 81 00 00 00 00 00 00
 0.747749 1  167             Rx   d 8 00 FF FF 00 00 02 0E 00
 0.747987 1  171             Rx   d 8 F0 E0 00 00 00 00 00 00
 0.748227 1  200             Rx   d 8 00 00 80 26 80 26 F0 00
 0.748478 1  202             Rx   d 8 00 CC 00 00 00 00 00 00
 0.748757 1  204             Rx   d 8 00 00 FF 00 00 00 00 00
 0.749006 1  230             Rx   d 8 F0 1C 00 00 00 00 00 00
 0.749253 1  42F             Rx   d 8 7D 02 05 4E 20 FF 00 00
 0.750901 1  41              Rx   d 8 00 00 00 00 00 00 00 00
 0.757361 1  167             Rx   d 8 00 FF FF 00 00 02 0E 00
 0.757529 1  204             Rx   d 8 00 00 FF 00 00 00 00 00
 0.767792 1  47              Rx   d 8 64 22 BC F4 3B 98 00 00
 0.767833 1  156             Rx   d 8 BA 00 00 00 00 00 00 00
 0.767838 1  165             Rx   d 8 20 81 00 00 00 00 00 00
 0.768091 1  166             Rx   d 8 76 00 00 FF FF FF 00 00
 0.768331 1  167             Rx   d 8 00 FF FF 00 00 02 0E 00
 0.768761 1  178             Rx   d 8 00 00 02 00 02 54 C6 53
 0.768782 1  179             Rx   d 8 00 00 08 00 22 FF 00 00
 0.769056 1  17C             Rx   d 8 00 00 00 00 00 00 00 00
 0.769313 1  200             Rx   d 8 00 00 80 26 80 26 F0 00
 0.769832 1  202             Rx   d 8 00 CC 00 00 00 00 00 00
 0.769861 1  204             Rx   d 8 00 00 FF 00 00 00 00 00
 0.770265 1  230             Rx   d 8 F0 1C 00 00 00 00 00 00
 0.770301 1  421             Rx   d 8 04 00 11 00 00 00 FF 00
 0.770857 1  424             Rx   d 8 00 00 00 03 00 00 00 00
 0.770902 1  42D             Rx   d 8 00 03 FF 00 00 00 F0 00
 0.771564 1  41              Rx   d 8 00 00 00 00 00 00 00 00
 0.771588 1  242             Rx   d 8 FF FF 3F FF B5 00 03 01
 0.771594 1  43D             Rx   d 8 14 00 21 00 00 00 00 00
 0.771842 1  43E             Rx   d 8 00 00 00 00 00 00 00 00
 0.777913 1  167             Rx   d 8 00 FF FF 00 00 02 0E 00
 0.777966 1  171             Rx   d 8 F0 E0 00 00 00 00 00 00
 0.777972 1  204             Rx   d 8 00 00 FF 00 00 00 00 00
 0.778276 1  42F             Rx   d 8 7D 02 05 4E 20 FF 00 00
 0.787065 1  23A             Rx   d 8 FF FF FF FF F0 00 00 00
 0.787264 1  430             Rx   d 8 00 00 00 00 FE 00 00 00
 0.787477 1  47              Rx   d 8 64 22 BC F4 3B 98 00 00
 0.787719 1  165             Rx   d 8 20 81 00 00 00 00 00 00
 0.787966 1  167             Rx   d 8 00 FF FF 00 00 02 0E 00
 0.788195 1  200             Rx   d 8 00 00 80 26 80 26 F0 00
 0.788459 1  202             Rx   d 8 00 CC 00 00 00 00 00 00
 0.788701 1  204             Rx   d 8 00 00 FF 00 00 00 00 00
 0.788923 1  230             Rx   d 8 F0 1C 00 00 00 00 00 00
 0.789176 1  434             Rx   d 8 00 00 00 00 0F FF 00 10
 0.789410 1  435             Rx   d 8 00 00 00 00 00 00 00 00
 0.789697 1  7DF             Rx   d 8 02 01 0D 00 00 00 00 00
 0.790809 1  41              Rx   d 8 00 00 00 00 00 00 00 00
 0.791048 1  42C             Rx   d 8 80 02 00 00 00 00 00 00
 0.797363 1  167             Rx   d 8 00 FF FF 00 00 02 0E 00
 0.797580 1  204             Rx   d 8 00 00 FF 00 00 00 00 00
 0.798981 1  287             Rx   d 8 00 00 00 00 00 00 00 00
 0.799195 1  30A             Rx   d 8 85 00 00 00 00 00 00 00
 0.799496 1  318             Rx   d 8 00 00 00 00 00 00 00 00
 0.799711 1  346             Rx   d 8 00 00 00 03 03 00 C0 00
 0.799993 1  348             Rx   d 8 00 00 00 01 00 00 00 00
 0.800293 1  430             Rx   d 8 C8 00 40 9B 00 00 64 00
 0.800534 1  434             Rx   d 8 40 00 70 00 20 4D 28 00
 0.807605 1  47              Rx   d 8 64 22 BC F4 3B 98 00 00
 0.807651 1  165             Rx   d 8 20 81 00 00 00 00 00 00
 0.808162 1  167             Rx   d 8 00 FF FF 00 00 02 0E 00
 0.808235 1  171             Rx   d 8 F0 E0 00 00 00 00 00 00
 0.809066 1  200             Rx   d 8 00 00 80 26 80 26 F0 00
 0.809110 1  202             Rx   d 8 00 CC 00 00 00 00 00 00
 0.809117 1  204             Rx   d 8 00 00 FF 00 00 00 00 00
 0.809121 1  230             Rx   d 8 F0 1C 00 00 00 00 00 00
 0.809371 1  42F             Rx   d 8 7D 02 05 4E 20 FF 00 00
 0.810441 1  41              Rx   d 8 00 00 00 00 00 00 00 00
 0.810620 1  242             Rx   d 8 FF FF 3F FF B6 00 03 01
 0.810869 1  7E8             Rx   d 8 03 41 0D 00 00 00 00 00
 0.817633 1  167             Rx   d 8 00 FF FF 00 00 02 0E 00
 0.817685 1  204             Rx   d 8 00 00 FF 00 00 00 00 00
 0.818212 1  43D             Rx   d 8 14 00 21 00 00 00 00 00
 0.818256 1  43E             Rx   d 8 00 00 00 00 00 00 00 00
 0.827359 1  47              Rx   d 8 64 22 BC F4 3B 98 00 00
 0.827558 1  165             Rx   d 8 20 81 00 00 00 00 00 00
 0.827776 1  167             Rx   d 8 00 FF FF 00 00 02 0E 00
 0.828018 1  200             Rx   d 8 00 00 80 26 80 26 F0 00
 0.828255 1  202             Rx   d 8 00 CC 00 00 00 00 00 00
 0.828500 1  204             Rx   d 8 00 00 FF 00 00 00 00 00
 0.828756 1  230             Rx   d 8 F0 1C 00 00 00 00 00 00
 0.829614 1  41              Rx   d 8 00 00 00 00 00 00 00 00
 0.837378 1  167             Rx   d 8 00 FF FF 00 00 02 0E 00
 0.837566 1  171             Rx   d 8 F0 E0 00 00 00 00 00 00
 0.837772 1  204             Rx   d 8 00 00 FF 00 00 00 00 00
 0.838001 1  42F             Rx   d 8 7D 02 05 4E 20 FF 00 00
 0.839217 1  42C             Rx   d 8 80 02 00 00 00 00 00 00
 0.847516 1  47              Rx   d 8 64 22 BC F4 3B 98 00 00
 0.847553 1  165             Rx   d 8 20 81 00 00 00 00 00 00
 0.847862 1  167             Rx   d 8 00 FF FF 00 00 02 0E 00
 0.848078 1  200             Rx   d 8 00 00 80 26 80 26 F0 00
 0.848260 1  202             Rx   d 8 00 CC 00 00 00 00 00 00
 0.848771 1  204             Rx   d 8 00 00 FF 00 00 00 00 00
 0.848801 1  230             Rx   d 8 F0 1C 00 00 00 00 00 00
 0.849812 1  41              Rx   d 8 00 00 00 00 00 00 00 00
 0.849853 1  242             Rx   d 8 FF FF 3F FF B6 00 03 01
 0.857718 1  167             Rx   d 8 00 FF FF 00 00 02 0E 00
 0.857782 1  204             Rx   d 8 00 00 FF 00 00 00 00 00
 0.867391 1  47              Rx   d 8 64 22 BC F4 3B 98 00 00
 0.867587 1  156             Rx   d 8 BA 00 00 00 00 00 00 00
 0.867766 1  165             Rx   d 8 20 81 00 00 00 00 00 00
 0.868001 1  166             Rx   d 8 76 00 00 FF FF FF 00 00
 0.868240 1  167             Rx   d 8 00 FF FF 00 00 02 0E 00
 0.868502 1  171             Rx   d 8 F0 E0 00 00 00 00 00 00
 0.868754 1  178             Rx   d 8 00 00 02 00 02 54 C6 53
 0.869007 1  41              Rx   d 8 00 00 00 00 00 00 00 00
 0.869254 1  179             Rx   d 8 00 00 08 00 22 FF 00 00
 0.869505 1  17C             Rx   d 8 00 00 00 00 00 00 00 00
 0.869718 1  200             Rx   d 8 00 00 80 26 80 26 F0 00
 0.869957 1  202             Rx   d 8 00 CC 00 00 00 00 00 00
 0.870197 1  204             Rx   d 8 00 00 FF 00 00 00 00 00
 0.870466 1  230             Rx   d 8 F0 1C 00 00 00 00 00 00
 0.870735 1  421             Rx   d 8 04 00 11 00 00 00 FF 00
 0.870978 1  424             Rx   d 8 00 00 00 03 00 00 00 00
 0.871228 1  42D             Rx   d 8 00 03 FF 00 00 00 F0 00
 0.871465 1  42F             Rx   d 8 7D 02 05 4E 20 FF 00 00
 0.871734 1  43D             Rx   d 8 14 00 21 00 00 00 00 00
 0.871953 1  43E             Rx   d 8 00 00 00 00 00 00 00 00
 0.877107 1  7DF             Rx   d 8 02 01 04 00 00 00 00 00
 0.877277 1  167             Rx   d 8 00 FF FF 00 00 02 0E 00
 0.877522 1  204             Rx   d 8 00 00 FF 00 00 00 00 00
 0.887537 1  23A             Rx   d 8 FF FF FF FF F0 00 00 00
 0.887577 1  430             Rx   d 8 00 00 00 00 FE 00 00 00
 0.887583 1  47              Rx   d 8 64 22 BC F4 3B 98 00 00
 0.887770 1  165             Rx   d 8 20 81 00 00 00 00 00 00
 0.888090 1  167             Rx   d 8 00 FF FF 00 00 02 0E 00
