date Tue Mar 11 11:56:25.687 PM 2025
base hex  timestamps absolute
internal events logged
Begin Triggerblock Tue Mar 11 11:56:27.556 PM 2025
 0.000000 Start of measurement
 0.000000 1  591             Rx   d 8 91 00 FF FF FF FF FF FF
 0.001941 1  18B             Rx   d 8 00 00 00 1E 00 00 00 00
 0.002116 1  19A             Rx   d 8 00 00 00 00 00 00 00 00
 0.002435 1  220             Rx   d 8 00 01 00 00 00 00 00 00
 0.002687 1  225             Rx   d 8 00 00 00 00 00 00 00 00
 0.002948 1  287             Rx   d 8 00 00 00 00 00 00 00 00
 0.003203 1  2F4             Rx   d 8 00 01 00 00 00 00 00 00
 0.003478 1  2FD             Rx   d 8 00 00 00 00 FC 00 00 00
 0.003733 1  30A             Rx   d 8 81 00 00 00 00 00 00 00
 0.003993 1  315             Rx   d 8 00 00 00 00 00 00 00 00
 0.004257 1  318             Rx   d 8 00 00 00 00 00 00 00 00
 0.004507 1  346             Rx   d 8 00 00 00 03 03 00 C0 00
 0.004803 1  348             Rx   d 8 00 00 00 00 00 00 00 00
 0.005059 1  350             Rx   d 8 00 00 00 00 00 00 00 00
 0.005348 1  353             Rx   d 8 00 00 00 00 00 00 00 00
 0.005589 1  3C8             Rx   d 8 00 00 00 00 00 00 00 00
 0.005830 1  3E0             Rx   d 8 00 00 00 00 80 00 00 00
 0.006126 1  3FB             Rx   d 8 00 00 00 00 04 00 00 00
 0.006351 1  430             Rx   d 8 00 00 00 00 08 00 60 00
 0.006615 1  434             Rx   d 8 00 00 00 00 20 FF F0 00
 0.033771 1  225             Rx   d 8 20 00 00 00 00 00 00 00
 0.033971 1  2FD             Rx   d 8 08 00 00 00 FC 00 00 00
 0.034210 1  430             Rx   d 8 40 00 00 00 08 00 60 00
 0.042765 1  581             Rx   d 8 81 00 FF FF FF FF FF FF
 0.058513 1  41              Rx   d 8 00 00 00 00 00 00 00 00
 0.058843 1  84              Rx   d 8 00 00 00 01 00 00 0C 00
 0.058858 1  242             Rx   d 8 FF FF 20 00 CD 00 04 00
 0.059180 1  331             Rx   d 8 C0 00 48 55 02 00 00 00
 0.059404 1  38D             Rx   d 8 20 00 00 00 00 20 0C F0
 0.059855 1  3B1             Rx   d 8 00 00 00 00 00 00 00 00
 0.059883 1  3B3             Rx   d 8 14 00 C0 0C E6 00 00 00
 0.060202 1  3B4             Rx   d 8 34 21 11 FF 1E 1A 00 00
 0.060577 1  3B5             Rx   d 8 FF FD FF FD FF FD FF FD
 0.060606 1  3B6             Rx   d 8 0B 00 00 00 00 00 00 00
 0.060934 1  3B7             Rx   d 8 00 00 00 00 00 00 00 00
 0.061163 1  3B8             Rx   d 8 FF FF FF FF 00 00 00 00
 0.061403 1  3C3             Rx   d 8 5C 00 20 00 00 00 00 00
 0.061695 1  3C7             Rx   d 8 00 00 40 00 00 00 00 00
 0.062133 1  3E3             Rx   d 8 00 00 00 00 80 00 00 00
 0.062162 1  3EB             Rx   d 8 00 04 14 00 00 00 00 00
 0.062619 1  40A             Rx   d 8 C0 00 00 23 60 10 AB 00
 0.062643 1  42C             Rx   d 8 00 00 00 00 00 00 00 00
 0.062971 1  43C             Rx   d 8 32 00 4B 3C 3C 40 88 14
 0.063410 1  447             Rx   d 8 20 00 00 4B 00 20 00 00
 0.063427 1  225             Rx   d 8 20 80 00 00 00 00 00 00
 0.078980 1  41              Rx   d 8 00 00 00 00 00 00 00 00
 0.087934 1  331             Rx   d 8 C0 00 00 00 02 00 00 00
 0.087968 1  38D             Rx   d 8 20 00 00 00 00 00 0C F0
 0.088183 1  3C3             Rx   d 8 5C CC 20 00 00 00 00 00
 0.099169 1  41              Rx   d 8 00 00 00 00 00 00 00 00
 0.099213 1  242             Rx   d 8 FF FF 20 00 CD 00 00 01
 0.099574 1  3B3             Rx   d 8 14 08 C0 0C E6 00 03 3C
 0.099597 1  447             Rx   d 8 20 00 00 4B 00 30 00 00
 0.103879 1  2FD             Rx   d 8 09 00 00 04 FC 00 00 00
 0.103920 1  318             Rx   d 8 00 00 00 00 00 00 00 00
 0.104218 1  346             Rx   d 8 00 00 00 03 03 00 C0 00
 0.104443 1  348             Rx   d 8 00 00 00 01 00 00 00 00
 0.104747 1  3C8             Rx   d 8 00 00 00 EC 00 00 00 00
 0.105022 1  430             Rx   d 8 40 00 00 00 08 00 20 00
 0.105230 1  434             Rx   d 8 00 00 00 00 20 FF F3 FF
 0.107670 1  3B4             Rx   d 8 34 21 11 FF 1E 1A 00 00
 0.107714 1  42C             Rx   d 8 00 00 00 00 00 00 00 00
 0.114050 1  19A             Rx   d 8 00 00 00 02 40 00 00 00
 0.114101 1  225             Rx   d 8 20 81 00 00 00 00 00 00
 0.114446 1  30A             Rx   d 8 85 00 00 00 00 00 00 00
 0.117694 1  41              Rx   d 8 00 00 00 00 00 00 00 00
 0.117872 1  3B5             Rx   d 8 FF FD FF FD FF FD FF FD
 0.118112 1  3C3             Rx   d 8 5C C8 20 08 00 00 01 00
 0.133327 1  430             Rx   d 8 40 00 40 9B 08 00 24 00
 0.133521 1  434             Rx   d 8 00 00 00 00 60 FF F0 00
 0.137652 1  41              Rx   d 8 00 00 00 00 00 00 00 00
 0.137725 1  242             Rx   d 8 FF FF 20 00 CD 00 00 01
 0.137924 1  3C7             Rx   d 8 00 00 40 00 00 00 00 00
 0.147018 1  3C3             Rx   d 8 5C C8 20 C8 00 00 01 00
 0.157221 1  41              Rx   d 8 00 00 00 00 00 00 00 00
 0.157417 1  3B3             Rx   d 8 14 88 C0 0C E6 00 03 3C
 0.157614 1  42C             Rx   d 8 00 00 00 00 00 00 00 00
 0.166491 1  3EB             Rx   d 8 00 04 04 00 00 00 00 00
 0.176904 1  41              Rx   d 8 00 00 00 00 00 00 00 00
 0.176967 1  242             Rx   d 8 FF FF 20 00 CD 00 00 01
 0.177272 1  3C3             Rx   d 8 5C C8 20 C8 00 00 01 00
 0.196460 1  41              Rx   d 8 00 00 00 00 00 00 00 00
 0.203390 1  287             Rx   d 8 00 00 00 00 00 00 00 00
 0.203610 1  30A             Rx   d 8 85 00 00 00 00 00 00 00
 0.203868 1  318             Rx   d 8 00 00 00 00 00 00 00 00
 0.204133 1  346             Rx   d 8 00 00 00 03 03 00 C0 00
 0.204385 1  348             Rx   d 8 00 00 00 01 00 00 00 00
 0.204633 1  430             Rx   d 8 40 00 40 9B 08 00 24 00
 0.204868 1  434             Rx   d 8 00 00 00 00 60 FF F0 00
 0.205839 1  42C             Rx   d 8 00 00 00 00 00 00 00 00
 0.216299 1  41              Rx   d 8 00 00 00 00 00 00 00 00
 0.216560 1  242             Rx   d 8 FF FF 20 00 CD 00 00 01
 0.235475 1  41              Rx   d 8 00 00 00 00 00 00 00 00
 0.256895 1  41              Rx   d 8 00 00 00 00 00 00 00 00
 0.256961 1  242             Rx   d 8 FF FF 20 00 CD 00 00 01
 0.256969 1  40A             Rx   d 8 C1 00 57 46 30 4A 58 58
 0.257232 1  42C             Rx   d 8 00 00 00 00 00 00 00 00
 0.275063 1  41              Rx   d 8 00 00 00 00 00 00 00 00
 0.294902 1  41              Rx   d 8 00 00 00 00 00 00 00 00
 0.294958 1  242             Rx   d 8 FF FF 20 00 CD 00 00 01
 0.303310 1  318             Rx   d 8 00 00 00 00 00 00 00 00
 0.303487 1  346             Rx   d 8 00 00 00 03 03 00 C0 00
 0.303741 1  348             Rx   d 8 00 00 00 01 00 00 00 00
 0.303987 1  430             Rx   d 8 40 00 40 9B 08 00 24 00
 0.304244 1  434             Rx   d 8 00 00 00 00 60 FF F0 00
 0.306542 1  331             Rx   d 8 C0 00 00 00 02 00 00 00
 0.306741 1  3B6             Rx   d 8 0B 00 00 00 00 00 00 00
 0.306988 1  3B7             Rx   d 8 00 00 00 00 00 00 00 00
 0.307243 1  42C             Rx   d 8 00 00 00 00 00 00 00 00
 0.314445 1  41              Rx   d 8 00 00 00 00 00 00 00 00
 0.314613 1  3C3             Rx   d 8 5C C8 00 C8 00 00 01 00
 0.334858 1  41              Rx   d 8 00 00 00 00 00 00 00 00
 0.335149 1  242             Rx   d 8 FF FF 20 00 CD 00 00 01
 0.354702 1  41              Rx   d 8 00 00 00 00 00 00 00 00
 0.354898 1  42C             Rx   d 8 80 00 00 00 00 00 00 00
 0.374476 1  41              Rx   d 8 00 00 00 00 00 00 00 00
 0.374555 1  242             Rx   d 8 FF FF 20 00 CD 00 00 01
 0.393052 1  41              Rx   d 8 00 00 00 00 00 00 00 00
 0.403003 1  42C             Rx   d 8 80 00 00 00 00 00 00 00
 0.403344 1  287             Rx   d 8 00 00 00 00 00 00 00 00
 0.403570 1  30A             Rx   d 8 85 00 00 00 00 00 00 00
 0.403837 1  318             Rx   d 8 00 00 00 00 00 00 00 00
 0.404115 1  346             Rx   d 8 00 00 00 03 03 00 C0 00
 0.404413 1  348             Rx   d 8 00 00 00 01 00 00 00 00
 0.404624 1  430             Rx   d 8 40 00 40 9B 08 00 24 00
 0.404915 1  434             Rx   d 8 00 00 00 00 60 FF F0 00
 0.413222 1  41              Rx   d 8 00 00 00 00 00 00 00 00
 0.413276 1  242             Rx   d 8 FF FF 20 00 CD 00 00 01
 0.432472 1  41              Rx   d 8 00 00 00 00 00 00 00 00
 0.453028 1  41              Rx   d 8 00 00 00 00 00 00 00 00
 0.453102 1  242             Rx   d 8 FF FF 20 00 CD 00 00 01
 0.453111 1  40A             Rx   d 8 C1 01 47 41 48 4A 48 45
 0.453407 1  42C             Rx   d 8 80 00 00 00 00 00 00 00
 0.471733 1  41              Rx   d 8 00 00 00 00 00 00 00 00
 0.491718 1  41              Rx   d 8 00 00 00 00 00 00 00 00
 0.491780 1  242             Rx   d 8 FF FF 20 00 CD 00 00 01
 0.500795 1  42C             Rx   d 8 80 00 00 00 00 00 00 00
 0.503395 1  318             Rx   d 8 00 00 00 00 00 00 00 00
 0.503628 1  346             Rx   d 8 00 00 00 03 03 00 C0 00
 0.503801 1  348             Rx   d 8 00 00 00 01 00 00 00 00
 0.504062 1  430             Rx   d 8 40 00 40 9B 08 00 24 00
 0.504339 1  434             Rx   d 8 00 00 00 00 60 FF F0 00
 0.511109 1  41              Rx   d 8 00 00 00 00 00 00 00 00
 0.531003 1  41              Rx   d 8 00 00 00 00 00 00 00 00
 0.531083 1  242             Rx   d 8 FF FF 20 00 CD 00 00 01
 0.550514 1  41              Rx   d 8 00 00 00 00 00 00 00 00
 0.550727 1  3B6             Rx   d 8 09 00 00 00 00 00 00 00
 0.550888 1  3B7             Rx   d 8 00 00 00 00 00 00 00 00
 0.551144 1  3B8             Rx   d 8 FF FF FF FF 00 00 00 00
 0.551417 1  42C             Rx   d 8 80 00 00 00 00 00 00 00
 0.570027 1  41              Rx   d 8 00 00 00 00 00 00 00 00
 0.570208 1  242             Rx   d 8 FF FF 20 00 CD 00 00 01
 0.589677 1  41              Rx   d 8 00 00 00 00 00 00 00 00
 0.599092 1  42C             Rx   d 8 80 00 00 00 00 00 00 00
 0.603273 1  287             Rx   d 8 00 00 00 00 00 00 00 00
 0.603463 1  30A             Rx   d 8 85 00 00 00 00 00 00 00
 0.603736 1  318             Rx   d 8 00 00 00 00 00 00 00 00
 0.603983 1  346             Rx   d 8 00 00 00 03 03 00 C0 00
 0.604244 1  348             Rx   d 8 00 00 00 01 00 00 00 00
 0.604488 1  430             Rx   d 8 40 00 40 9B 08 00 24 00
 0.604770 1  434             Rx   d 8 00 00 00 00 60 FF F0 00
 0.609434 1  41              Rx   d 8 00 00 00 00 00 00 00 00
 0.609602 1  242             Rx   d 8 FF FF 20 00 CD 00 00 01
 0.609860 1  3B5             Rx   d 8 FF FD FF FD FF FD FF FD
 0.628999 1  41              Rx   d 8 00 00 00 00 00 00 00 00
 0.649188 1  41              Rx   d 8 00 00 00 00 00 00 00 00
 0.649369 1  242             Rx   d 8 FF FF 20 00 CD 00 00 01
 0.649581 1  3B3             Rx   d 8 14 88 C0 0C E6 00 03 3C
 0.649813 1  40A             Rx   d 8 C1 02 32 38 38 33 36 00
 0.650083 1  42C             Rx   d 8 80 00 00 00 00 00 00 00
 0.668326 1  41              Rx   d 8 00 00 00 00 00 00 00 00
 0.688350 1  41              Rx   d 8 00 00 00 00 00 00 00 00
 0.688440 1  242             Rx   d 8 FF FF 20 00 CD 00 00 01
 0.697420 1  42C             Rx   d 8 80 00 00 00 00 00 00 00
 0.703537 1  318             Rx   d 8 00 00 00 00 00 00 00 00
 0.703601 1  346             Rx   d 8 00 00 00 03 03 00 C0 00
 0.703843 1  348             Rx   d 8 00 00 00 01 00 00 00 00
 0.704098 1  430             Rx   d 8 40 00 40 9B 08 00 24 00
 0.704360 1  434             Rx   d 8 00 00 00 00 60 FF F0 00
 0.707713 1  41              Rx   d 8 00 00 00 00 00 00 00 00
 0.727634 1  41              Rx   d 8 00 00 00 00 00 00 00 00
 0.727744 1  242             Rx   d 8 FF FF 20 00 CD 00 00 01
 0.747207 1  41              Rx   d 8 00 00 00 00 00 00 00 00
 0.747256 1  42C             Rx   d 8 80 00 00 00 00 00 00 00
 0.766886 1  41              Rx   d 8 00 00 00 00 00 00 00 00
 0.766957 1  242             Rx   d 8 FF FF 20 00 CD 00 00 01
 0.786224 1  41              Rx   d 8 00 00 00 00 00 00 00 00
 0.795870 1  3B6             Rx   d 8 09 00 00 00 00 00 00 00
 0.795983 1  3B7             Rx   d 8 00 00 00 00 00 00 00 00
 0.796296 1  42C             Rx   d 8 80 00 00 00 00 00 00 00
 0.803700 1  287             Rx   d 8 00 00 00 00 00 00 00 00
 0.803759 1  30A             Rx   d 8 85 00 00 00 00 00 00 00
 0.804075 1  318             Rx   d 8 00 00 00 00 00 00 00 00
 0.804094 1  346             Rx   d 8 00 00 00 03 03 00 C0 00
 0.804352 1  348             Rx   d 8 00 00 00 01 00 00 00 00
 0.804591 1  430             Rx   d 8 40 00 40 9B 08 00 24 00
 0.804847 1  434             Rx   d 8 00 00 00 00 60 FF F0 00
 0.806142 1  41              Rx   d 8 00 00 00 00 00 00 00 00
 0.806169 1  242             Rx   d 8 FF FF 20 00 CD 00 00 01
 0.825592 1  41              Rx   d 8 00 00 00 00 00 00 00 00
 0.846542 1  41              Rx   d 8 00 00 00 00 00 00 00 00
 0.846620 1  242             Rx   d 8 FF FF 20 00 CD 00 00 01
 0.846633 1  40A             Rx   d 8 C1 04 01 8A 07 54 85 41
 0.846643 1  42C             Rx   d 8 80 00 00 00 00 00 00 00
 0.864913 1  41              Rx   d 8 00 00 00 00 00 00 00 00
 0.884911 1  41              Rx   d 8 00 00 00 00 00 00 00 00
 0.884968 1  242             Rx   d 8 FF FF 20 00 CD 00 00 01
 0.893965 1  42C             Rx   d 8 80 00 00 00 00 00 00 00
 0.903314 1  318             Rx   d 8 00 00 00 00 00 00 00 00
 0.903505 1  346             Rx   d 8 00 00 00 03 03 00 C0 00
 0.903703 1  348             Rx   d 8 00 00 00 01 00 00 00 00
 0.903956 1  430             Rx   d 8 40 00 40 9B 08 00 24 00
 0.904228 1  41              Rx   d 8 00 00 00 00 00 00 00 00
 0.904461 1  434             Rx   d 8 00 00 00 00 60 FF F0 00
 0.924276 1  41              Rx   d 8 00 00 00 00 00 00 00 00
 0.924357 1  242             Rx   d 8 FF FF 20 00 CD 00 00 01
 0.943704 1  41              Rx   d 8 00 00 00 00 00 00 00 00
 0.943886 1  42C             Rx   d 8 80 00 00 00 00 00 00 00
 0.963496 1  41              Rx   d 8 00 00 00 00 00 00 00 00
 0.963584 1  242             Rx   d 8 FF FF 20 00 CD 00 00 01
 0.982872 1  41              Rx   d 8 00 00 00 00 00 00 00 00
 0.992452 1  42C             Rx   d 8 80 00 00 00 00 00 00 00
 0.993537 1  591             Rx   d 8 91 00 FF FF FF FF FF FF
 1.002851 1  41              Rx   d 8 00 00 00 00 00 00 00 00
 1.003042 1  242             Rx   d 8 FF FF 20 00 CD 00 00 01
 1.003228 1  18B             Rx   d 8 00 00 00 1E 00 00 00 00
 1.003488 1  19A             Rx   d 8 00 00 00 02 40 00 00 00
 1.003749 1  220             Rx   d 8 10 01 00 00 00 00 00 00
 1.003999 1  225             Rx   d 8 20 81 00 00 00 00 00 00
 1.004252 1  287             Rx   d 8 00 00 00 00 00 00 00 00
 1.004520 1  2F4             Rx   d 8 10 01 00 00 00 00 00 00
 1.004792 1  2FD             Rx   d 8 09 00 00 04 FC 00 00 00
 1.005037 1  30A             Rx   d 8 85 00 00 00 00 00 00 00
 1.005297 1  315             Rx   d 8 00 00 00 00 00 00 00 00
 1.005547 1  318             Rx   d 8 00 00 00 00 00 00 00 00
 1.005810 1  346             Rx   d 8 00 00 00 03 03 00 C0 00
 1.006079 1  348             Rx   d 8 00 00 00 01 00 00 00 00
 1.006334 1  350             Rx   d 8 40 00 00 00 00 00 00 00
 1.006584 1  353             Rx   d 8 00 00 00 00 00 00 00 00
 1.006824 1  3C8             Rx   d 8 00 00 00 EC 00 00 00 00
 1.007103 1  3E0             Rx   d 8 00 00 00 00 80 00 00 00
 1.007379 1  3FB             Rx   d 8 00 00 00 00 04 00 00 00
 1.007623 1  430             Rx   d 8 40 00 40 9B 08 00 24 00
 1.007890 1  434             Rx   d 8 00 00 00 00 60 FF F0 00
 1.022205 1  41              Rx   d 8 00 00 00 00 00 00 00 00
 1.028131 1  581             Rx   d 8 81 00 FF FF FF FF FF FF
 1.042414 1  41              Rx   d 8 00 00 00 00 00 00 00 00
 1.042613 1  242             Rx   d 8 FF FF 20 00 CD 00 00 01
 1.042767 1  38D             Rx   d 8 20 00 00 00 00 00 0C F0
 1.043020 1  3B1             Rx   d 8 00 00 00 00 00 00 00 00
 1.043269 1  3B6             Rx   d 8 09 00 00 00 00 00 00 00
 1.043516 1  3B7             Rx   d 8 00 00 00 00 00 00 00 00
 1.043772 1  3B8             Rx   d 8 FF FF FF FF 00 00 00 00
 1.044021 1  3E3             Rx   d 8 00 00 00 00 80 00 00 00
 1.044280 1  3EB             Rx   d 8 00 04 04 00 00 00 00 00
 1.044521 1  40A             Rx   d 8 C1 10 40 84 20 08 80 00
 1.044784 1  42C             Rx   d 8 80 00 00 00 00 00 00 00
 1.045019 1  43C             Rx   d 8 32 00 4B 3C 3C 99 88 14
 1.045275 1  447             Rx   d 8 20 00 00 4B 00 30 00 00
 1.061487 1  41              Rx   d 8 00 00 00 00 00 00 00 00
 1.061694 1  3C3             Rx   d 8 40 C8 00 C8 00 00 81 00
 1.071306 1  447             Rx   d 8 20 00 00 4B 00 10 00 00
 1.081205 1  41              Rx   d 8 00 00 00 00 00 00 00 00
 1.081396 1  242             Rx   d 8 FF FF 20 00 CD 00 00 01
 1.090550 1  3B4             Rx   d 8 34 21 11 FF 1E 1A 00 00
 1.090750 1  42C             Rx   d 8 80 00 00 00 00 00 00 00
 1.100799 1  41              Rx   d 8 00 00 00 00 00 00 00 00
 1.100988 1  3B5             Rx   d 8 FF FD FF FD FF FD FF FD
 1.103438 1  318             Rx   d 8 00 00 00 00 00 00 00 00
 1.103697 1  346             Rx   d 8 00 00 00 03 03 00 C0 00
 1.103876 1  348             Rx   d 8 00 00 00 01 00 00 00 00
 1.104097 1  430             Rx   d 8 40 00 40 9B 08 00 24 00
 1.104358 1  434             Rx   d 8 00 00 00 00 60 FF F0 00
 1.120607 1  41              Rx   d 8 00 00 00 00 00 00 00 00
 1.120799 1  242             Rx   d 8 FF FF 20 00 CD 00 03 01
 1.120974 1  3C7             Rx   d 8 00 00 40 00 00 00 00 00
 1.140293 1  41              Rx   d 8 00 00 00 00 00 00 00 00
 1.140528 1  3B3             Rx   d 8 14 88 C0 0C E6 00 03 3C
 1.140704 1  3C3             Rx   d 8 40 C8 00 C8 00 00 81 00
 1.140917 1  42C             Rx   d 8 80 00 00 00 00 00 00 00
 1.159831 1  41              Rx   d 8 00 00 00 00 00 00 00 00
 1.160019 1  242             Rx   d 8 FF FF 20 00 CD 00 03 01
 1.179523 1  41              Rx   d 8 00 00 00 00 00 00 00 00
 1.188975 1  42C             Rx   d 8 80 00 00 00 00 00 00 00
 1.199160 1  41              Rx   d 8 00 00 00 00 00 00 00 00
 1.199352 1  242             Rx   d 8 FF FF 20 00 CD 00 03 01
 1.203250 1  287             Rx   d 8 00 00 00 00 00 00 00 00
 1.203427 1  30A             Rx   d 8 85 00 00 00 00 00 00 00
 1.203722 1  318             Rx   d 8 00 00 00 00 00 00 00 00
 1.203979 1  346             Rx   d 8 00 00 00 03 03 00 C0 00
 1.204225 1  348             Rx   d 8 00 00 00 01 00 00 00 00
 1.204467 1  430             Rx   d 8 40 00 40 9B 08 00 24 00
 1.204720 1  434             Rx   d 8 00 00 00 00 60 FF F0 00
 1.218897 1  41              Rx   d 8 00 00 00 00 00 00 00 00
 1.239007 1  41              Rx   d 8 00 00 00 00 00 00 00 00
 1.239199 1  242             Rx   d 8 FF FF 20 00 CD 00 03 01
 1.239359 1  40A             Rx   d 8 C0 00 00 23 60 10 AB 00
 1.239632 1  42C             Rx   d 8 80 00 00 00 00 00 00 00
 1.258238 1  41              Rx   d 8 00 00 00 00 00 00 00 00
 1.277789 1  41              Rx   d 8 00 00 00 00 00 00 00 00
 1.277965 1  242             Rx   d 8 FF FF 20 00 CD 00 03 01
 1.287201 1  331             Rx   d 8 C0 00 00 00 02 00 00 00
 1.287403 1  3B6             Rx   d 8 09 00 00 00 00 00 00 00
 1.287550 1  3B7             Rx   d 8 00 00 00 00 00 00 00 00
 1.287837 1  42C             Rx   d 8 80 00 00 00 00 00 00 00
 1.297503 1  41              Rx   d 8 00 00 00 00 00 00 00 00
 1.303436 1  318             Rx   d 8 00 00 00 00 00 00 00 00
 1.303524 1  346             Rx   d 8 00 00 00 03 03 00 C0 00
 1.303727 1  348             Rx   d 8 00 00 00 01 00 00 00 00
 1.303967 1  430             Rx   d 8 40 00 40 9B 08 00 24 00
 1.304221 1  434             Rx   d 8 00 00 00 00 60 FF F0 00
 1.317180 1  41              Rx   d 8 00 00 00 00 00 00 00 00
 1.317348 1  242             Rx   d 8 FF FF 20 00 CD 00 03 01
 1.337052 1  41              Rx   d 8 00 00 00 00 00 00 00 00
 1.337138 1  42C             Rx   d 8 80 00 00 00 00 00 00 00
 1.356423 1  41              Rx   d 8 00 00 00 00 00 00 00 00
 1.356624 1  242             Rx   d 8 FF FF 20 00 CD 00 03 01
 1.376238 1  41              Rx   d 8 00 00 00 00 00 00 00 00
 1.385540 1  42C             Rx   d 8 80 00 00 00 00 00 00 00
 1.395775 1  41              Rx   d 8 00 00 00 00 00 00 00 00
 1.396062 1  242             Rx   d 8 FF FF 20 00 CD 00 03 01
 1.403423 1  287             Rx   d 8 00 00 00 00 00 00 00 00
 1.403636 1  30A             Rx   d 8 85 00 00 00 00 00 00 00
 1.403831 1  318             Rx   d 8 00 00 00 00 00 00 00 00
 1.404080 1  346             Rx   d 8 00 00 00 03 03 00 C0 00
 1.404333 1  348             Rx   d 8 00 00 00 01 00 00 00 00
 1.404579 1  430             Rx   d 8 40 00 40 9B 08 00 24 00
 1.404841 1  434             Rx   d 8 00 00 00 00 60 FF F0 00
 1.415800 1  41              Rx   d 8 00 00 00 00 00 00 00 00
 1.435632 1  41              Rx   d 8 00 00 00 00 00 00 00 00
 1.435851 1  242             Rx   d 8 FF FF 20 00 CD 00 03 01
 1.436040 1  40A             Rx   d 8 C1 00 57 46 30 4A 58 58
 1.436226 1  42C             Rx   d 8 80 00 00 00 00 00 00 00
 1.454746 1  41              Rx   d 8 00 00 00 00 00 00 00 00
 1.474427 1  41              Rx   d 8 00 00 00 00 00 00 00 00
 1.474647 1  242             Rx   d 8 FF FF 20 00 CD 00 03 01
 1.483794 1  42C             Rx   d 8 80 00 00 00 00 00 00 00
 1.494075 1  41              Rx   d 8 00 00 00 00 00 00 00 00
 1.503289 1  318             Rx   d 8 00 00 00 00 00 00 00 00
 1.503479 1  346             Rx   d 8 00 00 00 03 03 00 C0 00
 1.503688 1  348             Rx   d 8 00 00 00 01 00 00 00 00
 1.503938 1  430             Rx   d 8 40 00 40 9B 08 00 24 00
 1.504192 1  434             Rx   d 8 00 00 00 00 60 FF F0 00
 1.513891 1  41              Rx   d 8 00 00 00 00 00 00 00 00
 1.514109 1  242             Rx   d 8 FF FF 20 00 CD 00 03 01
 1.533731 1  41              Rx   d 8 00 00 00 00 00 00 00 00
 1.533820 1  3B6             Rx   d 8 09 00 00 00 00 00 00 00
 1.534075 1  3B7             Rx   d 8 00 00 00 00 00 00 00 00
 1.534088 1  3B8             Rx   d 8 FF FF FF FF 00 00 00 00
 1.534433 1  42C             Rx   d 8 80 00 00 00 00 00 00 00
 1.553083 1  41              Rx   d 8 00 00 00 00 00 00 00 00
 1.553334 1  242             Rx   d 8 FF FF 20 00 CD 00 03 01
 1.572853 1  41              Rx   d 8 00 00 00 00 00 00 00 00
 1.582200 1  42C             Rx   d 8 80 00 00 00 00 00 00 00
 1.592386 1  41              Rx   d 8 00 00 00 00 00 00 00 00
 1.592606 1  242             Rx   d 8 FF FF 20 00 CD 00 03 01
 1.592735 1  3B5             Rx   d 8 FF FD FF FD FF FD FF FD
 1.603327 1  287             Rx   d 8 00 00 00 00 00 00 00 00
 1.603594 1  30A             Rx   d 8 85 00 00 00 00 00 00 00
 1.603747 1  318             Rx   d 8 00 00 00 00 00 00 00 00
 1.603979 1  346             Rx   d 8 00 00 00 03 03 00 C0 00
 1.604248 1  348             Rx   d 8 00 00 00 01 00 00 00 00
 1.604483 1  430             Rx   d 8 40 00 40 9B 08 00 24 00
 1.604748 1  434             Rx   d 8 00 00 00 00 60 FF F0 00
 1.612046 1  41              Rx   d 8 00 00 00 00 00 00 00 00
 1.632228 1  41              Rx   d 8 00 00 00 00 00 00 00 00
 1.632446 1  242             Rx   d 8 FF FF 20 00 CD 00 03 01
 1.632561 1  3B3             Rx   d 8 14 88 C0 0C E6 00 03 3C
 1.632793 1  40A             Rx   d 8 C1 01 47 41 48 4A 48 45
 1.633053 1  42C             Rx   d 8 80 00 00 00 00 00 00 00
 1.651330 1  41              Rx   d 8 00 00 00 00 00 00 00 00
 1.671001 1  41              Rx   d 8 00 00 00 00 00 00 00 00
 1.671216 1  242             Rx   d 8 FF FF 20 00 CD 00 03 01
 1.680404 1  42C             Rx   d 8 80 00 00 00 00 00 00 00
 1.690679 1  41              Rx   d 8 00 00 00 00 00 00 00 00
 1.703375 1  318             Rx   d 8 00 00 00 00 00 00 00 00
 1.703551 1  346             Rx   d 8 00 00 00 03 03 00 C0 00
 1.703794 1  348             Rx   d 8 00 00 00 01 00 00 00 00
 1.704036 1  430             Rx   d 8 40 00 40 9B 08 00 24 00
 1.704285 1  434             Rx   d 8 00 00 00 00 60 FF F0 00
 1.710413 1  41              Rx   d 8 00 00 00 00 00 00 00 00
 1.710572 1  242             Rx   d 8 FF FF 20 00 CD 00 03 01
 1.730370 1  41              Rx   d 8 00 00 00 00 00 00 00 00
 1.730491 1  42C             Rx   d 8 80 00 00 00 00 00 00 00
 1.749669 1  41              Rx   d 8 00 00 00 00 00 00 00 00
 1.749924 1  242             Rx   d 8 FF FF 3F FF B8 00 03 01
 1.769267 1  41              Rx   d 8 00 00 00 00 00 00 00 00
 1.778665 1  3B6             Rx   d 8 09 00 00 00 00 00 00 00
 1.778836 1  3B7             Rx   d 8 00 00 00 00 00 00 00 00
 1.779078 1  42C             Rx   d 8 80 00 00 00 00 00 00 00
 1.788965 1  41              Rx   d 8 00 00 00 00 00 00 00 00
 1.789141 1  242             Rx   d 8 FF FF 3F FF B8 00 03 01
 1.803416 1  287             Rx   d 8 00 00 00 00 00 00 00 00
 1.803504 1  30A             Rx   d 8 85 00 00 00 00 00 00 00
 1.803716 1  318             Rx   d 8 00 00 00 00 00 00 00 00
 1.803948 1  346             Rx   d 8 00 00 00 03 03 00 C0 00
 1.804199 1  348             Rx   d 8 00 00 00 01 00 00 00 00
 1.804455 1  430             Rx   d 8 40 00 40 9B 08 00 24 00
 1.804713 1  434             Rx   d 8 00 00 00 00 60 FF F0 00
 1.808782 1  41              Rx   d 8 00 00 00 00 00 00 00 00
