date Tue Mar 11 11:59:30.256 PM 2025
base hex  timestamps absolute
internal events logged
Begin Triggerblock Tue Mar 11 11:59:30.255 PM 2025
 0.000000 Start of measurement
 0.000000 1  47              Rx   d 8 64 22 BC F4 3B 98 00 00
 0.000186 1  156             Rx   d 8 BA 00 00 00 03 00 00 00
 0.000429 1  165             Rx   d 8 20 81 00 00 00 00 00 00
 0.000664 1  166             Rx   d 8 76 00 00 FF FF FF 00 00
 0.000907 1  167             Rx   d 8 00 FF FF 00 00 02 15 00
 0.001137 1  178             Rx   d 8 00 00 02 00 09 60 C9 8A
 0.001381 1  179             Rx   d 8 00 00 08 00 22 FF 00 00
 0.001666 1  17C             Rx   d 8 00 00 00 00 00 00 00 00
 0.001872 1  200             Rx   d 8 00 00 80 26 80 26 F0 00
 0.002136 1  202             Rx   d 8 00 CC 00 00 00 00 00 00
 0.002397 1  204             Rx   d 8 00 00 FF 00 00 00 00 00
 0.002628 1  230             Rx   d 8 F0 1C 00 00 00 00 00 00
 0.002882 1  421             Rx   d 8 04 00 11 00 00 00 FF 00
 0.003162 1  424             Rx   d 8 00 00 00 03 00 00 00 00
 0.003380 1  42D             Rx   d 8 00 01 60 00 00 00 F0 00
 0.003623 1  43D             Rx   d 8 14 00 21 00 00 00 00 00
 0.003862 1  43E             Rx   d 8 00 00 00 00 00 00 00 00
 0.010065 1  167             Rx   d 8 00 FF FF 00 00 02 15 00
 0.010243 1  204             Rx   d 8 00 00 FF 00 00 00 00 00
 0.020019 1  47              Rx   d 8 64 22 BC F4 3B 98 00 00
 0.020178 1  165             Rx   d 8 20 81 00 00 00 00 00 00
 0.020404 1  167             Rx   d 8 00 FF FF 00 00 02 15 00
 0.020653 1  171             Rx   d 8 F0 E0 00 00 00 00 00 00
 0.020882 1  200             Rx   d 8 00 00 80 26 80 26 F0 00
 0.021130 1  202             Rx   d 8 00 CC 00 00 00 00 00 00
 0.021368 1  204             Rx   d 8 00 00 FF 00 00 00 00 00
 0.021630 1  230             Rx   d 8 F0 1C 00 00 00 00 00 00
 0.021858 1  42F             Rx   d 8 7D 02 05 4E 20 64 00 00
 0.022100 1  591             Rx   d 8 91 00 FF FF FF FF FF FF
 0.030073 1  167             Rx   d 8 00 FF FF 00 00 02 15 00
 0.030274 1  204             Rx   d 8 00 00 FF 00 00 00 00 00
 0.030514 1  18B             Rx   d 8 00 00 00 1E 00 00 00 00
 0.030806 1  19A             Rx   d 8 00 00 00 02 40 00 00 00
 0.031062 1  220             Rx   d 8 10 01 00 00 00 00 00 00
 0.031331 1  225             Rx   d 8 20 81 00 00 00 00 00 00
 0.031553 1  287             Rx   d 8 00 00 00 00 00 00 00 00
 0.031827 1  2F4             Rx   d 8 10 01 00 00 00 00 00 00
 0.032070 1  2FD             Rx   d 8 09 00 00 04 FC 00 00 00
 0.032329 1  30A             Rx   d 8 85 00 00 00 00 00 00 00
 0.032591 1  315             Rx   d 8 00 00 00 00 00 00 00 00
 0.032889 1  318             Rx   d 8 00 00 00 00 00 00 00 00
 0.033137 1  346             Rx   d 8 00 00 00 03 03 00 C0 00
 0.033392 1  348             Rx   d 8 00 00 00 01 00 00 00 00
 0.033678 1  350             Rx   d 8 40 00 00 00 00 00 00 00
 0.033896 1  353             Rx   d 8 00 00 00 00 00 00 00 00
 0.034144 1  3C8             Rx   d 8 00 00 00 EC 00 00 00 00
 0.034431 1  3E0             Rx   d 8 00 00 00 00 80 00 00 00
 0.034654 1  3FB             Rx   d 8 00 00 00 00 04 00 00 00
 0.034933 1  430             Rx   d 8 40 00 40 9B 08 00 24 00
 0.035197 1  434             Rx   d 8 00 00 00 00 60 FF F0 00
 0.040148 1  47              Rx   d 8 64 22 BC F4 3B 98 00 00
 0.040178 1  165             Rx   d 8 20 81 00 00 00 00 00 00
 0.040452 1  167             Rx   d 8 00 FF FF 00 00 02 15 00
 0.040663 1  200             Rx   d 8 00 00 80 26 80 26 F0 00
 0.040951 1  202             Rx   d 8 00 CC 00 00 00 00 00 00
 0.041213 1  204             Rx   d 8 00 00 FF 00 00 00 00 00
 0.041419 1  230             Rx   d 8 F0 1C 00 00 00 00 00 00
 0.050197 1  167             Rx   d 8 00 FF FF 00 00 02 15 00
 0.050230 1  171             Rx   d 8 F0 E0 00 00 00 00 00 00
 0.050451 1  204             Rx   d 8 00 00 FF 00 00 00 00 00
 0.050683 1  42F             Rx   d 8 7D 02 05 4E 20 64 00 00
 0.050910 1  43D             Rx   d 8 14 00 21 00 00 00 00 00
 0.051185 1  43E             Rx   d 8 00 00 00 00 00 00 00 00
 0.060273 1  47              Rx   d 8 64 22 BC F4 3B 98 00 00
 0.060321 1  165             Rx   d 8 20 81 00 00 00 00 00 00
 0.060657 1  167             Rx   d 8 00 FF FF 00 00 02 15 00
 0.060684 1  200             Rx   d 8 00 00 80 26 80 26 F0 00
 0.060990 1  202             Rx   d 8 00 CC 00 00 00 00 00 00
 0.061174 1  204             Rx   d 8 00 00 FF 00 00 00 00 00
 0.061468 1  230             Rx   d 8 F0 1C 00 00 00 00 00 00
 0.070264 1  167             Rx   d 8 00 FF FF 00 00 02 15 00
 0.070303 1  204             Rx   d 8 00 00 FF 00 00 00 00 00
 0.080278 1  47              Rx   d 8 64 22 BC F4 3B 98 00 00
 0.080321 1  165             Rx   d 8 20 81 00 00 00 00 00 00
 0.080625 1  167             Rx   d 8 00 FF FF 00 00 02 15 00
 0.080642 1  171             Rx   d 8 F0 E0 00 00 00 00 00 00
 0.080965 1  200             Rx   d 8 00 00 80 26 80 26 F0 00
 0.081166 1  202             Rx   d 8 00 CC 00 00 00 00 00 00
 0.081455 1  204             Rx   d 8 00 00 FF 00 00 00 00 00
 0.081695 1  230             Rx   d 8 F0 1C 00 00 00 00 00 00
 0.081944 1  42F             Rx   d 8 7D 02 05 4E 20 64 00 00
 0.090264 1  167             Rx   d 8 00 FF FF 00 00 02 15 00
 0.090300 1  204             Rx   d 8 00 00 FF 00 00 00 00 00
 0.100218 1  47              Rx   d 8 64 22 BC F4 3B 98 00 00
 0.100253 1  156             Rx   d 8 BA 00 00 00 03 00 00 00
 0.100420 1  165             Rx   d 8 20 81 00 00 00 00 00 00
 0.100658 1  166             Rx   d 8 76 00 00 FF FF FF 00 00
 0.100917 1  167             Rx   d 8 00 FF FF 00 00 02 15 00
 0.101159 1  178             Rx   d 8 00 00 02 00 09 60 C9 88
 0.101376 1  179             Rx   d 8 00 00 08 00 22 FF 00 00
 0.101632 1  17C             Rx   d 8 00 00 00 00 00 00 00 00
 0.101867 1  200             Rx   d 8 00 00 80 26 80 26 F0 00
 0.102110 1  202             Rx   d 8 00 CC 00 00 00 00 00 00
 0.102388 1  204             Rx   d 8 00 00 FF 00 00 00 00 00
 0.102666 1  230             Rx   d 8 F0 1C 00 00 00 00 00 00
 0.102859 1  421             Rx   d 8 04 00 11 00 00 00 FF 00
 0.103129 1  424             Rx   d 8 00 00 00 03 00 00 00 00
 0.103353 1  42D             Rx   d 8 00 01 60 00 00 00 F0 00
 0.103647 1  43D             Rx   d 8 14 00 21 00 00 00 00 00
 0.103874 1  43E             Rx   d 8 00 00 00 00 00 00 00 00
 0.104104 1  595             Rx   d 8 95 00 FF FF FF FF FF FF
 0.110212 1  167             Rx   d 8 00 FF FF 00 00 02 15 00
 0.110244 1  171             Rx   d 8 F0 E0 00 00 00 00 00 00
 0.110466 1  204             Rx   d 8 00 00 FF 00 00 00 00 00
 0.110682 1  42F             Rx   d 8 7D 02 05 4E 20 64 00 00
 0.120195 1  47              Rx   d 8 64 22 BC F4 3B 98 00 00
 0.120238 1  165             Rx   d 8 20 81 00 00 00 00 00 00
 0.120434 1  167             Rx   d 8 00 FF FF 00 00 02 15 00
 0.120698 1  200             Rx   d 8 00 00 80 26 80 26 F0 00
 0.120921 1  202             Rx   d 8 00 CC 00 00 00 00 00 00
 0.121165 1  204             Rx   d 8 00 00 FF 00 00 00 00 00
 0.121430 1  230             Rx   d 8 F0 1C 00 00 00 00 00 00
 0.130072 1  167             Rx   d 8 00 FF FF 00 00 02 15 00
 0.130249 1  204             Rx   d 8 00 00 FF 00 00 00 00 00
 0.130458 1  318             Rx   d 8 00 00 00 00 00 00 00 00
 0.130720 1  346             Rx   d 8 00 00 00 03 03 00 C0 00
 0.130992 1  348             Rx   d 8 00 00 00 01 00 00 00 00
 0.131218 1  430             Rx   d 8 40 00 40 9B 08 00 64 00
 0.131478 1  434             Rx   d 8 00 00 00 00 60 FF F0 00
 0.140047 1  47              Rx   d 8 64 22 BC F4 3B 98 00 00
 0.140223 1  165             Rx   d 8 20 81 00 00 00 00 00 00
 0.140406 1  167             Rx   d 8 00 FF FF 00 00 02 15 00
 0.140703 1  171             Rx   d 8 F0 E0 00 00 00 00 00 00
 0.140910 1  200             Rx   d 8 00 00 80 26 80 26 F0 00
 0.141153 1  202             Rx   d 8 00 CC 00 00 00 00 00 00
 0.141408 1  204             Rx   d 8 00 00 FF 00 00 00 00 00
 0.141644 1  230             Rx   d 8 F0 1C 00 00 00 00 00 00
 0.141927 1  42F             Rx   d 8 7D 02 05 4E 20 64 00 00
 0.150239 1  167             Rx   d 8 00 FF FF 00 00 02 15 00
 0.150285 1  204             Rx   d 8 00 00 FF 00 00 00 00 00
 0.150485 1  43D             Rx   d 8 14 00 21 00 00 00 00 00
 0.150724 1  43E             Rx   d 8 00 00 00 00 00 00 00 00
 0.160151 1  47              Rx   d 8 64 22 BC F4 3B 98 00 00
 0.160182 1  165             Rx   d 8 20 81 00 00 00 00 00 00
 0.160441 1  167             Rx   d 8 00 FF FF 00 00 02 15 00
 0.160667 1  200             Rx   d 8 00 00 80 26 80 26 F0 00
 0.160917 1  202             Rx   d 8 00 CC 00 00 00 00 00 00
 0.161177 1  204             Rx   d 8 00 00 FF 00 00 00 00 00
 0.161425 1  230             Rx   d 8 F0 1C 00 00 00 00 00 00
 0.170176 1  167             Rx   d 8 00 FF FF 00 00 02 15 00
 0.170207 1  171             Rx   d 8 F0 E0 00 00 00 00 00 00
 0.170450 1  204             Rx   d 8 00 00 FF 00 00 00 00 00
 0.170690 1  42F             Rx   d 8 7D 02 05 4E 20 FF 00 00
 0.180181 1  47              Rx   d 8 64 22 BC F4 3B 98 00 00
 0.180216 1  165             Rx   d 8 20 81 00 00 00 00 00 00
 0.180424 1  167             Rx   d 8 00 FF FF 00 00 02 15 00
 0.180655 1  200             Rx   d 8 00 00 80 26 80 26 F0 00
 0.180914 1  202             Rx   d 8 00 CC 00 00 00 00 00 00
 0.181182 1  204             Rx   d 8 00 00 FF 00 00 00 00 00
 0.181423 1  230             Rx   d 8 F0 1C 00 00 00 00 00 00
 0.190256 1  167             Rx   d 8 00 FF FF 00 00 02 15 00
 0.190294 1  204             Rx   d 8 00 00 FF 00 00 00 00 00
 0.200197 1  47              Rx   d 8 64 22 BC F4 3B 98 00 00
 0.200234 1  156             Rx   d 8 BA 00 00 00 03 00 00 00
 0.200424 1  165             Rx   d 8 20 81 00 00 00 00 00 00
 0.200715 1  166             Rx   d 8 76 00 00 FF FF FF 00 00
 0.200921 1  167             Rx   d 8 00 FF FF 00 00 02 15 00
 0.201177 1  171             Rx   d 8 F0 E0 00 00 00 00 00 00
 0.201389 1  178             Rx   d 8 00 00 02 00 09 60 C9 87
 0.201648 1  179             Rx   d 8 00 00 08 00 22 FF 00 00
 0.201905 1  17C             Rx   d 8 00 00 00 00 00 00 00 00
 0.202137 1  200             Rx   d 8 00 00 80 26 80 26 F0 00
 0.202402 1  202             Rx   d 8 00 CC 00 00 00 00 00 00
 0.202723 1  204             Rx   d 8 00 00 FF 00 00 00 00 00
 0.202905 1  230             Rx   d 8 F0 1C 00 00 00 00 00 00
 0.203156 1  421             Rx   d 8 04 00 11 00 00 00 FF 00
 0.203392 1  424             Rx   d 8 00 00 00 03 00 00 00 00
 0.203661 1  42D             Rx   d 8 00 01 60 00 00 00 F0 00
 0.203863 1  42F             Rx   d 8 7D 02 05 4E 20 FF 00 00
 0.204139 1  43D             Rx   d 8 14 00 21 00 00 00 00 00
 0.204365 1  43E             Rx   d 8 00 00 00 00 00 00 00 00
 0.210063 1  167             Rx   d 8 00 FF FF 00 00 02 15 00
 0.210250 1  204             Rx   d 8 00 00 FF 00 00 00 00 00
 0.220186 1  47              Rx   d 8 64 22 BC F4 3B 98 00 00
 0.220228 1  165             Rx   d 8 20 81 00 00 00 00 00 00
 0.220433 1  167             Rx   d 8 00 FF FF 00 00 02 15 00
 0.220741 1  200             Rx   d 8 00 00 80 26 80 26 F0 00
 0.220963 1  202             Rx   d 8 00 CC 00 00 00 00 00 00
 0.221149 1  204             Rx   d 8 00 00 FF 00 00 00 00 00
 0.221422 1  230             Rx   d 8 F0 1C 00 00 00 00 00 00
 0.230207 1  167             Rx   d 8 00 FF FF 00 00 02 15 00
 0.230241 1  171             Rx   d 8 F0 E0 00 00 00 00 00 00
 0.230471 1  204             Rx   d 8 00 00 FF 00 00 00 00 00
 0.230748 1  287             Rx   d 8 00 00 00 00 00 00 00 00
 0.230925 1  42F             Rx   d 8 7D 02 05 4E 20 FF 00 00
 0.231185 1  30A             Rx   d 8 85 00 00 00 00 00 00 00
 0.231642 1  318             Rx   d 8 00 00 00 00 00 00 00 00
 0.231658 1  346             Rx   d 8 00 00 00 03 03 00 C0 00
 0.232002 1  348             Rx   d 8 00 00 00 01 00 00 00 00
 0.232206 1  430             Rx   d 8 40 00 40 9B 08 00 64 00
 0.232507 1  434             Rx   d 8 00 00 00 00 60 FF F0 00
 0.240148 1  47              Rx   d 8 64 22 BC F4 3B 98 00 00
 0.240180 1  165             Rx   d 8 20 81 00 00 00 00 00 00
 0.240494 1  167             Rx   d 8 00 FF FF 00 00 02 15 00
 0.240692 1  200             Rx   d 8 00 00 80 26 80 26 F0 00
 0.240929 1  202             Rx   d 8 00 CC 00 00 00 00 00 00
 0.241182 1  204             Rx   d 8 00 00 FF 00 00 00 00 00
 0.241411 1  230             Rx   d 8 F0 1C 00 00 00 00 00 00
 0.250220 1  167             Rx   d 8 00 FF FF 00 00 02 15 00
 0.250272 1  204             Rx   d 8 00 00 FF 00 00 00 00 00
 0.250452 1  43D             Rx   d 8 14 00 21 00 00 00 00 00
 0.250710 1  43E             Rx   d 8 00 00 00 00 00 00 00 00
 0.260052 1  47              Rx   d 8 64 22 BC F4 3B 98 00 00
 0.260237 1  165             Rx   d 8 20 81 00 00 00 00 00 00
 0.260398 1  167             Rx   d 8 00 FF FF 00 00 02 15 00
 0.260653 1  171             Rx   d 8 F0 E0 00 00 00 00 00 00
 0.260889 1  200             Rx   d 8 00 00 80 26 80 26 F0 00
 0.261149 1  202             Rx   d 8 00 CC 00 00 00 00 00 00
 0.261391 1  204             Rx   d 8 00 00 FF 00 00 00 00 00
 0.261632 1  230             Rx   d 8 F0 1C 00 00 00 00 00 00
 0.261880 1  42F             Rx   d 8 7D 02 05 4E 20 FF 00 00
 0.270050 1  167             Rx   d 8 00 FF FF 00 00 02 15 00
 0.270228 1  204             Rx   d 8 00 00 FF 00 00 00 00 00
 0.280171 1  47              Rx   d 8 64 22 BC F4 3B 98 00 00
 0.280210 1  165             Rx   d 8 20 81 00 00 00 00 00 00
 0.280427 1  167             Rx   d 8 00 FF FF 00 00 02 15 00
 0.280678 1  200             Rx   d 8 00 00 80 26 80 26 F0 00
 0.280934 1  202             Rx   d 8 00 CC 00 00 00 00 00 00
 0.281155 1  204             Rx   d 8 00 00 FF 00 00 00 00 00
 0.281395 1  230             Rx   d 8 F0 1C 00 00 00 00 00 00
 0.290168 1  167             Rx   d 8 00 FF FF 00 00 02 15 00
 0.290200 1  171             Rx   d 8 F0 E0 00 00 00 00 00 00
 0.290463 1  204             Rx   d 8 00 00 FF 00 00 00 00 00
 0.290682 1  42F             Rx   d 8 7D 02 05 4E 20 FF 00 00
 0.300143 1  47              Rx   d 8 64 22 BC F4 3B 98 00 00
 0.300175 1  156             Rx   d 8 BA 00 00 00 03 00 00 00
 0.300466 1  165             Rx   d 8 20 81 00 00 00 00 00 00
 0.300662 1  166             Rx   d 8 76 00 00 FF FF FF 00 00
 0.300907 1  167             Rx   d 8 00 FF FF 00 00 02 15 00
 0.301137 1  178             Rx   d 8 00 00 02 00 09 60 C9 85
 0.301366 1  179             Rx   d 8 00 00 08 00 22 FF 00 00
 0.301625 1  17C             Rx   d 8 00 00 00 00 00 00 00 00
 0.301884 1  200             Rx   d 8 00 00 80 26 80 26 F0 00
 0.302143 1  202             Rx   d 8 00 CC 00 00 00 00 00 00
 0.302389 1  204             Rx   d 8 00 00 FF 00 00 00 00 00
 0.302640 1  230             Rx   d 8 F0 1C 00 00 00 00 00 00
 0.302871 1  421             Rx   d 8 04 00 11 00 00 00 FF 00
 0.303131 1  424             Rx   d 8 00 00 00 03 00 00 00 00
 0.303352 1  42D             Rx   d 8 00 01 60 00 00 00 F0 00
 0.303602 1  43D             Rx   d 8 14 00 21 00 00 00 00 00
 0.303853 1  43E             Rx   d 8 00 00 00 00 00 00 00 00
 0.310057 1  167             Rx   d 8 00 FF FF 00 00 02 15 00
 0.310243 1  204             Rx   d 8 00 00 FF 00 00 00 00 00
 0.320145 1  47              Rx   d 8 64 22 BC F4 3B 98 00 00
 0.320179 1  165             Rx   d 8 20 81 00 00 00 00 00 00
 0.320452 1  167             Rx   d 8 00 FF FF 00 00 02 15 00
 0.320686 1  171             Rx   d 8 F0 E0 00 00 00 00 00 00
 0.320894 1  200             Rx   d 8 00 00 80 26 80 26 F0 00
 0.321149 1  202             Rx   d 8 00 CC 00 00 00 00 00 00
 0.321396 1  204             Rx   d 8 00 00 FF 00 00 00 00 00
 0.321640 1  230             Rx   d 8 F0 1C 00 00 00 00 00 00
 0.321867 1  42F             Rx   d 8 7D 02 05 4E 20 FF 00 00
 0.330200 1  167             Rx   d 8 00 FF FF 00 00 02 15 00
 0.330230 1  204             Rx   d 8 00 00 FF 00 00 00 00 00
 0.330634 1  318             Rx   d 8 00 00 00 00 00 00 00 00
 0.330822 1  346             Rx   d 8 00 00 00 03 03 00 C0 00
 0.331097 1  348             Rx   d 8 00 00 00 01 00 00 00 00
 0.331338 1  430             Rx   d 8 40 00 40 9B 08 00 64 00
 0.331604 1  434             Rx   d 8 00 00 00 00 60 FF F0 00
 0.340168 1  47              Rx   d 8 64 22 BC F4 3B 98 00 00
 0.340203 1  165             Rx   d 8 20 81 00 00 00 00 00 00
 0.340468 1  167             Rx   d 8 00 FF FF 00 00 02 15 00
 0.340674 1  200             Rx   d 8 00 00 80 26 80 26 F0 00
 0.340902 1  202             Rx   d 8 00 CC 00 00 00 00 00 00
 0.341156 1  204             Rx   d 8 00 00 FF 00 00 00 00 00
 0.341411 1  230             Rx   d 8 F0 1C 00 00 00 00 00 00
 0.350047 1  167             Rx   d 8 00 FF FF 00 00 02 15 00
 0.350236 1  171             Rx   d 8 F0 E0 00 00 00 00 00 00
 0.350447 1  204             Rx   d 8 00 00 FF 00 00 00 00 00
 0.350701 1  42F             Rx   d 8 7D 02 05 4E 20 FF 00 00
 0.350933 1  43D             Rx   d 8 14 00 21 00 00 00 00 00
 0.351177 1  43E             Rx   d 8 00 00 00 00 00 00 00 00
 0.360219 1  47              Rx   d 8 64 22 BC F4 3B 98 00 00
 0.360260 1  165             Rx   d 8 20 81 00 00 00 00 00 00
 0.360444 1  167             Rx   d 8 00 FF FF 00 00 02 15 00
 0.360733 1  200             Rx   d 8 00 00 80 26 80 26 F0 00
 0.360944 1  202             Rx   d 8 00 CC 00 00 00 00 00 00
 0.361190 1  204             Rx   d 8 00 00 FF 00 00 00 00 00
 0.361429 1  230             Rx   d 8 F0 1C 00 00 00 00 00 00
 0.370215 1  167             Rx   d 8 00 FF FF 00 00 02 15 00
 0.370254 1  204             Rx   d 8 00 00 FF 00 00 00 00 00
 0.380147 1  47              Rx   d 8 64 22 BC F4 3B 98 00 00
 0.380180 1  165             Rx   d 8 20 81 00 00 00 00 00 00
 0.380457 1  167             Rx   d 8 00 FF FF 00 00 02 15 00
 0.380683 1  171             Rx   d 8 F0 E0 00 00 00 00 00 00
 0.380919 1  200             Rx   d 8 00 00 80 26 80 26 F0 00
 0.381166 1  202             Rx   d 8 00 CC 00 00 00 00 00 00
 0.381413 1  204             Rx   d 8 00 00 FF 00 00 00 00 00
 0.381660 1  230             Rx   d 8 F0 1C 00 00 00 00 00 00
 0.381903 1  42F             Rx   d 8 7D 02 05 4E 20 FF 00 00
 0.390080 1  167             Rx   d 8 00 FF FF 00 00 02 15 00
 0.390320 1  204             Rx   d 8 00 00 FF 00 00 00 00 00
 0.400152 1  47              Rx   d 8 64 22 BC F4 3B 98 00 00
 0.400186 1  156             Rx   d 8 BA 00 00 00 00 00 00 00
 0.400494 1  165             Rx   d 8 20 81 00 00 00 00 00 00
 0.400683 1  166             Rx   d 8 76 00 00 FF FF FF 00 00
 0.400910 1  167             Rx   d 8 00 FF FF 00 00 02 15 00
 0.401133 1  178             Rx   d 8 00 00 02 00 09 60 C9 84
 0.401379 1  179             Rx   d 8 00 00 08 00 22 FF 00 00
 0.401628 1  17C             Rx   d 8 00 00 00 00 00 00 00 00
 0.401864 1  200             Rx   d 8 00 00 80 26 80 26 F0 00
 0.402139 1  202             Rx   d 8 00 CC 00 00 00 00 00 00
 0.402372 1  204             Rx   d 8 00 00 FF 00 00 00 00 00
 0.402628 1  230             Rx   d 8 F0 1C 00 00 00 00 00 00
 0.402857 1  421             Rx   d 8 04 00 11 00 00 00 FF 00
 0.403141 1  424             Rx   d 8 00 00 00 03 00 00 00 00
 0.403373 1  42D             Rx   d 8 00 01 60 00 00 00 F0 00
 0.403605 1  43D             Rx   d 8 14 00 21 00 00 00 00 00
 0.403850 1  43E             Rx   d 8 00 00 00 00 00 00 00 00
 0.410191 1  167             Rx   d 8 00 FF FF 00 00 02 15 00
 0.410230 1  171             Rx   d 8 F0 E0 00 00 00 00 00 00
 0.410465 1  204             Rx   d 8 00 00 FF 00 00 00 00 00
 0.410686 1  42F             Rx   d 8 7D 02 05 4E 20 FF 00 00
 0.420142 1  47              Rx   d 8 64 22 BC F4 3B 98 00 00
 0.420181 1  165             Rx   d 8 20 81 00 00 00 00 00 00
 0.420478 1  167             Rx   d 8 00 FF FF 00 00 02 15 00
 0.420664 1  200             Rx   d 8 00 00 80 26 80 26 F0 00
 0.420942 1  202             Rx   d 8 00 CC 00 00 00 00 00 00
 0.421170 1  204             Rx   d 8 00 00 FF 00 00 00 00 00
 0.421429 1  230             Rx   d 8 F0 1C 00 00 00 00 00 00
 0.430222 1  167             Rx   d 8 00 FF FF 00 00 02 15 00
 0.430265 1  204             Rx   d 8 00 00 FF 00 00 00 00 00
 0.430455 1  287             Rx   d 8 00 00 00 00 00 00 00 00
 0.430711 1  30A             Rx   d 8 85 00 00 00 00 00 00 00
 0.430955 1  318             Rx   d 8 00 00 00 00 00 00 00 00
 0.431210 1  346             Rx   d 8 00 00 00 03 03 00 C0 00
 0.431474 1  348             Rx   d 8 00 00 00 01 00 00 00 00
 0.431785 1  430             Rx   d 8 40 00 40 9B 08 00 64 00
 0.431978 1  434             Rx   d 8 00 00 00 00 60 FF F0 00
 0.440147 1  47              Rx   d 8 64 22 BC F4 3B 98 00 00
 0.440178 1  165             Rx   d 8 20 81 00 00 00 00 00 00
 0.440437 1  167             Rx   d 8 00 FF FF 00 00 02 15 00
 0.440656 1  171             Rx   d 8 F0 E0 00 00 00 00 00 00
 0.440939 1  200             Rx   d 8 00 00 80 26 80 26 F0 00
 0.441169 1  202             Rx   d 8 00 CC 00 00 00 00 00 00
 0.441407 1  204             Rx   d 8 00 00 FF 00 00 00 00 00
 0.441646 1  230             Rx   d 8 F0 1C 00 00 00 00 00 00
 0.441879 1  42F             Rx   d 8 7D 02 05 4E 20 FF 00 00
 0.450065 1  167             Rx   d 8 00 FF FF 00 00 02 15 00
 0.450241 1  204             Rx   d 8 00 00 FF 00 00 00 00 00
 0.450416 1  43D             Rx   d 8 14 00 21 00 00 00 00 00
 0.450687 1  43E             Rx   d 8 00 00 00 00 00 00 00 00
 0.460045 1  47              Rx   d 8 64 22 BC F4 3B 98 00 00
 0.460215 1  165             Rx   d 8 20 81 00 00 00 00 00 00
 0.460428 1  167             Rx   d 8 00 FF FF 00 00 02 15 00
 0.460649 1  200             Rx   d 8 00 00 80 26 80 26 F0 00
 0.460889 1  202             Rx   d 8 00 CC 00 00 00 00 00 00
 0.461149 1  204             Rx   d 8 00 00 FF 00 00 00 00 00
 0.461394 1  230             Rx   d 8 F0 1C 00 00 00 00 00 00
 0.470192 1  167             Rx   d 8 00 FF FF 00 00 02 15 00
 0.470227 1  171             Rx   d 8 F0 E0 00 00 00 00 00 00
 0.470446 1  204             Rx   d 8 00 00 FF 00 00 00 00 00
 0.470657 1  42F             Rx   d 8 7D 02 05 4E 20 FF 00 00
 0.480196 1  47              Rx   d 8 64 22 BC F4 3B 98 00 00
 0.480234 1  165             Rx   d 8 20 81 00 00 00 00 00 00
 0.480423 1  167             Rx   d 8 00 FF FF 00 00 02 15 00
 0.480669 1  200             Rx   d 8 00 00 80 26 80 26 F0 00
 0.480920 1  202             Rx   d 8 00 CC 00 00 00 00 00 00
 0.481156 1  204             Rx   d 8 00 00 FF 00 00 00 00 00
 0.481419 1  230             Rx   d 8 F0 1C 00 00 00 00 00 00
 0.490140 1  167             Rx   d 8 00 FF FF 00 00 02 15 00
 0.490169 1  204             Rx   d 8 00 00 FF 00 00 00 00 00
 0.500019 1  47              Rx   d 8 64 22 BC F4 3B 98 00 00
 0.500192 1  156             Rx   d 8 BA 00 00 00 00 00 00 00
 0.500406 1  165             Rx   d 8 20 81 00 00 00 00 00 00
 0.500639 1  166             Rx   d 8 76 00 00 FF FF FF 00 00
 0.500907 1  167             Rx   d 8 00 FF FF 00 00 02 15 00
 0.501131 1  171             Rx   d 8 F0 E0 00 00 00 00 00 00
 0.501374 1  178             Rx   d 8 00 00 02 00 09 60 C9 82
 0.501608 1  179             Rx   d 8 00 00 08 00 22 FF 00 00
 0.501868 1  17C             Rx   d 8 00 00 00 00 00 00 00 00
 0.502133 1  200             Rx   d 8 00 00 80 26 80 26 F0 00
 0.502385 1  202             Rx   d 8 00 CC 00 00 00 00 00 00
 0.502644 1  204             Rx   d 8 00 00 FF 00 00 00 00 00
 0.502868 1  230             Rx   d 8 F0 1C 00 00 00 00 00 00
 0.503119 1  421             Rx   d 8 04 00 11 00 00 00 FF 00
 0.503379 1  424             Rx   d 8 00 00 00 03 00 00 00 00
 0.503630 1  42D             Rx   d 8 00 01 60 00 00 00 F0 00
 0.503897 1  42F             Rx   d 8 7D 02 05 4E 20 FF 00 00
 0.504095 1  43D             Rx   d 8 14 00 21 00 00 00 00 00
 0.504341 1  43E             Rx   d 8 00 00 00 00 00 00 00 00
 0.510186 1  167             Rx   d 8 00 FF FF 00 00 02 15 00
 0.510231 1  204             Rx   d 8 00 00 FF 00 00 00 00 00
 0.520190 1  47              Rx   d 8 64 22 BC F4 3B 98 00 00
 0.520218 1  165             Rx   d 8 20 81 00 00 00 00 00 00
 0.520433 1  167             Rx   d 8 00 FF FF 00 00 02 15 00
 0.520666 1  200             Rx   d 8 00 00 80 26 80 26 F0 00
 0.520908 1  202             Rx   d 8 00 CC 00 00 00 00 00 00
 0.521157 1  204             Rx   d 8 00 00 FF 00 00 00 00 00
 0.521415 1  230             Rx   d 8 F0 1C 00 00 00 00 00 00
 0.530066 1  167             Rx   d 8 00 FF FF 00 00 02 15 00
 0.530241 1  171             Rx   d 8 F0 E0 00 00 00 00 00 00
 0.530419 1  204             Rx   d 8 00 00 FF 00 00 00 00 00
 0.530686 1  318             Rx   d 8 00 00 00 00 00 00 00 00
 0.530967 1  42F             Rx   d 8 7D 02 05 4E 20 FF 00 00
 0.531184 1  346             Rx   d 8 00 00 00 03 03 00 C0 00
 0.531445 1  348             Rx   d 8 00 00 00 01 00 00 00 00
 0.531687 1  430             Rx   d 8 40 00 40 9B 08 00 64 00
 0.531953 1  434             Rx   d 8 00 00 00 00 60 FF F0 00
 0.540063 1  47              Rx   d 8 64 22 BC F4 3B 98 00 00
