date Fri Mar 21 06:41:40.885 PM 2025
base hex  timestamps absolute
internal events logged
Begin Triggerblock Fri Mar 21 06:41:41.994 PM 2025
 0.000000 Start of measurement
 0.000000 1  ErrorFrame
 0.001002 1  ErrorFrame
 0.001259 1  59E             Rx   d 8 9E 00 FF FF FF FF FF FF
 0.001700 1  591             Tx   d 8 91 00 FF FF FF FF FF FF
 0.001718 1  3B2             Tx   d 8 40 00 00 80 00 00 00 00
 0.001725 1  ErrorFrame
 0.002034 1  48              Rx   d 8 00 00 00 00 07 00 E0 00
 0.002327 1  4A              Rx   d 8 02 00 00 00 00 00 00 00
 0.002518 1  4B              Rx   d 8 00 00 00 00 00 00 00 00
 0.002755 1  76              Rx   d 8 00 00 1F F7 FC 00 00 F0
 0.003009 1  77              Rx   d 8 1F FE 0F FE 00 01 00 00
 0.003253 1  108             Rx   d 8 00 04 00 00 80 00 72 64
 0.003500 1  109             Rx   d 8 00 00 EE 00 00 00 04 01
 0.003752 1  14C             Rx   d 8 08 00 00 01 00 00 00 00
 0.003988 1  20A             Rx   d 8 F1 F8 00 00 00 00 4E 20
 0.004298 1  263             Rx   d 8 00 00 00 00 00 00 00 00
 0.004763 1  275             Rx   d 8 00 00 00 00 00 00 00 00
 0.004778 1  277             Rx   d 8 00 00 00 00 02 53 00 00
 0.004996 1  279             Rx   d 8 00 50 00 3C A8 96 01 00
 0.005297 1  27A             Rx   d 8 00 FF FE 00 00 00 00 00
 0.005448 1  303             Rx   d 8 00 00 00 00 00 00 00 00
 0.005730 1  307             Rx   d 8 06 00 00 00 00 00 00 00
 0.005965 1  38A             Rx   d 8 4E 00 00 01 00 46 00 00
 0.006202 1  167             Rx   d 8 00 FF FF 00 00 02 0F 00
 0.006459 1  171             Rx   d 8 F0 E0 00 00 00 00 00 00
 0.006746 1  204             Rx   d 8 00 00 FF 00 00 00 00 00
 0.006972 1  3A8             Rx   d 8 06 00 00 00 00 00 00 00
 0.007280 1  3AE             Rx   d 8 00 00 00 00 00 00 00 00
 0.007461 1  3B3             Rx   d 8 44 80 00 0C FE 00 00 00
 0.007722 1  3CA             Rx   d 8 04 00 00 00 00 00 00 00
 0.007945 1  3D0             Rx   d 8 01 0F 48 99 80 00 1F FE
 0.008190 1  412             Rx   d 8 7D 00 80 80 00 00 00 00
 0.008424 1  424             Rx   d 8 00 26 80 03 00 00 30 00
 0.008667 1  42C             Rx   d 8 30 31 C4 80 00 00 00 97
 0.008896 1  42F             Rx   d 8 7D 02 05 4E 26 0B 00 00
 0.009212 1  431             Rx   d 8 00 00 00 00 00 00 00 00
 0.009477 1  432             Rx   d 8 00 00 00 00 00 00 00 00
 0.009651 1  433             Rx   d 8 C0 00 00 00 00 90 00 00
 0.009944 1  46A             Rx   d 8 00 00 00 88 00 10 C0 00
 0.010120 1  46B             Rx   d 8 B8 A0 48 00 00 00 D2 09
 0.010389 1  470             Rx   d 8 00 00 40 00 00 00 00 00
 0.010646 1  479             Rx   d 8 00 00 00 00 00 00 00 00
 0.016527 1  167             Rx   d 8 00 FF FF 00 00 02 0F 00
 0.016962 1  202             Rx   d 8 00 CC 00 00 00 00 00 00
 0.017244 1  204             Rx   d 8 00 00 FF 00 00 00 00 00
 0.021906 1  76              Rx   d 8 00 00 1F F7 FC 00 00 F0
 0.022069 1  20A             Rx   d 8 F1 F8 00 00 00 00 4E 20
 0.026242 1  167             Rx   d 8 00 FF FF 00 00 02 0F 00
 0.026279 1  204             Rx   d 8 00 00 FF 00 00 00 00 00
 0.031683 1  3CA             Rx   d 8 04 00 00 00 00 00 00 00
 0.036434 1  156             Rx   d 8 BA 00 00 00 00 00 00 00
 0.036748 1  166             Rx   d 8 76 00 00 FF FF FF 00 00
 0.037034 1  167             Rx   d 8 00 FF FF 00 00 02 0F 00
 0.037217 1  171             Rx   d 8 F0 E0 00 00 00 00 00 00
 0.037523 1  178             Rx   d 8 00 00 02 00 02 54 CA 53
 0.037709 1  179             Rx   d 8 00 00 08 00 22 FF 00 00
 0.037991 1  17C             Rx   d 8 00 00 00 00 00 00 00 00
 0.038442 1  202             Rx   d 8 00 CC 00 00 00 00 00 00
 0.038670 1  204             Rx   d 8 00 00 FF 00 00 00 00 00
 0.039270 1  421             Rx   d 8 04 00 11 00 00 00 FF 00
 0.039698 1  42D             Rx   d 8 00 03 FF 00 00 00 F0 00
 0.042567 1  76              Rx   d 8 00 00 1F F7 FC 00 00 F0
 0.042745 1  20A             Rx   d 8 F1 F8 00 00 00 00 4E 20
 0.046067 1  167             Rx   d 8 00 FF FF 00 00 02 0F 00
 0.046240 1  204             Rx   d 8 00 00 FF 00 00 00 00 00
 0.051721 1  412             Rx   d 8 7D 00 80 80 00 00 00 00
 0.051753 1  42F             Rx   d 8 7D 02 05 4E 26 0B 00 00
 0.056662 1  167             Rx   d 8 00 FF FF 00 00 02 0F 00
 0.056990 1  202             Rx   d 8 00 CC 00 00 00 00 00 00
 0.057295 1  204             Rx   d 8 00 00 FF 00 00 00 00 00
 0.062190 1  76              Rx   d 8 00 00 1F F7 FC 00 00 F0
 0.062232 1  20A             Rx   d 8 F1 F8 00 00 00 00 4E 20
 0.062412 1  3CA             Rx   d 8 04 00 00 00 00 00 00 00
 0.063440 1  40A             Rx   d 8 C0 00 00 23 61 06 C7 00
 0.066614 1  167             Rx   d 8 00 FF FF 00 00 02 0F 00
 0.066670 1  171             Rx   d 8 F0 E0 00 00 00 00 00 00
 0.066678 1  204             Rx   d 8 00 00 FF 00 00 00 00 00
 0.076536 1  167             Rx   d 8 00 FF FF 00 00 02 0F 00
 0.076970 1  202             Rx   d 8 00 CC 00 00 00 00 00 00
 0.077171 1  204             Rx   d 8 00 00 FF 00 00 00 00 00
 0.081965 1  76              Rx   d 8 00 00 1F F7 FC 00 00 F0
 0.082112 1  20A             Rx   d 8 F1 F8 00 00 00 00 4E 20
 0.086336 1  167             Rx   d 8 00 FF FF 00 00 02 0F 00
 0.086379 1  204             Rx   d 8 00 00 FF 00 00 00 00 00
 0.091785 1  3CA             Rx   d 8 04 00 00 00 00 00 00 00
 0.096672 1  167             Rx   d 8 00 FF FF 00 00 02 0F 00
 0.096704 1  171             Rx   d 8 F0 E0 00 00 00 00 00 00
 0.097260 1  202             Rx   d 8 00 CC 00 00 00 00 00 00
 0.097531 1  204             Rx   d 8 00 00 FF 00 00 00 00 00
 0.102422 1  48              Rx   d 8 00 00 00 00 07 00 E0 00
 0.102575 1  76              Rx   d 8 00 00 1F F7 FC 00 00 F0
 0.102802 1  20A             Rx   d 8 F1 F8 00 00 00 00 4E 20
 0.103016 1  38A             Rx   d 8 4E 00 00 01 00 46 00 00
 0.103322 1  412             Rx   d 8 7D 00 80 80 00 00 00 00
 0.103514 1  42F             Rx   d 8 7D 02 05 4E 26 0B 00 00
 0.103746 1  433             Rx   d 8 C0 00 00 00 00 90 00 00
 0.104017 1  470             Rx   d 8 00 00 40 00 00 00 00 00
 0.106012 1  167             Rx   d 8 00 FF FF 00 00 02 0F 00
 0.106269 1  204             Rx   d 8 00 00 FF 00 00 00 00 00
 0.116604 1  167             Rx   d 8 00 FF FF 00 00 02 0F 00
 0.116984 1  202             Rx   d 8 00 CC 00 00 00 00 00 00
 0.117186 1  204             Rx   d 8 00 00 FF 00 00 00 00 00
 0.121981 1  76              Rx   d 8 00 00 1F F7 FC 00 00 F0
 0.122138 1  20A             Rx   d 8 F1 F8 00 00 00 00 4E 20
 0.122356 1  3CA             Rx   d 8 04 00 00 00 00 00 00 00
 0.126273 1  167             Rx   d 8 00 FF FF 00 00 02 0F 00
 0.126318 1  171             Rx   d 8 F0 E0 00 00 00 00 00 00
 0.126528 1  204             Rx   d 8 00 00 FF 00 00 00 00 00
 0.136321 1  156             Rx   d 8 BA 00 00 00 00 00 00 00
 0.136704 1  166             Rx   d 8 76 00 00 FF FF FF 00 00
 0.137018 1  167             Rx   d 8 00 FF FF 00 00 02 0F 00
 0.137174 1  178             Rx   d 8 00 00 02 00 02 54 CA 53
 0.137824 1  179             Rx   d 8 00 00 08 00 22 FF 00 00
 0.137858 1  17C             Rx   d 8 00 00 00 00 00 00 00 00
 0.138713 1  202             Rx   d 8 00 CC 00 00 00 00 00 00
 0.138760 1  204             Rx   d 8 00 00 FF 00 00 00 00 00
 0.139108 1  421             Rx   d 8 04 00 11 00 00 00 FF 00
 0.139532 1  42D             Rx   d 8 00 03 FF 00 00 00 F0 00
 0.142925 1  76              Rx   d 8 00 00 1F F7 FC 00 00 F0
 0.142957 1  20A             Rx   d 8 F1 F8 00 00 00 00 4E 20
 0.146034 1  167             Rx   d 8 00 FF FF 00 00 02 0F 00
 0.146264 1  204             Rx   d 8 00 00 FF 00 00 00 00 00
 0.151667 1  3CA             Rx   d 8 04 00 00 00 00 00 00 00
 0.151696 1  412             Rx   d 8 7D 00 80 80 00 00 00 00
 0.151955 1  42F             Rx   d 8 7D 02 05 4E 26 0B 00 00
 0.152193 1  479             Rx   d 8 00 00 00 00 00 00 00 00
 0.156524 1  167             Rx   d 8 00 FF FF 00 00 02 0F 00
 0.156667 1  171             Rx   d 8 F0 E0 00 00 00 00 00 00
 0.157186 1  202             Rx   d 8 00 CC 00 00 00 00 00 00
 0.157407 1  204             Rx   d 8 00 00 FF 00 00 00 00 00
 0.161531 1  3B8             Rx   d 8 FF FF FF FF 00 00 00 00
 0.162457 1  76              Rx   d 8 00 00 1F F7 FC 00 00 F0
 0.162588 1  20A             Rx   d 8 F1 F8 00 00 00 00 4E 20
 0.166073 1  167             Rx   d 8 00 FF FF 00 00 02 0F 00
 0.166216 1  204             Rx   d 8 00 00 FF 00 00 00 00 00
 0.176662 1  167             Rx   d 8 00 FF FF 00 00 02 0F 00
 0.176987 1  202             Rx   d 8 00 CC 00 00 00 00 00 00
 0.177211 1  204             Rx   d 8 00 00 FF 00 00 00 00 00
 0.182759 1  76              Rx   d 8 00 00 1F F7 FC 00 00 F0
 0.182822 1  20A             Rx   d 8 F1 F8 00 00 00 00 4E 20
 0.182831 1  3CA             Rx   d 8 04 00 00 00 00 00 00 00
 0.186054 1  167             Rx   d 8 00 FF FF 00 00 02 0F 00
 0.186240 1  171             Rx   d 8 F0 E0 00 00 00 00 00 00
 0.186479 1  204             Rx   d 8 00 00 FF 00 00 00 00 00
 0.196534 1  167             Rx   d 8 00 FF FF 00 00 02 0F 00
 0.196932 1  202             Rx   d 8 00 CC 00 00 00 00 00 00
 0.197157 1  204             Rx   d 8 00 00 FF 00 00 00 00 00
 0.202018 1  48              Rx   d 8 00 00 00 00 07 00 E0 00
 0.202218 1  76              Rx   d 8 00 00 1F F7 FC 00 00 F0
 0.202390 1  14C             Rx   d 8 08 00 00 01 00 00 00 00
 0.202627 1  20A             Rx   d 8 F1 F8 00 00 00 00 4E 20
 0.202885 1  412             Rx   d 8 7D 00 80 80 00 00 00 00
 0.203110 1  42F             Rx   d 8 7D 02 05 4E 26 0B 00 00
 0.203359 1  433             Rx   d 8 C0 00 00 00 00 90 00 00
 0.203619 1  470             Rx   d 8 00 00 40 00 00 00 00 00
 0.206046 1  167             Rx   d 8 00 FF FF 00 00 02 0F 00
 0.206234 1  204             Rx   d 8 00 00 FF 00 00 00 00 00
 0.212016 1  3CA             Rx   d 8 04 00 00 00 00 00 00 00
 0.216793 1  167             Rx   d 8 00 FF FF 00 00 02 0F 00
 0.216838 1  171             Rx   d 8 F0 E0 00 00 00 00 00 00
 0.217438 1  202             Rx   d 8 00 CC 00 00 00 00 00 00
 0.217462 1  204             Rx   d 8 00 00 FF 00 00 00 00 00
 0.220205 1  3B5             Rx   d 8 FF FD FF FD FF FD FF FD
 0.222539 1  76              Rx   d 8 00 00 1F F7 FC 00 00 F0
 0.222569 1  20A             Rx   d 8 F1 F8 00 00 00 00 4E 20
 0.226627 1  167             Rx   d 8 00 FF FF 00 00 02 0F 00
 0.226686 1  204             Rx   d 8 00 00 FF 00 00 00 00 00
 0.236372 1  156             Rx   d 8 BA 00 00 00 00 00 00 00
 0.236676 1  166             Rx   d 8 76 00 00 FF FF FF 00 00
 0.236927 1  167             Rx   d 8 00 FF FF 00 00 02 0F 00
 0.237174 1  178             Rx   d 8 00 00 02 00 02 54 CA 53
 0.237417 1  179             Rx   d 8 00 00 08 00 22 FF 00 00
 0.237671 1  17C             Rx   d 8 00 00 00 00 00 00 00 00
 0.238166 1  202             Rx   d 8 00 CC 00 00 00 00 00 00
 0.238392 1  204             Rx   d 8 00 00 FF 00 00 00 00 00
 0.239145 1  421             Rx   d 8 04 00 11 00 00 00 FF 00
 0.239634 1  42D             Rx   d 8 00 03 FF 00 00 00 F0 00
 0.242589 1  76              Rx   d 8 00 00 1F F7 FC 00 00 F0
 0.242736 1  20A             Rx   d 8 F1 F8 00 00 00 00 4E 20
 0.242969 1  3CA             Rx   d 8 04 00 00 00 00 00 00 00
 0.246078 1  167             Rx   d 8 00 FF FF 00 00 02 0F 00
 0.246225 1  171             Rx   d 8 F0 E0 00 00 00 00 00 00
 0.246458 1  204             Rx   d 8 00 00 FF 00 00 00 00 00
 0.252231 1  412             Rx   d 8 7D 00 80 80 00 00 00 00
 0.252329 1  42C             Rx   d 8 30 31 C4 80 00 00 00 96
 0.252337 1  42F             Rx   d 8 7D 02 05 4E 26 0B 00 00
 0.256684 1  167             Rx   d 8 00 FF FF 00 00 02 0F 00
 0.257027 1  202             Rx   d 8 00 CC 00 00 00 00 00 00
 0.257237 1  204             Rx   d 8 00 00 FF 00 00 00 00 00
 0.259912 1  3B2             Rx   d 8 44 8C C0 0C E6 00 03 3E
 0.259948 1  40A             Rx   d 8 C1 00 57 46 30 4A 58 58
 0.263142 1  76              Rx   d 8 00 00 1F F7 FC 00 00 F0
 0.263293 1  20A             Rx   d 8 F1 F8 00 00 00 00 4E 20
 0.266612 1  167             Rx   d 8 00 FF FF 00 00 02 0F 00
 0.266670 1  204             Rx   d 8 00 00 FF 00 00 00 00 00
 0.271593 1  3CA             Rx   d 8 04 00 00 00 00 00 00 00
 0.276546 1  167             Rx   d 8 00 FF FF 00 00 02 0F 00
 0.276700 1  171             Rx   d 8 F0 E0 00 00 00 00 00 00
 0.277233 1  202             Rx   d 8 00 CC 00 00 00 00 00 00
 0.277450 1  204             Rx   d 8 00 00 FF 00 00 00 00 00
 0.282310 1  76              Rx   d 8 00 00 1F F7 FC 00 00 F0
 0.282343 1  20A             Rx   d 8 F1 F8 00 00 00 00 4E 20
 0.286082 1  167             Rx   d 8 00 FF FF 00 00 02 0F 00
 0.286244 1  204             Rx   d 8 00 00 FF 00 00 00 00 00
 0.296630 1  167             Rx   d 8 00 FF FF 00 00 02 0F 00
 0.296939 1  202             Rx   d 8 00 CC 00 00 00 00 00 00
 0.297174 1  204             Rx   d 8 00 00 FF 00 00 00 00 00
 0.302466 1  48              Rx   d 8 00 00 00 00 07 00 E0 00
 0.302496 1  76              Rx   d 8 00 00 1F F7 FC 00 00 F0
 0.302719 1  20A             Rx   d 8 F1 F8 00 00 00 00 4E 20
 0.302947 1  3CA             Rx   d 8 04 00 00 00 00 00 00 00
 0.303255 1  412             Rx   d 8 7D 00 80 80 00 00 00 00
 0.303465 1  42F             Rx   d 8 7D 02 05 4E 26 0B 00 00
 0.303700 1  433             Rx   d 8 C0 00 00 00 00 90 00 00
 0.303936 1  470             Rx   d 8 00 00 40 00 00 00 00 00
 0.304230 1  479             Rx   d 8 00 00 00 00 00 00 00 00
 0.306271 1  167             Rx   d 8 00 FF FF 00 00 02 0F 00
 0.306301 1  171             Rx   d 8 F0 E0 00 00 00 00 00 00
 0.306523 1  204             Rx   d 8 00 00 FF 00 00 00 00 00
 0.316567 1  167             Rx   d 8 00 FF FF 00 00 02 0F 00
 0.316983 1  202             Rx   d 8 00 CC 00 00 00 00 00 00
 0.317205 1  204             Rx   d 8 00 00 FF 00 00 00 00 00
 0.322081 1  76              Rx   d 8 00 00 1F F7 FC 00 00 F0
 0.322371 1  20A             Rx   d 8 F1 F8 00 00 00 00 4E 20
 0.326090 1  167             Rx   d 8 00 FF FF 00 00 02 0F 00
 0.326245 1  204             Rx   d 8 00 00 FF 00 00 00 00 00
 0.331873 1  3CA             Rx   d 8 04 00 00 00 00 00 00 00
 0.336350 1  156             Rx   d 8 BA 00 00 00 00 00 00 00
 0.336712 1  166             Rx   d 8 76 00 00 FF FF FF 00 00
 0.336937 1  167             Rx   d 8 00 FF FF 00 00 02 0F 00
 0.337214 1  171             Rx   d 8 F0 E0 00 00 00 00 00 00
 0.337457 1  178             Rx   d 8 00 00 02 00 02 54 CA 53
 0.337940 1  179             Rx   d 8 00 00 08 00 22 FF 00 00
 0.338230 1  17C             Rx   d 8 00 00 00 00 00 00 00 00
 0.338697 1  202             Rx   d 8 00 CC 00 00 00 00 00 00
 0.338931 1  204             Rx   d 8 00 00 FF 00 00 00 00 00
 0.339789 1  421             Rx   d 8 04 00 11 00 00 00 FF 00
 0.340223 1  42D             Rx   d 8 00 03 FF 00 00 00 F0 00
 0.343129 1  76              Rx   d 8 00 00 1F F7 FC 00 00 F0
 0.343231 1  20A             Rx   d 8 F1 F8 00 00 00 00 4E 20
 0.346264 1  167             Rx   d 8 00 FF FF 00 00 02 0F 00
 0.346293 1  204             Rx   d 8 00 00 FF 00 00 00 00 00
 0.351734 1  412             Rx   d 8 7D 00 80 80 00 00 00 00
 0.351763 1  42F             Rx   d 8 7D 02 05 4E 26 0B 00 00
 0.356538 1  167             Rx   d 8 00 FF FF 00 00 02 0F 00
 0.356981 1  202             Rx   d 8 00 CC 00 00 00 00 00 00
 0.357217 1  204             Rx   d 8 00 00 FF 00 00 00 00 00
 0.362563 1  76              Rx   d 8 00 00 1F F7 FC 00 00 F0
 0.362595 1  20A             Rx   d 8 F1 F8 00 00 00 00 4E 20
 0.362752 1  3CA             Rx   d 8 04 00 00 00 00 00 00 00
 0.366071 1  167             Rx   d 8 00 FF FF 00 00 02 0F 00
 0.366232 1  171             Rx   d 8 F0 E0 00 00 00 00 00 00
 0.366476 1  204             Rx   d 8 00 00 FF 00 00 00 00 00
 0.376555 1  167             Rx   d 8 00 FF FF 00 00 02 0F 00
 0.377284 1  202             Rx   d 8 00 CC 00 00 00 00 00 00
 0.377429 1  204             Rx   d 8 00 00 FF 00 00 00 00 00
 0.382487 1  76              Rx   d 8 00 00 1F F7 FC 00 00 F0
 0.382525 1  20A             Rx   d 8 F1 F8 00 00 00 00 4E 20
 0.386243 1  167             Rx   d 8 00 FF FF 00 00 02 0F 00
 0.386274 1  204             Rx   d 8 00 00 FF 00 00 00 00 00
 0.391654 1  3CA             Rx   d 8 04 00 00 00 00 00 00 00
 0.396744 1  167             Rx   d 8 00 FF FF 00 00 02 0F 00
 0.396939 1  171             Rx   d 8 F0 E0 00 00 00 00 00 00
 0.397443 1  202             Rx   d 8 00 CC 00 00 00 00 00 00
 0.397655 1  204             Rx   d 8 00 00 FF 00 00 00 00 00
 0.402527 1  48              Rx   d 8 00 00 00 00 07 00 E0 00
 0.402568 1  76              Rx   d 8 00 00 1F F7 FC 00 00 F0
 0.402796 1  14C             Rx   d 8 08 00 00 01 00 00 00 00
 0.403025 1  20A             Rx   d 8 F1 F8 00 00 00 00 4E 20
 0.403266 1  412             Rx   d 8 7D 00 80 80 00 00 00 00
 0.403505 1  42F             Rx   d 8 7D 02 05 4E 26 0B 00 00
 0.403769 1  433             Rx   d 8 C0 00 00 00 00 90 00 00
 0.404003 1  470             Rx   d 8 00 00 40 00 00 00 00 00
 0.406082 1  167             Rx   d 8 00 FF FF 00 00 02 0F 00
 0.406316 1  204             Rx   d 8 00 00 FF 00 00 00 00 00
 0.416893 1  167             Rx   d 8 00 FF FF 00 00 02 0F 00
 0.417262 1  202             Rx   d 8 00 CC 00 00 00 00 00 00
 0.417446 1  204             Rx   d 8 00 00 FF 00 00 00 00 00
 0.422687 1  76              Rx   d 8 00 00 1F F7 FC 00 00 F0
 0.422716 1  20A             Rx   d 8 F1 F8 00 00 00 00 4E 20
 0.422965 1  3CA             Rx   d 8 04 00 00 00 00 00 00 00
 0.426244 1  167             Rx   d 8 00 FF FF 00 00 02 0F 00
 0.426276 1  171             Rx   d 8 F0 E0 00 00 00 00 00 00
 0.426497 1  204             Rx   d 8 00 00 FF 00 00 00 00 00
 0.436361 1  156             Rx   d 8 BA 00 00 00 00 00 00 00
 0.436710 1  166             Rx   d 8 76 00 00 FF FF FF 00 00
 0.436955 1  167             Rx   d 8 00 FF FF 00 00 02 0F 00
 0.437182 1  178             Rx   d 8 00 00 02 00 02 54 CA 53
 0.437418 1  179             Rx   d 8 00 00 08 00 22 FF 00 00
 0.437674 1  17C             Rx   d 8 00 00 00 00 00 00 00 00
 0.438185 1  202             Rx   d 8 00 CC 00 00 00 00 00 00
 0.438416 1  204             Rx   d 8 00 00 FF 00 00 00 00 00
 0.438884 1  421             Rx   d 8 04 00 11 00 00 00 FF 00
 0.439387 1  42D             Rx   d 8 00 03 FF 00 00 00 F0 00
 0.442595 1  76              Rx   d 8 00 00 1F F7 FC 00 00 F0
 0.442628 1  20A             Rx   d 8 F1 F8 00 00 00 00 4E 20
 0.446048 1  167             Rx   d 8 00 FF FF 00 00 02 0F 00
 0.446199 1  204             Rx   d 8 00 00 FF 00 00 00 00 00
 0.451927 1  3CA             Rx   d 8 04 00 00 00 00 00 00 00
 0.451964 1  412             Rx   d 8 7D 00 80 80 00 00 00 00
 0.452107 1  42F             Rx   d 8 7D 02 05 4E 26 0B 00 00
 0.452419 1  479             Rx   d 8 00 00 00 00 00 00 00 00
 0.456760 1  167             Rx   d 8 00 FF FF 00 00 02 0F 00
 0.456797 1  171             Rx   d 8 F0 E0 00 00 00 00 00 00
 0.457328 1  202             Rx   d 8 00 CC 00 00 00 00 00 00
 0.457475 1  204             Rx   d 8 00 00 FF 00 00 00 00 00
 0.458436 1  40A             Rx   d 8 C1 01 47 41 48 4A 48 45
 0.462925 1  76              Rx   d 8 00 00 1F F7 FC 00 00 F0
 0.462956 1  20A             Rx   d 8 F1 F8 00 00 00 00 4E 20
 0.466268 1  167             Rx   d 8 00 FF FF 00 00 02 0F 00
 0.466328 1  204             Rx   d 8 00 00 FF 00 00 00 00 00
 0.476572 1  167             Rx   d 8 00 FF FF 00 00 02 0F 00
 0.476944 1  202             Rx   d 8 00 CC 00 00 00 00 00 00
 0.477181 1  204             Rx   d 8 00 00 FF 00 00 00 00 00
 0.482124 1  76              Rx   d 8 00 00 1F F7 FC 00 00 F0
 0.482535 1  20A             Rx   d 8 F1 F8 00 00 00 00 4E 20
 0.482550 1  3CA             Rx   d 8 04 00 00 00 00 00 00 00
 0.486058 1  167             Rx   d 8 00 FF FF 00 00 02 0F 00
 0.486224 1  171             Rx   d 8 F0 E0 00 00 00 00 00 00
 0.486481 1  204             Rx   d 8 00 00 FF 00 00 00 00 00
 0.496615 1  167             Rx   d 8 00 FF FF 00 00 02 0F 00
 0.496953 1  202             Rx   d 8 00 CC 00 00 00 00 00 00
 0.497179 1  204             Rx   d 8 00 00 FF 00 00 00 00 00
 0.502301 1  48              Rx   d 8 00 00 00 00 07 00 E0 00
 0.502344 1  76              Rx   d 8 00 00 1F F7 FC 00 00 F0
 0.502533 1  20A             Rx   d 8 F1 F8 00 00 00 00 4E 20
 0.502777 1  412             Rx   d 8 7D 00 80 80 00 00 00 00
 0.503003 1  42C             Rx   d 8 30 31 C4 80 00 00 00 96
 0.503292 1  42F             Rx   d 8 7D 02 05 4E 26 0B 00 00
 0.503500 1  433             Rx   d 8 C0 00 00 00 00 90 00 00
 0.503740 1  470             Rx   d 8 00 00 40 00 00 00 00 00
 0.506226 1  167             Rx   d 8 00 FF FF 00 00 02 0F 00
 0.506261 1  204             Rx   d 8 00 00 FF 00 00 00 00 00
 0.511705 1  3CA             Rx   d 8 04 00 00 00 00 00 00 00
 0.516570 1  167             Rx   d 8 00 FF FF 00 00 02 0F 00
 0.516728 1  171             Rx   d 8 F0 E0 00 00 00 00 00 00
 0.517191 1  202             Rx   d 8 00 CC 00 00 00 00 00 00
 0.517423 1  204             Rx   d 8 00 00 FF 00 00 00 00 00
 0.522425 1  76              Rx   d 8 00 00 1F F7 FC 00 00 F0
 0.522466 1  20A             Rx   d 8 F1 F8 00 00 00 00 4E 20
 0.526039 1  167             Rx   d 8 00 FF FF 00 00 02 0F 00
 0.526213 1  204             Rx   d 8 00 00 FF 00 00 00 00 00
 0.536336 1  156             Rx   d 8 BA 00 00 00 00 00 00 00
 0.536702 1  166             Rx   d 8 76 00 00 FF FF FF 00 00
 0.536963 1  167             Rx   d 8 00 FF FF 00 00 02 0F 00
 0.537196 1  178             Rx   d 8 00 00 02 00 02 54 CA 53
 0.537431 1  179             Rx   d 8 00 00 08 00 22 FF 00 00
 0.537682 1  17C             Rx   d 8 00 00 00 00 00 00 00 00
 0.538262 1  202             Rx   d 8 00 CC 00 00 00 00 00 00
 0.538475 1  204             Rx   d 8 00 00 FF 00 00 00 00 00
 0.538913 1  421             Rx   d 8 04 00 11 00 00 00 FF 00
 0.539416 1  42D             Rx   d 8 00 03 FF 00 00 00 F0 00
 0.542603 1  76              Rx   d 8 00 00 1F F7 FC 00 00 F0
 0.542636 1  20A             Rx   d 8 F1 F8 00 00 00 00 4E 20
 0.542881 1  3CA             Rx   d 8 04 00 00 00 00 00 00 00
 0.546285 1  167             Rx   d 8 00 FF FF 00 00 02 0F 00
 0.546331 1  171             Rx   d 8 F0 E0 00 00 00 00 00 00
 0.546526 1  204             Rx   d 8 00 00 FF 00 00 00 00 00
 0.551782 1  412             Rx   d 8 7D 00 80 80 00 00 00 00
 0.551933 1  42F             Rx   d 8 7D 02 05 4E 26 0B 00 00
 0.556535 1  167             Rx   d 8 00 FF FF 00 00 02 0F 00
 0.556934 1  202             Rx   d 8 00 CC 00 00 00 00 00 00
 0.557168 1  204             Rx   d 8 00 00 FF 00 00 00 00 00
 0.562140 1  76              Rx   d 8 00 00 1F F7 FC 00 00 F0
 0.562233 1  20A             Rx   d 8 F1 F8 00 00 00 00 4E 20
 0.566081 1  167             Rx   d 8 00 FF FF 00 00 02 0F 00
 0.566259 1  204             Rx   d 8 00 00 FF 00 00 00 00 00
 0.571841 1  3CA             Rx   d 8 04 00 00 00 00 00 00 00
 0.576703 1  167             Rx   d 8 00 FF FF 00 00 02 0F 00
 0.576754 1  171             Rx   d 8 F0 E0 00 00 00 00 00 00
 0.577212 1  202             Rx   d 8 00 CC 00 00 00 00 00 00
 0.577426 1  204             Rx   d 8 00 00 FF 00 00 00 00 00
 0.582269 1  76              Rx   d 8 00 00 1F F7 FC 00 00 F0
 0.582302 1  20A             Rx   d 8 F1 F8 00 00 00 00 4E 20
 0.586071 1  167             Rx   d 8 00 FF FF 00 00 02 0F 00
 0.586270 1  204             Rx   d 8 00 00 FF 00 00 00 00 00
 0.596516 1  167             Rx   d 8 00 FF FF 00 00 02 0F 00
 0.596930 1  202             Rx   d 8 00 CC 00 00 00 00 00 00
 0.597172 1  204             Rx   d 8 00 00 FF 00 00 00 00 00
 0.602053 1  48              Rx   d 8 00 00 00 00 07 00 E0 00
 0.602278 1  76              Rx   d 8 00 00 1F F7 FC 00 00 F0
 0.602472 1  14C             Rx   d 8 08 00 00 01 00 00 00 00
 0.602685 1  20A             Rx   d 8 F1 F8 00 00 00 00 4E 20
 0.602941 1  3CA             Rx   d 8 04 00 00 00 00 00 00 00
 0.603183 1  412             Rx   d 8 7D 00 80 80 00 00 00 00
 0.603404 1  42F             Rx   d 8 7D 02 05 4E 26 0B 00 00
 0.603662 1  433             Rx   d 8 C0 00 00 00 00 90 00 00
 0.603919 1  470             Rx   d 8 00 00 40 00 00 00 00 00
 0.604203 1  479             Rx   d 8 00 00 00 00 00 00 00 00
 0.606209 1  167             Rx   d 8 00 FF FF 00 00 02 0F 00
 0.606235 1  171             Rx   d 8 F0 E0 00 00 00 00 00 00
 0.606484 1  204             Rx   d 8 00 00 FF 00 00 00 00 00
 0.616663 1  167             Rx   d 8 00 FF FF 00 00 02 0F 00
 0.616940 1  202             Rx   d 8 00 CC 00 00 00 00 00 00
 0.617177 1  204             Rx   d 8 00 00 FF 00 00 00 00 00
 0.622225 1  76              Rx   d 8 00 00 1F F7 FC 00 00 F0
 0.622262 1  20A             Rx   d 8 F1 F8 00 00 00 00 4E 20
 0.626091 1  167             Rx   d 8 00 FF FF 00 00 02 0F 00
 0.626334 1  204             Rx   d 8 00 00 FF 00 00 00 00 00
 0.631855 1  3CA             Rx   d 8 04 00 00 00 00 00 00 00
 0.636272 1  156             Rx   d 8 BA 00 00 00 00 00 00 00
 0.636667 1  166             Rx   d 8 76 00 00 FF FF FF 00 00
 0.636932 1  167             Rx   d 8 00 FF FF 00 00 02 0F 00
 0.637171 1  171             Rx   d 8 F0 E0 00 00 00 00 00 00
 0.637416 1  178             Rx   d 8 00 00 02 00 02 54 CA 53
 0.637667 1  179             Rx   d 8 00 00 08 00 22 FF 00 00
 0.637957 1  17C             Rx   d 8 00 00 00 00 00 00 00 00
 0.638462 1  202             Rx   d 8 00 CC 00 00 00 00 00 00
 0.638658 1  204             Rx   d 8 00 00 FF 00 00 00 00 00
 0.639262 1  421             Rx   d 8 04 00 11 00 00 00 FF 00
 0.639657 1  42D             Rx   d 8 00 03 FF 00 00 00 F0 00
 0.642608 1  76              Rx   d 8 00 00 1F F7 FC 00 00 F0
 0.642753 1  20A             Rx   d 8 F1 F8 00 00 00 00 4E 20
 0.646056 1  167             Rx   d 8 00 FF FF 00 00 02 0F 00
 0.646200 1  204             Rx   d 8 00 00 FF 00 00 00 00 00
 0.651935 1  412             Rx   d 8 7D 00 80 80 00 00 00 00
 0.651972 1  42F             Rx   d 8 7D 02 05 4E 26 0B 00 00
 0.653246 1  38D             Rx   d 8 20 00 00 00 00 00 00 F0
 0.654197 1  3B8             Rx   d 8 FF FF FF FF 00 00 00 00
 0.654357 1  3E3             Rx   d 8 00 00 00 00 80 00 00 00
 0.654714 1  3EC             Rx   d 8 00 04 04 00 00 00 00 00
 0.654854 1  40A             Rx   d 8 C1 02 32 38 38 33 36 00
 0.655767 1  447             Rx   d 8 20 00 00 4B 00 20 00 00
 0.656594 1  167             Rx   d 8 00 FF FF 00 00 02 0F 00
 0.656956 1  202             Rx   d 8 00 CC 00 00 00 00 00 00
 0.657194 1  204             Rx   d 8 00 00 FF 00 00 00 00 00
 0.662273 1  76              Rx   d 8 00 00 1F F7 FC 00 00 F0
 0.662317 1  20A             Rx   d 8 F1 F8 00 00 00 00 4E 20
 0.662541 1  3CA             Rx   d 8 04 00 00 00 00 00 00 00
 0.666239 1  167             Rx   d 8 00 FF FF 00 00 02 0F 00
 0.666271 1  171             Rx   d 8 F0 E0 00 00 00 00 00 00
 0.666485 1  204             Rx   d 8 00 00 FF 00 00 00 00 00
 0.676551 1  167             Rx   d 8 00 FF FF 00 00 02 0F 00
 0.676943 1  202             Rx   d 8 00 CC 00 00 00 00 00 00
 0.677174 1  204             Rx   d 8 00 00 FF 00 00 00 00 00
 0.682101 1  76              Rx   d 8 00 00 1F F7 FC 00 00 F0
 0.682306 1  20A             Rx   d 8 F1 F8 00 00 00 00 4E 20
 0.686218 1  167             Rx   d 8 00 FF FF 00 00 02 0F 00
 0.686263 1  204             Rx   d 8 00 00 FF 00 00 00 00 00
 0.691931 1  3CA             Rx   d 8 04 00 00 00 00 00 00 00
 0.696667 1  167             Rx   d 8 00 FF FF 00 00 02 0F 00
 0.696695 1  171             Rx   d 8 F0 E0 00 00 00 00 00 00
 0.697196 1  202             Rx   d 8 00 CC 00 00 00 00 00 00
 0.697407 1  204             Rx   d 8 00 00 FF 00 00 00 00 00
 0.700693 1  3B4             Rx   d 8 34 21 11 FF 1E 1A 00 00
 0.702584 1  48              Rx   d 8 00 00 00 00 07 00 E0 00
 0.702614 1  76              Rx   d 8 00 00 1F F7 FC 00 00 F0
 0.702884 1  20A             Rx   d 8 F1 F8 00 00 00 00 4E 20
 0.703102 1  412             Rx   d 8 7D 00 80 80 00 00 00 00
 0.703338 1  42F             Rx   d 8 7D 02 05 4E 26 0B 00 00
 0.703609 1  433             Rx   d 8 C0 00 00 00 00 90 00 00
 0.703853 1  470             Rx   d 8 00 00 40 00 00 00 00 00
 0.706077 1  167             Rx   d 8 00 FF FF 00 00 02 0F 00
 0.706322 1  204             Rx   d 8 00 00 FF 00 00 00 00 00
 0.710993 1  3B5             Rx   d 8 FF FD FF FD FF FD FF FD
 0.716520 1  167             Rx   d 8 00 FF FF 00 00 02 0F 00
 0.716951 1  202             Rx   d 8 00 CC 00 00 00 00 00 00
 0.717174 1  204             Rx   d 8 00 00 FF 00 00 00 00 00
 0.722055 1  76              Rx   d 8 00 00 1F F7 FC 00 00 F0
 0.722273 1  20A             Rx   d 8 F1 F8 00 00 00 00 4E 20
 0.722478 1  3CA             Rx   d 8 04 00 00 00 00 00 00 00
 0.726078 1  167             Rx   d 8 00 FF FF 00 00 02 0F 00
 0.726246 1  171             Rx   d 8 F0 E0 00 00 00 00 00 00
 0.726486 1  204             Rx   d 8 00 00 FF 00 00 00 00 00
 0.736318 1  156             Rx   d 8 BA 00 00 00 00 00 00 00
 0.736702 1  166             Rx   d 8 76 00 00 FF FF FF 00 00
 0.736942 1  167             Rx   d 8 00 FF FF 00 00 02 0F 00
 0.737193 1  178             Rx   d 8 00 00 02 00 02 54 CA 53
 0.737422 1  179             Rx   d 8 00 00 08 00 22 FF 00 00
 0.737686 1  17C             Rx   d 8 00 00 00 00 00 00 00 00
 0.738276 1  202             Rx   d 8 00 CC 00 00 00 00 00 00
 0.738485 1  204             Rx   d 8 00 00 FF 00 00 00 00 00
 0.738907 1  421             Rx   d 8 04 00 11 00 00 00 FF 00
 0.739404 1  42D             Rx   d 8 00 03 FF 00 00 00 F0 00
 0.742703 1  76              Rx   d 8 00 00 1F F7 FC 00 00 F0
 0.742732 1  20A             Rx   d 8 F1 F8 00 00 00 00 4E 20
 0.746072 1  167             Rx   d 8 00 FF FF 00 00 02 0F 00
 0.746283 1  204             Rx   d 8 00 00 FF 00 00 00 00 00
 0.751122 1  3B2             Rx   d 8 44 8C C0 0C E6 00 03 3E
 0.751351 1  3C3             Rx   d 8 5C 80 10 C1 01 00 01 00
 0.752314 1  3CA             Rx   d 8 04 00 00 00 00 00 00 00
 0.752514 1  412             Rx   d 8 7D 00 80 80 00 00 00 00
 0.752779 1  42C             Rx   d 8 30 31 C4 80 00 00 00 97
 0.753012 1  42F             Rx   d 8 7D 02 05 4E 26 0B 00 00
 0.753253 1  479             Rx   d 8 00 00 00 00 00 00 00 00
 0.756506 1  167             Rx   d 8 00 FF FF 00 00 02 0F 00
 0.756714 1  171             Rx   d 8 F0 E0 00 00 00 00 00 00
 0.757187 1  202             Rx   d 8 00 CC 00 00 00 00 00 00
 0.757426 1  204             Rx   d 8 00 00 FF 00 00 00 00 00
 0.762331 1  76              Rx   d 8 00 00 1F F7 FC 00 00 F0
 0.762358 1  20A             Rx   d 8 F1 F8 00 00 00 00 4E 20
 0.766052 1  167             Rx   d 8 00 FF FF 00 00 02 0F 00
 0.766196 1  204             Rx   d 8 00 00 FF 00 00 00 00 00
 0.776623 1  167             Rx   d 8 00 FF FF 00 00 02 0F 00
 0.776942 1  202             Rx   d 8 00 CC 00 00 00 00 00 00
 0.777180 1  204             Rx   d 8 00 00 FF 00 00 00 00 00
 0.782310 1  76              Rx   d 8 00 00 1F F7 FC 00 00 F0
 0.782338 1  20A             Rx   d 8 F1 F8 00 00 00 00 4E 20
 0.782556 1  3CA             Rx   d 8 04 00 00 00 00 00 00 00
 0.786091 1  167             Rx   d 8 00 FF FF 00 00 02 0F 00
 0.786326 1  171             Rx   d 8 F0 E0 00 00 00 00 00 00
 0.786458 1  204             Rx   d 8 00 00 FF 00 00 00 00 00
 0.796518 1  167             Rx   d 8 00 FF FF 00 00 02 0F 00
 0.796929 1  202             Rx   d 8 00 CC 00 00 00 00 00 00
 0.797181 1  204             Rx   d 8 00 00 FF 00 00 00 00 00
 0.802476 1  48              Rx   d 8 00 00 00 00 07 00 E0 00
 0.802634 1  76              Rx   d 8 00 00 1F F7 FC 00 00 F0
 0.802866 1  14C             Rx   d 8 08 00 00 01 00 00 00 00
 0.803125 1  20A             Rx   d 8 F1 F8 00 00 00 00 4E 20
 0.803353 1  412             Rx   d 8 7D 00 80 80 00 00 00 00
 0.803605 1  42F             Rx   d 8 7D 02 05 4E 26 0B 00 00
 0.803834 1  433             Rx   d 8 C0 00 00 00 00 90 00 00
 0.804091 1  470             Rx   d 8 00 00 40 00 00 00 00 00
 0.806202 1  167             Rx   d 8 00 FF FF 00 00 02 0F 00
 0.806233 1  204             Rx   d 8 00 00 FF 00 00 00 00 00
 0.812247 1  3CA             Rx   d 8 04 00 00 00 00 00 00 00
 0.816646 1  167             Rx   d 8 00 FF FF 00 00 02 0F 00
 0.816677 1  171             Rx   d 8 F0 E0 00 00 00 00 00 00
 0.817204 1  202             Rx   d 8 00 CC 00 00 00 00 00 00
 0.817442 1  204             Rx   d 8 00 00 FF 00 00 00 00 00
 0.822322 1  76              Rx   d 8 00 00 1F F7 FC 00 00 F0
 0.822357 1  20A             Rx   d 8 F1 F8 00 00 00 00 4E 20
 0.826048 1  167             Rx   d 8 00 FF FF 00 00 02 0F 00
 0.826251 1  204             Rx   d 8 00 00 FF 00 00 00 00 00
 0.836345 1  156             Rx   d 8 BA 00 00 00 00 00 00 00
 0.836720 1  166             Rx   d 8 76 00 00 FF FF FF 00 00
 0.836961 1  167             Rx   d 8 00 FF FF 00 00 02 0F 00
 0.837198 1  178             Rx   d 8 00 00 02 00 02 54 CA 53
 0.837454 1  179             Rx   d 8 00 00 08 00 22 FF 00 00
 0.837727 1  17C             Rx   d 8 00 00 00 00 00 00 00 00
 0.838200 1  202             Rx   d 8 00 CC 00 00 00 00 00 00
 0.838460 1  204             Rx   d 8 00 00 FF 00 00 00 00 00
 0.838925 1  421             Rx   d 8 04 00 11 00 00 00 FF 00
 0.839443 1  42D             Rx   d 8 00 03 FF 00 00 00 F0 00
 0.842616 1  76              Rx   d 8 00 00 1F F7 FC 00 00 F0
 0.842789 1  20A             Rx   d 8 F1 F8 00 00 00 00 4E 20
 0.843016 1  3CA             Rx   d 8 04 00 00 00 00 00 00 00
 0.846223 1  167             Rx   d 8 00 FF FF 00 00 02 0F 00
 0.846257 1  171             Rx   d 8 F0 E0 00 00 00 00 00 00
 0.846479 1  204             Rx   d 8 00 00 FF 00 00 00 00 00
 0.850001 1  40A             Rx   d 8 C1 04 01 8A 07 54 85 41
 0.852617 1  412             Rx   d 8 7D 00 80 80 00 00 00 00
 0.852662 1  42F             Rx   d 8 7D 02 05 4E 26 0B 00 00
 0.856580 1  167             Rx   d 8 00 FF FF 00 00 02 0F 00
 0.856960 1  202             Rx   d 8 00 CC 00 00 00 00 00 00
 0.857177 1  204             Rx   d 8 00 00 FF 00 00 00 00 00
 0.862209 1  76              Rx   d 8 00 00 1F F7 FC 00 00 F0
 0.862243 1  20A             Rx   d 8 F1 F8 00 00 00 00 4E 20
 0.866066 1  167             Rx   d 8 00 FF FF 00 00 02 0F 00
 0.866276 1  204             Rx   d 8 00 00 FF 00 00 00 00 00
 0.871901 1  3CA             Rx   d 8 04 00 00 00 00 00 00 00
 0.876509 1  167             Rx   d 8 00 FF FF 00 00 02 0F 00
 0.876693 1  171             Rx   d 8 F0 E0 00 00 00 00 00 00
 0.877234 1  202             Rx   d 8 00 CC 00 00 00 00 00 00
 0.877433 1  204             Rx   d 8 00 00 FF 00 00 00 00 00
 0.882256 1  76              Rx   d 8 00 00 1F F7 FC 00 00 F0
 0.882503 1  20A             Rx   d 8 F1 F8 00 00 00 00 4E 20
 0.886064 1  167             Rx   d 8 00 FF FF 00 00 02 0F 00
 0.886245 1  204             Rx   d 8 00 00 FF 00 00 00 00 00
 0.896562 1  167             Rx   d 8 00 FF FF 00 00 02 0F 00
 0.896960 1  202             Rx   d 8 00 CC 00 00 00 00 00 00
 0.897187 1  204             Rx   d 8 00 00 FF 00 00 00 00 00
 0.897690 1  331             Rx   d 8 C0 00 48 99 02 00 00 00
 0.902608 1  48              Rx   d 8 00 00 00 00 07 00 E0 00
 0.902638 1  76              Rx   d 8 00 00 1F F7 FC 00 00 F0
 0.902861 1  20A             Rx   d 8 F1 F8 00 00 00 00 4E 20
 0.903096 1  3CA             Rx   d 8 04 00 00 00 00 00 00 00
 0.903342 1  412             Rx   d 8 7D 00 80 80 00 00 00 00
 0.903587 1  42F             Rx   d 8 7D 02 05 4E 26 0B 00 00
 0.903824 1  433             Rx   d 8 C0 00 00 00 00 90 00 00
 0.904067 1  470             Rx   d 8 00 00 40 00 00 00 00 00
 0.904318 1  479             Rx   d 8 00 00 00 00 00 00 00 00
 0.905979 1  167             Rx   d 8 00 FF FF 00 00 02 0F 00
 0.906230 1  171             Rx   d 8 F0 E0 00 00 00 00 00 00
 0.906478 1  204             Rx   d 8 00 00 FF 00 00 00 00 00
 0.916525 1  167             Rx   d 8 00 FF FF 00 00 02 0F 00
 0.916949 1  202             Rx   d 8 00 CC 00 00 00 00 00 00
 0.917180 1  204             Rx   d 8 00 00 FF 00 00 00 00 00
 0.922095 1  76              Rx   d 8 00 00 1F F7 FC 00 00 F0
 0.922338 1  20A             Rx   d 8 F1 F8 00 00 00 00 4E 20
 0.926012 1  167             Rx   d 8 00 FF FF 00 00 02 0F 00
 0.926215 1  204             Rx   d 8 00 00 FF 00 00 00 00 00
 0.927975 1  331             Rx   d 8 C0 00 48 9A 02 00 00 00
 0.932454 1  3CA             Rx   d 8 04 00 00 00 00 00 00 00
 0.936322 1  156             Rx   d 8 BA 00 00 00 00 00 00 00
 0.936716 1  166             Rx   d 8 76 00 00 FF FF FF 00 00
 0.936939 1  167             Rx   d 8 00 FF FF 00 00 02 0F 00
 0.937207 1  171             Rx   d 8 F0 E0 00 00 00 00 00 00
 0.937432 1  178             Rx   d 8 00 00 02 00 02 54 CA 53
 0.937678 1  179             Rx   d 8 00 00 08 00 22 FF 00 00
 0.937944 1  17C             Rx   d 8 00 00 00 00 00 00 00 00
 0.938740 1  202             Rx   d 8 00 CC 00 00 00 00 00 00
 0.938764 1  204             Rx   d 8 00 00 FF 00 00 00 00 00
 0.939197 1  421             Rx   d 8 04 00 11 00 00 00 FF 00
 0.939670 1  42D             Rx   d 8 00 03 FF 00 00 00 F0 00
 0.942929 1  76              Rx   d 8 00 00 1F F7 FC 00 00 F0
 0.942958 1  20A             Rx   d 8 F1 F8 00 00 00 00 4E 20
 0.946287 1  167             Rx   d 8 00 FF FF 00 00 02 0F 00
 0.946343 1  204             Rx   d 8 00 00 FF 00 00 00 00 00
 0.952175 1  412             Rx   d 8 7D 00 80 80 00 00 00 00
 0.952321 1  42F             Rx   d 8 7D 02 05 4E 26 0B 00 00
 0.956365 1  84              Rx   d 8 00 00 00 01 01 07 0C 00
 0.956700 1  167             Rx   d 8 00 FF FF 00 00 02 0F 00
 0.957181 1  202             Rx   d 8 00 CC 00 00 00 00 00 00
 0.957419 1  204             Rx   d 8 00 00 FF 00 00 00 00 00
 0.962507 1  76              Rx   d 8 00 00 1F F7 FC 00 00 F0
 0.962540 1  20A             Rx   d 8 F1 F8 00 00 00 00 4E 20
 0.962757 1  3CA             Rx   d 8 04 00 00 00 00 00 00 00
 0.966030 1  167             Rx   d 8 00 FF FF 00 00 02 0F 00
 0.966185 1  171             Rx   d 8 F0 E0 00 00 00 00 00 00
 0.966473 1  204             Rx   d 8 00 00 FF 00 00 00 00 00
 0.976611 1  167             Rx   d 8 00 FF FF 00 00 02 0F 00
 0.976964 1  202             Rx   d 8 00 CC 00 00 00 00 00 00
 0.977179 1  204             Rx   d 8 00 00 FF 00 00 00 00 00
 0.982174 1  76              Rx   d 8 00 00 1F F7 FC 00 00 F0
 0.982219 1  20A             Rx   d 8 F1 F8 00 00 00 00 4E 20
 0.986454 1  167             Rx   d 8 00 FF FF 00 00 02 0F 00
 0.986489 1  204             Rx   d 8 00 00 FF 00 00 00 00 00
 0.991852 1  3CA             Rx   d 8 04 00 00 00 00 00 00 00
 0.996509 1  167             Rx   d 8 00 FF FF 00 00 02 0F 00
 0.996653 1  171             Rx   d 8 F0 E0 00 00 00 00 00 00
 0.997180 1  202             Rx   d 8 00 CC 00 00 00 00 00 00
 0.997418 1  204             Rx   d 8 00 00 FF 00 00 00 00 00
 1.001459 1  59E             Rx   d 8 9E 00 FF FF FF FF FF FF
 1.002494 1  48              Rx   d 8 00 00 00 00 07 00 E0 00
 1.002522 1  76              Rx   d 8 00 00 1F F7 FC 00 00 F0
 1.002726 1  77              Rx   d 8 1F FE 0F FE 00 01 00 00
 1.002990 1  108             Rx   d 8 00 04 00 00 80 00 72 64
 1.003205 1  109             Rx   d 8 00 00 EE 00 00 00 04 01
 1.003442 1  14C             Rx   d 8 08 00 00 01 00 00 00 00
 1.003682 1  20A             Rx   d 8 F1 F8 00 00 00 00 4E 20
 1.003937 1  275             Rx   d 8 00 00 00 00 00 00 00 00
 1.004220 1  277             Rx   d 8 00 00 00 00 02 53 00 00
 1.004437 1  279             Rx   d 8 00 50 00 3C A8 96 01 00
 1.004675 1  27A             Rx   d 8 00 FF FE 00 00 00 00 00
 1.004913 1  303             Rx   d 8 00 00 00 00 00 00 00 00
 1.005156 1  3A8             Rx   d 8 06 00 00 00 00 00 00 00
 1.005386 1  3B3             Rx   d 8 44 80 00 0C FE 00 00 00
 1.005638 1  3D0             Rx   d 8 01 0F 48 9A 80 00 1F FE
 1.005878 1  412             Rx   d 8 7D 00 80 80 00 00 00 00
 1.006130 1  424             Rx   d 8 00 26 80 03 00 00 30 00
 1.006370 1  167             Rx   d 8 00 FF FF 00 00 02 0F 00
 1.006645 1  42C             Rx   d 8 30 31 C4 80 00 00 00 96
 1.006885 1  204             Rx   d 8 00 00 FF 00 00 00 00 00
 1.007137 1  42F             Rx   d 8 7D 02 05 4E 26 0B 00 00
 1.007371 1  431             Rx   d 8 00 00 00 00 00 00 00 00
 1.007627 1  432             Rx   d 8 00 00 00 00 00 00 00 00
 1.007874 1  433             Rx   d 8 C0 00 00 00 00 90 00 00
 1.008125 1  46A             Rx   d 8 00 00 00 88 00 10 C0 00
 1.008389 1  46B             Rx   d 8 B8 A0 48 00 00 00 D2 09
 1.008616 1  470             Rx   d 8 00 00 40 00 00 00 00 00
 1.016705 1  167             Rx   d 8 00 FF FF 00 00 02 0F 00
 1.016951 1  202             Rx   d 8 00 CC 00 00 00 00 00 00
 1.017187 1  204             Rx   d 8 00 00 FF 00 00 00 00 00
 1.022260 1  76              Rx   d 8 00 00 1F F7 FC 00 00 F0
 1.022290 1  20A             Rx   d 8 F1 F8 00 00 00 00 4E 20
 1.022596 1  3CA             Rx   d 8 04 00 00 00 00 00 00 00
 1.026248 1  167             Rx   d 8 00 FF FF 00 00 02 0F 00
 1.026306 1  171             Rx   d 8 F0 E0 00 00 00 00 00 00
 1.026454 1  204             Rx   d 8 00 00 FF 00 00 00 00 00
 1.036355 1  156             Rx   d 8 BA 00 00 00 00 00 00 00
 1.036717 1  166             Rx   d 8 76 00 00 FF FF FF 00 00
 1.036924 1  167             Rx   d 8 00 FF FF 00 00 02 0F 00
 1.037173 1  178             Rx   d 8 00 00 02 00 02 54 CA 53
 1.037403 1  179             Rx   d 8 00 00 08 00 22 FF 00 00
 1.037668 1  17C             Rx   d 8 00 00 00 00 00 00 00 00
 1.038152 1  202             Rx   d 8 00 CC 00 00 00 00 00 00
 1.038382 1  204             Rx   d 8 00 00 FF 00 00 00 00 00
 1.038880 1  421             Rx   d 8 04 00 11 00 00 00 FF 00
 1.039398 1  42D             Rx   d 8 00 03 FF 00 00 00 F0 00
 1.042730 1  76              Rx   d 8 00 00 1F F7 FC 00 00 F0
 1.042893 1  20A             Rx   d 8 F1 F8 00 00 00 00 4E 20
 1.046053 1  167             Rx   d 8 00 FF FF 00 00 02 0F 00
 1.046500 1  204             Rx   d 8 00 00 FF 00 00 00 00 00
 1.046941 1  40A             Rx   d 8 C1 10 40 84 20 08 80 00
 1.052084 1  3CA             Rx   d 8 04 00 00 00 00 00 00 00
 1.052119 1  412             Rx   d 8 7D 00 80 80 00 00 00 00
 1.052367 1  42F             Rx   d 8 7D 02 05 4E 26 0B 00 00
 1.052601 1  479             Rx   d 8 00 00 00 00 00 00 00 00
 1.056754 1  167             Rx   d 8 00 FF FF 00 00 02 0F 00
 1.056798 1  171             Rx   d 8 F0 E0 00 00 00 00 00 00
 1.057239 1  202             Rx   d 8 00 CC 00 00 00 00 00 00
 1.057546 1  204             Rx   d 8 00 00 FF 00 00 00 00 00
 1.062434 1  76              Rx   d 8 00 00 1F F7 FC 00 00 F0
 1.062507 1  20A             Rx   d 8 F1 F8 00 00 00 00 4E 20
 1.066329 1  167             Rx   d 8 00 FF FF 00 00 02 0F 00
 1.066364 1  204             Rx   d 8 00 00 FF 00 00 00 00 00
 1.076570 1  167             Rx   d 8 00 FF FF 00 00 02 0F 00
 1.076939 1  202             Rx   d 8 00 CC 00 00 00 00 00 00
 1.077175 1  204             Rx   d 8 00 00 FF 00 00 00 00 00
 1.082474 1  76              Rx   d 8 00 00 1F F7 FC 00 00 F0
 1.082516 1  20A             Rx   d 8 F1 F8 00 00 00 00 4E 20
 1.082703 1  3CA             Rx   d 8 04 00 00 00 00 00 00 00
 1.086027 1  167             Rx   d 8 00 FF FF 00 00 02 0F 00
 1.086207 1  171             Rx   d 8 F0 E0 00 00 00 00 00 00
 1.086479 1  204             Rx   d 8 00 00 FF 00 00 00 00 00
 1.096761 1  167             Rx   d 8 00 FF FF 00 00 02 0F 00
 1.096960 1  202             Rx   d 8 00 CC 00 00 00 00 00 00
 1.097221 1  204             Rx   d 8 00 00 FF 00 00 00 00 00
 1.102360 1  48              Rx   d 8 00 00 00 00 07 00 E0 00
 1.102408 1  76              Rx   d 8 00 00 1F F7 FC 00 00 F0
 1.102613 1  20A             Rx   d 8 F1 F8 00 00 00 00 4E 20
 1.102772 1  38A             Rx   d 8 4E 00 00 01 00 46 00 00
 1.103084 1  412             Rx   d 8 7D 00 80 80 00 00 00 00
 1.103849 1  42F             Rx   d 8 7D 02 05 4E 26 0B 00 00
 1.103878 1  433             Rx   d 8 C0 00 00 00 00 90 00 00
 1.103886 1  470             Rx   d 8 00 00 40 00 00 00 00 00
 1.106038 1  167             Rx   d 8 00 FF FF 00 00 02 0F 00
 1.106245 1  204             Rx   d 8 00 00 FF 00 00 00 00 00
 1.111900 1  3CA             Rx   d 8 04 00 00 00 00 00 00 00
 1.116514 1  167             Rx   d 8 00 FF FF 00 00 02 0F 00
 1.116705 1  171             Rx   d 8 F0 E0 00 00 00 00 00 00
 1.117189 1  202             Rx   d 8 00 CC 00 00 00 00 00 00
 1.117397 1  204             Rx   d 8 00 00 FF 00 00 00 00 00
 1.122505 1  76              Rx   d 8 00 00 1F F7 FC 00 00 F0
 1.122561 1  20A             Rx   d 8 F1 F8 00 00 00 00 4E 20
 1.126026 1  167             Rx   d 8 00 FF FF 00 00 02 0F 00
 1.126180 1  204             Rx   d 8 00 00 FF 00 00 00 00 00
 1.136686 1  156             Rx   d 8 BA 00 00 00 00 00 00 00
 1.136781 1  166             Rx   d 8 76 00 00 FF FF FF 00 00
 1.136943 1  167             Rx   d 8 00 FF FF 00 00 02 0F 00
 1.137182 1  178             Rx   d 8 00 00 02 00 02 54 CA 53
 1.137410 1  179             Rx   d 8 00 00 08 00 22 FF 00 00
 1.137672 1  17C             Rx   d 8 00 00 00 00 00 00 00 00
 1.138242 1  202             Rx   d 8 00 CC 00 00 00 00 00 00
 1.138392 1  204             Rx   d 8 00 00 FF 00 00 00 00 00
 1.138903 1  421             Rx   d 8 04 00 11 00 00 00 FF 00
 1.139414 1  42D             Rx   d 8 00 03 FF 00 00 00 F0 00
 1.142878 1  76              Rx   d 8 00 00 1F F7 FC 00 00 F0
 1.142940 1  20A             Rx   d 8 F1 F8 00 00 00 00 4E 20
 1.143275 1  3CA             Rx   d 8 04 00 00 00 00 00 00 00
 1.144980 1  3B8             Rx   d 8 FF FF FF FF 00 00 00 00
 1.146009 1  167             Rx   d 8 00 FF FF 00 00 02 0F 00
 1.146213 1  171             Rx   d 8 F0 E0 00 00 00 00 00 00
 1.146453 1  204             Rx   d 8 00 00 FF 00 00 00 00 00
 1.151962 1  412             Rx   d 8 7D 00 80 80 00 00 00 00
 1.152087 1  42F             Rx   d 8 7D 02 05 4E 26 0B 00 00
 1.156537 1  167             Rx   d 8 00 FF FF 00 00 02 0F 00
 1.156929 1  202             Rx   d 8 00 CC 00 00 00 00 00 00
 1.157150 1  204             Rx   d 8 00 00 FF 00 00 00 00 00
 1.162202 1  76              Rx   d 8 00 00 1F F7 FC 00 00 F0
 1.162353 1  20A             Rx   d 8 F1 F8 00 00 00 00 4E 20
 1.166054 1  167             Rx   d 8 00 FF FF 00 00 02 0F 00
 1.166189 1  204             Rx   d 8 00 00 FF 00 00 00 00 00
 1.172216 1  3CA             Rx   d 8 04 00 00 00 00 00 00 00
 1.176846 1  167             Rx   d 8 00 FF FF 00 00 02 0F 00
 1.176885 1  171             Rx   d 8 F0 E0 00 00 00 00 00 00
 1.177206 1  202             Rx   d 8 00 CC 00 00 00 00 00 00
 1.177394 1  204             Rx   d 8 00 00 FF 00 00 00 00 00
 1.182460 1  76              Rx   d 8 00 00 1F F7 FC 00 00 F0
 1.182488 1  20A             Rx   d 8 F1 F8 00 00 00 00 4E 20
 1.186060 1  167             Rx   d 8 00 FF FF 00 00 02 0F 00
 1.186247 1  204             Rx   d 8 00 00 FF 00 00 00 00 00
 1.196527 1  167             Rx   d 8 00 FF FF 00 00 02 0F 00
 1.196918 1  202             Rx   d 8 00 CC 00 00 00 00 00 00
 1.197153 1  204             Rx   d 8 00 00 FF 00 00 00 00 00
 1.202224 1  48              Rx   d 8 00 00 00 00 07 00 E0 00
 1.202538 1  76              Rx   d 8 00 00 1F F7 FC 00 00 F0
 1.202550 1  14C             Rx   d 8 08 00 00 01 00 00 00 00
 1.202809 1  20A             Rx   d 8 F1 F8 00 00 00 00 4E 20
 1.203047 1  3CA             Rx   d 8 04 00 00 00 00 00 00 00
 1.203287 1  412             Rx   d 8 7D 00 80 80 00 00 00 00
 1.203521 1  3B5             Rx   d 8 FF FD FF FD FF FD FF FD
 1.203759 1  42F             Rx   d 8 7D 02 05 4E 26 0B 00 00
 1.204013 1  433             Rx   d 8 C0 00 00 00 00 90 00 00
 1.204309 1  470             Rx   d 8 00 00 40 00 00 00 00 00
 1.204593 1  479             Rx   d 8 00 00 00 00 00 00 00 00
 1.206012 1  167             Rx   d 8 00 FF FF 00 00 02 0F 00
 1.206179 1  171             Rx   d 8 F0 E0 00 00 00 00 00 00
 1.206459 1  204             Rx   d 8 00 00 FF 00 00 00 00 00
 1.216627 1  167             Rx   d 8 00 FF FF 00 00 02 0F 00
 1.216927 1  202             Rx   d 8 00 CC 00 00 00 00 00 00
 1.217219 1  204             Rx   d 8 00 00 FF 00 00 00 00 00
 1.222225 1  76              Rx   d 8 00 00 1F F7 FC 00 00 F0
 1.222401 1  20A             Rx   d 8 F1 F8 00 00 00 00 4E 20
 1.226050 1  167             Rx   d 8 00 FF FF 00 00 02 0F 00
 1.226227 1  204             Rx   d 8 00 00 FF 00 00 00 00 00
 1.232085 1  3CA             Rx   d 8 04 00 00 00 00 00 00 00
 1.236325 1  156             Rx   d 8 BA 00 00 00 00 00 00 00
 1.236662 1  166             Rx   d 8 76 00 00 FF FF FF 00 00
 1.236942 1  167             Rx   d 8 00 FF FF 00 00 02 0F 00
 1.237155 1  171             Rx   d 8 F0 E0 00 00 00 00 00 00
 1.237396 1  178             Rx   d 8 00 00 02 00 02 54 CA 53
 1.237645 1  179             Rx   d 8 00 00 08 00 22 FF 00 00
 1.237896 1  17C             Rx   d 8 00 00 00 00 00 00 00 00
 1.238389 1  202             Rx   d 8 00 CC 00 00 00 00 00 00
 1.238626 1  204             Rx   d 8 00 00 FF 00 00 00 00 00
 1.239130 1  421             Rx   d 8 04 00 11 00 00 00 FF 00
 1.239627 1  42D             Rx   d 8 00 03 FF 00 00 00 F0 00
 1.242838 1  76              Rx   d 8 00 00 1F F7 FC 00 00 F0
 1.242993 1  20A             Rx   d 8 F1 F8 00 00 00 00 4E 20
 1.243227 1  3B2             Rx   d 8 44 8C C0 0C E6 00 03 3E
 1.243442 1  40A             Rx   d 8 C0 00 00 23 61 06 D2 00
 1.246025 1  167             Rx   d 8 00 FF FF 00 00 02 0F 00
 1.246192 1  204             Rx   d 8 00 00 FF 00 00 00 00 00
 1.252231 1  412             Rx   d 8 7D 00 80 80 00 00 00 00
 1.252270 1  42C             Rx   d 8 30 31 C4 80 00 00 00 96
 1.252423 1  42F             Rx   d 8 7D 02 05 4E 26 0B 00 00
 1.256728 1  167             Rx   d 8 00 FF FF 00 00 02 0F 00
 1.256904 1  202             Rx   d 8 00 CC 00 00 00 00 00 00
 1.257177 1  204             Rx   d 8 00 00 FF 00 00 00 00 00
 1.262391 1  76              Rx   d 8 00 00 1F F7 FC 00 00 F0
 1.262424 1  20A             Rx   d 8 F1 F8 00 00 00 00 4E 20
 1.262550 1  3CA             Rx   d 8 04 00 00 00 00 00 00 00
 1.266057 1  167             Rx   d 8 00 FF FF 00 00 02 0F 00
