date Wed Mar 05 06:42:50.096 PM 2025
base hex  timestamps absolute
internal events logged
Begin Triggerblock Wed Mar 05 06:43:06.765 PM 2025
 0.000000 Start of measurement
 0.000000 1  ErrorFrame
 0.000980 1  ErrorFrame
 0.070830 1  591             Tx   d 8 91 00 FF FF FF FF FF FF
 0.070878 1  3B2             Tx   d 8 40 00 00 80 00 00 00 00
 0.070886 1  ErrorFrame
 0.092346 1  18B             Rx   d 8 00 00 00 1E 00 00 00 00
 0.092648 1  19A             Rx   d 8 00 00 00 00 00 00 00 00
 0.092825 1  220             Rx   d 8 00 01 00 00 00 00 00 00
 0.093032 1  225             Rx   d 8 00 00 00 00 00 00 00 00
 0.093294 1  287             Rx   d 8 00 00 00 00 00 00 00 00
 0.093555 1  2F4             Rx   d 8 00 01 00 00 00 00 00 00
 0.093812 1  2FD             Rx   d 8 00 00 00 00 FC 00 00 00
 0.094073 1  30A             Rx   d 8 81 00 00 00 00 00 00 00
 0.094350 1  315             Rx   d 8 00 00 00 00 00 00 00 00
 0.095512 1  318             Rx   d 8 00 00 00 00 00 00 00 00
 0.095722 1  346             Rx   d 8 00 00 00 03 03 00 C0 00
 0.095973 1  348             Rx   d 8 00 00 00 00 00 00 00 00
 0.096234 1  350             Rx   d 8 00 00 00 00 00 00 00 00
 0.096503 1  353             Rx   d 8 00 00 00 00 00 00 00 00
 0.096771 1  3C8             Rx   d 8 00 00 00 00 00 00 00 00
 0.097025 1  3E0             Rx   d 8 00 00 00 00 80 00 00 00
 0.097291 1  3FB             Rx   d 8 00 00 00 00 04 00 00 00
 0.097567 1  430             Rx   d 8 00 00 00 00 08 00 60 00
 0.097816 1  434             Rx   d 8 00 00 00 00 20 FF F0 00
 0.122501 1  2FD             Rx   d 8 08 00 00 00 FC 00 00 00
 0.122543 1  430             Rx   d 8 40 00 00 00 08 00 60 00
 0.144460 1  225             Rx   d 8 20 00 00 00 00 00 00 00
 0.144509 1  3FB             Rx   d 8 00 00 09 03 04 00 00 00
 0.144775 1  591             Rx   d 8 91 00 FF FF FF FF FF FF
 0.163960 1  430             Rx   d 8 40 00 00 00 00 00 E0 00
 0.174190 1  225             Rx   d 8 20 80 00 00 00 00 00 00
 0.194697 1  2FD             Rx   d 8 09 00 00 04 FC 00 00 00
 0.194920 1  30A             Rx   d 8 C3 00 00 00 00 00 00 00
 0.195110 1  318             Rx   d 8 00 00 00 00 00 00 00 00
 0.195401 1  346             Rx   d 8 00 00 00 03 03 00 C0 00
 0.195626 1  348             Rx   d 8 00 00 00 01 00 00 00 00
 0.195879 1  3C8             Rx   d 8 00 00 00 EC 00 00 00 00
 0.196134 1  430             Rx   d 8 48 00 00 00 00 00 A0 00
 0.196398 1  434             Rx   d 8 00 00 00 00 20 FF F3 FF
 0.204360 1  19A             Rx   d 8 00 00 00 02 40 00 00 00
 0.204567 1  225             Rx   d 8 20 81 80 00 00 00 00 00
 0.223974 1  2FD             Rx   d 8 09 00 00 04 FC 02 00 00
 0.224055 1  30A             Rx   d 8 C7 00 00 00 00 00 00 00
 0.224273 1  430             Rx   d 8 48 00 40 9B 00 00 A4 00
 0.224473 1  434             Rx   d 8 40 00 70 00 20 50 7B FF
 0.295156 1  287             Rx   d 8 00 00 00 00 00 00 00 00
 0.295278 1  30A             Rx   d 8 C7 00 00 00 00 00 00 00
 0.295589 1  318             Rx   d 8 00 00 00 00 00 00 00 00
 0.295610 1  346             Rx   d 8 00 00 00 03 03 00 C0 00
 0.295892 1  348             Rx   d 8 00 00 00 01 00 00 00 00
 0.296171 1  430             Rx   d 8 48 00 40 9B 00 00 A4 00
 0.296430 1  434             Rx   d 8 40 00 70 00 20 4D 28 00
 0.304770 1  2FD             Rx   d 8 09 00 00 04 FD 02 00 00
 0.394968 1  318             Rx   d 8 00 00 00 00 00 00 00 00
 0.395157 1  346             Rx   d 8 00 00 00 03 03 00 C0 00
 0.395386 1  348             Rx   d 8 00 00 00 01 00 00 00 00
 0.395635 1  430             Rx   d 8 48 00 40 9B 00 00 A4 00
 0.395882 1  434             Rx   d 8 40 00 70 00 20 4D 28 00
 0.494935 1  287             Rx   d 8 00 00 00 00 00 00 00 00
 0.495127 1  30A             Rx   d 8 C7 00 00 00 00 00 00 00
 0.495347 1  318             Rx   d 8 00 00 00 00 00 00 00 00
 0.495605 1  346             Rx   d 8 00 00 00 03 03 00 C0 00
 0.495857 1  348             Rx   d 8 00 00 00 01 00 00 00 00
 0.496110 1  430             Rx   d 8 48 00 40 9B 00 00 A4 00
 0.496362 1  434             Rx   d 8 40 00 70 00 20 4D 28 00
 0.534872 1  225             Rx   d 8 A0 81 80 00 00 00 00 00
 0.595234 1  318             Rx   d 8 00 00 00 00 00 00 00 00
 0.595326 1  346             Rx   d 8 00 00 00 03 03 00 C0 00
 0.595740 1  348             Rx   d 8 00 00 00 01 00 00 00 00
 0.595774 1  430             Rx   d 8 48 00 40 9B 00 00 A4 00
 0.596101 1  434             Rx   d 8 40 00 70 00 20 4D 28 00
 0.645136 1  3E0             Rx   d 8 08 07 00 00 84 00 00 00
 0.695653 1  287             Rx   d 8 00 00 00 00 00 00 00 00
 0.695756 1  30A             Rx   d 8 C7 00 00 00 00 00 00 00
 0.695770 1  318             Rx   d 8 00 00 00 00 00 00 00 00
 0.695780 1  346             Rx   d 8 00 00 00 03 03 00 C0 00
 0.696401 1  348             Rx   d 8 00 00 00 01 00 00 00 00
 0.696433 1  430             Rx   d 8 48 00 40 9B 00 00 A4 00
 0.696440 1  434             Rx   d 8 40 00 70 00 20 4D 28 00
 0.795066 1  318             Rx   d 8 00 00 00 00 00 00 00 00
 0.795244 1  346             Rx   d 8 00 00 00 03 03 00 C0 00
 0.795483 1  348             Rx   d 8 00 00 00 01 00 00 00 00
 0.795736 1  430             Rx   d 8 48 00 40 9B 00 00 A4 00
 0.795977 1  434             Rx   d 8 40 00 70 00 20 4D 28 00
 0.895123 1  287             Rx   d 8 00 00 00 00 00 00 00 00
 0.895305 1  30A             Rx   d 8 C7 00 00 00 00 00 00 00
 0.895534 1  318             Rx   d 8 00 00 00 00 00 00 00 00
 0.895793 1  346             Rx   d 8 00 00 00 03 03 00 C0 00
 0.896043 1  348             Rx   d 8 00 00 00 01 00 00 00 00
 0.896298 1  430             Rx   d 8 48 00 40 9B 00 00 A4 00
 0.896545 1  434             Rx   d 8 40 00 70 00 20 4D 28 00
 0.994987 1  318             Rx   d 8 00 00 00 00 00 00 00 00
 0.995201 1  346             Rx   d 8 00 00 00 03 03 00 C0 00
 0.995392 1  348             Rx   d 8 00 00 00 01 00 00 00 00
 0.995683 1  430             Rx   d 8 48 00 40 9B 00 00 A4 00
 0.995892 1  434             Rx   d 8 40 00 70 00 20 4D 28 00
 1.095079 1  18B             Rx   d 8 00 00 00 1E 00 00 00 00
 1.095283 1  19A             Rx   d 8 00 00 00 02 40 00 00 00
 1.095476 1  220             Rx   d 8 10 01 00 00 00 00 00 00
 1.095744 1  225             Rx   d 8 A0 81 80 00 00 00 00 00
 1.095996 1  287             Rx   d 8 00 00 00 00 00 00 00 00
 1.096249 1  2F4             Rx   d 8 10 01 00 00 00 00 00 00
 1.096509 1  2FD             Rx   d 8 09 00 00 04 FD 02 00 00
 1.096758 1  30A             Rx   d 8 C7 00 00 00 00 00 00 00
 1.097018 1  315             Rx   d 8 00 00 00 00 00 00 00 00
 1.097292 1  318             Rx   d 8 00 00 00 00 00 00 00 00
 1.097538 1  346             Rx   d 8 00 00 00 03 03 00 C0 00
 1.097795 1  348             Rx   d 8 00 00 00 01 00 00 00 00
 1.098049 1  350             Rx   d 8 40 00 00 00 00 00 00 00
 1.098315 1  353             Rx   d 8 00 00 00 00 00 00 00 00
 1.098576 1  3C8             Rx   d 8 00 00 00 EC 00 00 00 00
 1.098845 1  3E0             Rx   d 8 08 07 00 00 84 00 00 00
 1.099107 1  3FB             Rx   d 8 00 00 09 03 04 00 00 00
 1.099364 1  430             Rx   d 8 48 00 40 9B 00 00 A4 00
 1.099622 1  434             Rx   d 8 40 00 70 00 20 4D 28 00
 1.144889 1  591             Rx   d 8 91 00 FF FF FF FF FF FF
 1.195357 1  318             Rx   d 8 00 00 00 00 00 00 00 00
 1.195457 1  346             Rx   d 8 00 00 00 03 03 00 C0 00
 1.195801 1  348             Rx   d 8 00 00 00 01 00 00 00 00
 1.195822 1  430             Rx   d 8 48 00 40 9B 00 00 A4 00
 1.196138 1  434             Rx   d 8 40 00 70 00 20 4D 28 00
 1.295044 1  287             Rx   d 8 00 00 00 00 00 00 00 00
 1.295239 1  30A             Rx   d 8 C7 00 00 00 00 00 00 00
 1.295430 1  318             Rx   d 8 00 00 00 00 00 00 00 00
 1.295692 1  346             Rx   d 8 00 00 00 03 03 00 C0 00
 1.295950 1  348             Rx   d 8 00 00 00 01 00 00 00 00
 1.296200 1  430             Rx   d 8 48 00 40 9B 00 00 A4 00
 1.296452 1  434             Rx   d 8 40 00 70 00 20 4D 28 00
 1.395085 1  318             Rx   d 8 00 00 00 00 00 00 00 00
 1.395266 1  346             Rx   d 8 00 00 00 03 03 00 C0 00
 1.395499 1  348             Rx   d 8 00 00 00 01 00 00 00 00
 1.395750 1  430             Rx   d 8 48 00 40 9B 00 00 A4 00
 1.396000 1  434             Rx   d 8 40 00 70 00 20 4D 28 00
 1.495129 1  287             Rx   d 8 00 00 00 00 00 00 00 00
 1.495312 1  30A             Rx   d 8 C7 00 00 00 00 00 00 00
 1.495543 1  318             Rx   d 8 00 00 00 00 00 00 00 00
 1.495795 1  346             Rx   d 8 00 00 00 03 03 00 C0 00
 1.496051 1  348             Rx   d 8 00 00 00 01 00 00 00 00
 1.496306 1  430             Rx   d 8 48 00 40 9B 00 00 A4 00
 1.496554 1  434             Rx   d 8 40 00 70 00 20 4D 28 00
 1.594978 1  318             Rx   d 8 00 00 00 00 00 00 00 00
 1.595169 1  346             Rx   d 8 00 00 00 03 03 00 C0 00
 1.595376 1  348             Rx   d 8 00 00 00 01 00 00 00 00
 1.595629 1  430             Rx   d 8 48 00 40 9B 00 00 A4 00
 1.595876 1  434             Rx   d 8 40 00 70 00 20 4D 28 00
 1.695069 1  287             Rx   d 8 00 00 00 00 00 00 00 00
 1.695253 1  30A             Rx   d 8 C7 00 00 00 00 00 00 00
 1.695481 1  318             Rx   d 8 00 00 00 00 00 00 00 00
 1.695735 1  346             Rx   d 8 00 00 00 03 03 00 C0 00
 1.695986 1  348             Rx   d 8 00 00 00 01 00 00 00 00
 1.696243 1  430             Rx   d 8 48 00 40 9B 00 00 A4 00
 1.696494 1  434             Rx   d 8 40 00 70 00 20 4D 28 00
 1.794876 1  318             Rx   d 8 00 00 00 00 00 00 00 00
 1.795058 1  346             Rx   d 8 00 00 00 03 03 00 C0 00
 1.795279 1  348             Rx   d 8 00 00 00 01 00 00 00 00
 1.795540 1  430             Rx   d 8 48 00 40 9B 00 00 A4 00
 1.795780 1  434             Rx   d 8 40 00 70 00 20 4D 28 00
 1.894965 1  287             Rx   d 8 00 00 00 00 00 00 00 00
 1.895149 1  30A             Rx   d 8 C7 00 00 00 00 00 00 00
 1.895373 1  318             Rx   d 8 00 00 00 00 00 00 00 00
 1.895632 1  346             Rx   d 8 00 00 00 03 03 00 C0 00
 1.895883 1  348             Rx   d 8 00 00 00 01 00 00 00 00
 1.896137 1  430             Rx   d 8 48 00 40 9B 00 00 A4 00
 1.896386 1  434             Rx   d 8 40 00 70 00 20 4D 28 00
 1.995113 1  318             Rx   d 8 00 00 00 00 00 00 00 00
 1.995326 1  346             Rx   d 8 00 00 00 03 03 00 C0 00
 1.995504 1  348             Rx   d 8 00 00 00 01 00 00 00 00
 1.995780 1  430             Rx   d 8 48 00 40 9B 00 00 A4 00
 1.996007 1  434             Rx   d 8 40 00 70 00 20 4D 28 00
 2.094889 1  18B             Rx   d 8 00 00 00 1E 00 00 00 00
 2.095098 1  19A             Rx   d 8 00 00 00 02 40 00 00 00
 2.095281 1  220             Rx   d 8 10 01 00 00 00 00 00 00
 2.095582 1  225             Rx   d 8 A0 81 80 00 00 00 00 00
 2.095790 1  287             Rx   d 8 00 00 00 00 00 00 00 00
 2.096051 1  2F4             Rx   d 8 10 01 00 00 00 00 00 00
 2.096308 1  2FD             Rx   d 8 09 00 00 04 FD 02 00 00
 2.096566 1  30A             Rx   d 8 C7 00 00 00 00 00 00 00
 2.096852 1  315             Rx   d 8 00 00 00 00 00 00 00 00
 2.097107 1  318             Rx   d 8 00 00 00 00 00 00 00 00
 2.097364 1  346             Rx   d 8 00 00 00 03 03 00 C0 00
 2.097623 1  348             Rx   d 8 00 00 00 01 00 00 00 00
 2.097886 1  350             Rx   d 8 40 00 00 00 00 00 00 00
 2.098137 1  353             Rx   d 8 00 00 00 00 00 00 00 00
 2.098403 1  3C8             Rx   d 8 00 00 00 EC 00 00 00 00
 2.098650 1  3E0             Rx   d 8 08 07 00 00 84 00 00 00
 2.098909 1  3FB             Rx   d 8 00 00 09 03 04 00 00 00
 2.099172 1  430             Rx   d 8 48 00 40 9B 00 00 A4 00
 2.099436 1  434             Rx   d 8 40 00 70 00 20 4D 28 00
 2.144931 1  591             Rx   d 8 91 00 FF FF FF FF FF FF
 2.195252 1  318             Rx   d 8 00 00 00 00 00 00 00 00
 2.195348 1  346             Rx   d 8 00 00 00 03 03 00 C0 00
 2.195697 1  348             Rx   d 8 00 00 00 01 00 00 00 00
 2.195720 1  430             Rx   d 8 48 00 40 9B 00 00 A4 00
 2.195987 1  434             Rx   d 8 40 00 70 00 20 4D 28 00
 2.295029 1  287             Rx   d 8 00 00 00 00 00 00 00 00
 2.295202 1  30A             Rx   d 8 C7 00 00 00 00 00 00 00
 2.295489 1  318             Rx   d 8 00 00 00 00 00 00 00 00
 2.295718 1  346             Rx   d 8 00 00 00 03 03 00 C0 00
 2.295978 1  348             Rx   d 8 00 00 00 01 00 00 00 00
 2.296230 1  430             Rx   d 8 48 00 40 9B 00 00 A4 00
 2.296480 1  434             Rx   d 8 40 00 70 00 20 4D 28 00
 2.394871 1  318             Rx   d 8 00 00 00 00 00 00 00 00
 2.395058 1  346             Rx   d 8 00 00 00 03 03 00 C0 00
 2.395276 1  348             Rx   d 8 00 00 00 01 00 00 00 00
 2.395527 1  430             Rx   d 8 48 00 40 9B 00 00 A4 00
 2.395775 1  434             Rx   d 8 40 00 70 00 20 4D 28 00
 2.494891 1  287             Rx   d 8 00 00 00 00 00 00 00 00
 2.495084 1  30A             Rx   d 8 C7 00 00 00 00 00 00 00
 2.495304 1  318             Rx   d 8 00 00 00 00 00 00 00 00
 2.495554 1  346             Rx   d 8 00 00 00 03 03 00 C0 00
 2.495834 1  348             Rx   d 8 00 00 00 01 00 00 00 00
 2.496083 1  430             Rx   d 8 48 00 40 9B 00 00 A4 00
 2.496336 1  434             Rx   d 8 40 00 70 00 20 4D 28 00
 2.595034 1  318             Rx   d 8 00 00 00 00 00 00 00 00
 2.595221 1  346             Rx   d 8 00 00 00 03 03 00 C0 00
 2.595446 1  348             Rx   d 8 00 00 00 01 00 00 00 00
 2.595696 1  430             Rx   d 8 48 00 40 9B 00 00 A4 00
 2.595943 1  434             Rx   d 8 40 00 70 00 20 4D 28 00
 2.694839 1  287             Rx   d 8 00 00 00 00 00 00 00 00
 2.695029 1  30A             Rx   d 8 C7 00 00 00 00 00 00 00
 2.695262 1  318             Rx   d 8 00 00 00 00 00 00 00 00
 2.695514 1  346             Rx   d 8 00 00 00 03 03 00 C0 00
 2.695771 1  348             Rx   d 8 00 00 00 01 00 00 00 00
 2.696025 1  430             Rx   d 8 48 00 40 9B 00 00 A4 00
 2.696273 1  434             Rx   d 8 40 00 70 00 20 4D 28 00
 2.794893 1  318             Rx   d 8 00 00 00 00 00 00 00 00
 2.795079 1  346             Rx   d 8 00 00 00 03 03 00 C0 00
 2.795292 1  348             Rx   d 8 00 00 00 01 00 00 00 00
 2.795550 1  430             Rx   d 8 48 00 40 9B 00 00 A4 00
 2.795825 1  434             Rx   d 8 40 00 70 00 20 4D 28 00
 2.895026 1  287             Rx   d 8 00 00 00 00 00 00 00 00
 2.895209 1  30A             Rx   d 8 C7 00 00 00 00 00 00 00
 2.895440 1  318             Rx   d 8 00 00 00 00 00 00 00 00
 2.895691 1  346             Rx   d 8 00 00 00 03 03 00 C0 00
 2.895947 1  348             Rx   d 8 00 00 00 01 00 00 00 00
 2.896200 1  430             Rx   d 8 48 00 40 9B 00 00 A4 00
 2.896456 1  434             Rx   d 8 40 00 70 00 20 4D 28 00
 2.994875 1  318             Rx   d 8 00 00 00 00 00 00 00 00
 2.995080 1  346             Rx   d 8 00 00 00 03 03 00 C0 00
 2.995282 1  348             Rx   d 8 00 00 00 01 00 00 00 00
 2.995543 1  430             Rx   d 8 48 00 40 9B 00 00 A4 00
 2.995786 1  434             Rx   d 8 40 00 70 00 20 4D 28 00
 3.094898 1  18B             Rx   d 8 00 00 00 1E 00 00 00 00
 3.095107 1  19A             Rx   d 8 00 00 00 02 40 00 00 00
 3.095298 1  220             Rx   d 8 10 01 00 00 00 00 00 00
 3.095587 1  225             Rx   d 8 A0 81 80 00 00 00 00 00
 3.095848 1  287             Rx   d 8 00 00 00 00 00 00 00 00
 3.096097 1  2F4             Rx   d 8 10 01 00 00 00 00 00 00
 3.096359 1  2FD             Rx   d 8 09 00 00 04 FD 02 00 00
 3.096610 1  30A             Rx   d 8 C7 00 00 00 00 00 00 00
 3.096874 1  315             Rx   d 8 00 00 00 00 00 00 00 00
 3.097136 1  318             Rx   d 8 00 00 00 00 00 00 00 00
 3.097389 1  346             Rx   d 8 00 00 00 03 03 00 C0 00
 3.097642 1  348             Rx   d 8 00 00 00 01 00 00 00 00
 3.097900 1  350             Rx   d 8 40 00 00 00 00 00 00 00
 3.098160 1  353             Rx   d 8 00 00 00 00 00 00 00 00
 3.098427 1  3C8             Rx   d 8 00 00 00 EC 00 00 00 00
 3.098682 1  3E0             Rx   d 8 08 07 00 00 84 00 00 00
 3.098928 1  3FB             Rx   d 8 00 00 09 03 04 00 00 00
 3.099189 1  430             Rx   d 8 48 00 40 9B 00 00 A4 00
 3.099454 1  434             Rx   d 8 40 00 70 00 20 4D 28 00
 3.145004 1  591             Rx   d 8 91 00 FF FF FF FF FF FF
 3.164966 1  430             Rx   d 8 48 00 40 9B 00 00 24 00
 3.195282 1  318             Rx   d 8 00 00 00 00 00 00 00 00
 3.195372 1  346             Rx   d 8 00 00 00 03 03 00 C0 00
 3.195730 1  348             Rx   d 8 00 00 00 01 00 00 00 00
 3.195751 1  430             Rx   d 8 48 00 40 9B 00 00 24 00
 3.196059 1  434             Rx   d 8 40 00 70 00 20 4D 28 00
 3.294986 1  287             Rx   d 8 00 00 00 00 00 00 00 00
 3.295045 1  30A             Rx   d 8 C7 00 00 00 00 00 00 00
 3.295298 1  318             Rx   d 8 00 00 00 00 00 00 00 00
 3.295537 1  346             Rx   d 8 00 00 00 03 03 00 C0 00
 3.295816 1  348             Rx   d 8 00 00 00 01 00 00 00 00
 3.296045 1  430             Rx   d 8 48 00 40 9B 00 00 24 00
 3.296303 1  434             Rx   d 8 40 00 70 00 20 4D 28 00
 3.394892 1  318             Rx   d 8 00 00 00 00 00 00 00 00
 3.395075 1  346             Rx   d 8 00 00 00 03 03 00 C0 00
 3.395301 1  348             Rx   d 8 00 00 00 01 00 00 00 00
 3.395558 1  430             Rx   d 8 48 00 40 9B 00 00 24 00
 3.395823 1  434             Rx   d 8 40 00 70 00 20 4D 28 00
 3.495031 1  287             Rx   d 8 00 00 00 00 00 00 00 00
 3.495217 1  30A             Rx   d 8 C7 00 00 00 00 00 00 00
 3.495434 1  318             Rx   d 8 00 00 00 00 00 00 00 00
 3.495692 1  346             Rx   d 8 00 00 00 03 03 00 C0 00
 3.495948 1  348             Rx   d 8 00 00 00 01 00 00 00 00
 3.496203 1  430             Rx   d 8 48 00 40 9B 00 00 24 00
 3.496452 1  434             Rx   d 8 40 00 70 00 20 4D 28 00
 3.594863 1  318             Rx   d 8 00 00 00 00 00 00 00 00
 3.595052 1  346             Rx   d 8 00 00 00 03 03 00 C0 00
 3.595276 1  348             Rx   d 8 00 00 00 01 00 00 00 00
 3.595534 1  430             Rx   d 8 48 00 40 9B 00 00 24 00
 3.595778 1  434             Rx   d 8 40 00 70 00 20 4D 28 00
 3.694924 1  287             Rx   d 8 00 00 00 00 00 00 00 00
 3.695110 1  30A             Rx   d 8 C7 00 00 00 00 00 00 00
 3.695339 1  318             Rx   d 8 00 00 00 00 00 00 00 00
 3.695597 1  346             Rx   d 8 00 00 00 03 03 00 C0 00
 3.695847 1  348             Rx   d 8 00 00 00 01 00 00 00 00
 3.696107 1  430             Rx   d 8 48 00 40 9B 00 00 24 00
 3.696355 1  434             Rx   d 8 40 00 70 00 20 4D 28 00
 3.795036 1  318             Rx   d 8 00 00 00 00 00 00 00 00
 3.795220 1  346             Rx   d 8 00 00 00 03 03 00 C0 00
 3.795450 1  348             Rx   d 8 00 00 00 01 00 00 00 00
 3.795707 1  430             Rx   d 8 48 00 40 9B 00 00 24 00
 3.795950 1  434             Rx   d 8 40 00 70 00 20 4D 28 00
 3.894846 1  287             Rx   d 8 00 00 00 00 00 00 00 00
 3.895037 1  30A             Rx   d 8 C7 00 00 00 00 00 00 00
 3.895262 1  318             Rx   d 8 00 00 00 00 00 00 00 00
 3.895519 1  346             Rx   d 8 00 00 00 03 03 00 C0 00
 3.895782 1  348             Rx   d 8 00 00 00 01 00 00 00 00
 3.896030 1  430             Rx   d 8 48 00 40 9B 00 00 24 00
 3.896285 1  434             Rx   d 8 40 00 70 00 20 4D 28 00
 3.994900 1  318             Rx   d 8 00 00 00 00 00 00 00 00
 3.995085 1  346             Rx   d 8 00 00 00 03 03 00 C0 00
 3.995297 1  348             Rx   d 8 00 00 00 01 00 00 00 00
 3.995557 1  430             Rx   d 8 48 00 40 9B 00 00 24 00
 3.995821 1  434             Rx   d 8 40 00 70 00 20 4D 28 00
 4.094975 1  18B             Rx   d 8 00 00 00 1E 00 00 00 00
 4.095187 1  19A             Rx   d 8 00 00 00 02 40 00 00 00
 4.095374 1  220             Rx   d 8 10 01 00 00 00 00 00 00
 4.095652 1  225             Rx   d 8 A0 81 80 00 00 00 00 00
 4.095890 1  287             Rx   d 8 00 00 00 00 00 00 00 00
 4.096145 1  2F4             Rx   d 8 10 01 00 00 00 00 00 00
 4.096411 1  2FD             Rx   d 8 09 00 00 04 FD 02 00 00
 4.096660 1  30A             Rx   d 8 C7 00 00 00 00 00 00 00
 4.096917 1  315             Rx   d 8 00 00 00 00 00 00 00 00
 4.097179 1  318             Rx   d 8 00 00 00 00 00 00 00 00
 4.097438 1  346             Rx   d 8 00 00 00 03 03 00 C0 00
 4.097697 1  348             Rx   d 8 00 00 00 01 00 00 00 00
 4.097957 1  350             Rx   d 8 40 00 00 00 00 00 00 00
 4.098206 1  353             Rx   d 8 00 00 00 00 00 00 00 00
 4.098470 1  3C8             Rx   d 8 00 00 00 EC 00 00 00 00
 4.098720 1  3E0             Rx   d 8 08 07 00 00 84 00 00 00
 4.098975 1  3FB             Rx   d 8 00 00 09 03 04 00 00 00
 4.099231 1  430             Rx   d 8 48 00 40 9B 00 00 24 00
 4.099500 1  434             Rx   d 8 40 00 70 00 20 4D 28 00
 4.145068 1  591             Rx   d 8 91 00 FF FF FF FF FF FF
 4.195106 1  318             Rx   d 8 00 00 00 00 00 00 00 00
 4.195208 1  346             Rx   d 8 00 00 00 03 03 00 C0 00
 4.195551 1  348             Rx   d 8 00 00 00 01 00 00 00 00
 4.195573 1  430             Rx   d 8 48 00 40 9B 00 00 24 00
 4.195854 1  434             Rx   d 8 40 00 70 00 20 4D 28 00
 4.294889 1  287             Rx   d 8 00 00 00 00 00 00 00 00
 4.295086 1  30A             Rx   d 8 C7 00 00 00 00 00 00 00
 4.295276 1  318             Rx   d 8 00 00 00 00 00 00 00 00
 4.295534 1  346             Rx   d 8 00 00 00 03 03 00 C0 00
 4.295790 1  348             Rx   d 8 00 00 00 01 00 00 00 00
 4.296044 1  430             Rx   d 8 48 00 40 9B 00 00 24 00
 4.296299 1  434             Rx   d 8 40 00 70 00 20 4D 28 00
 4.394961 1  318             Rx   d 8 00 00 00 00 00 00 00 00
 4.395145 1  346             Rx   d 8 00 00 00 03 03 00 C0 00
 4.395380 1  348             Rx   d 8 00 00 00 01 00 00 00 00
 4.395634 1  430             Rx   d 8 48 00 40 9B 00 00 24 00
 4.395875 1  434             Rx   d 8 40 00 70 00 20 4D 28 00
 4.494870 1  287             Rx   d 8 00 00 00 00 00 00 00 00
 4.495049 1  30A             Rx   d 8 C7 00 00 00 00 00 00 00
 4.495286 1  318             Rx   d 8 00 00 00 00 00 00 00 00
 4.495544 1  346             Rx   d 8 00 00 00 03 03 00 C0 00
 4.495832 1  348             Rx   d 8 00 00 00 01 00 00 00 00
 4.496086 1  430             Rx   d 8 48 00 40 9B 00 00 24 00
 4.496332 1  434             Rx   d 8 40 00 70 00 20 4D 28 00
 4.594846 1  318             Rx   d 8 00 00 00 00 00 00 00 00
 4.595034 1  346             Rx   d 8 00 00 00 03 03 00 C0 00
 4.595261 1  348             Rx   d 8 00 00 00 01 00 00 00 00
 4.595515 1  430             Rx   d 8 48 00 40 9B 00 00 24 00
 4.595766 1  434             Rx   d 8 40 00 70 00 20 4D 28 00
 4.694947 1  287             Rx   d 8 00 00 00 00 00 00 00 00
 4.695129 1  30A             Rx   d 8 C7 00 00 00 00 00 00 00
 4.695350 1  318             Rx   d 8 00 00 00 00 00 00 00 00
 4.695606 1  346             Rx   d 8 00 00 00 03 03 00 C0 00
 4.695868 1  348             Rx   d 8 00 00 00 01 00 00 00 00
 4.696120 1  430             Rx   d 8 48 00 40 9B 00 00 24 00
 4.696371 1  434             Rx   d 8 40 00 70 00 20 4D 28 00
 4.794846 1  318             Rx   d 8 00 00 00 00 00 00 00 00
 4.795037 1  346             Rx   d 8 00 00 00 03 03 00 C0 00
 4.795260 1  348             Rx   d 8 00 00 00 01 00 00 00 00
 4.795520 1  430             Rx   d 8 48 00 40 9B 00 00 24 00
 4.795763 1  434             Rx   d 8 40 00 70 00 20 4D 28 00
 4.894854 1  287             Rx   d 8 00 00 00 00 00 00 00 00
 4.895040 1  30A             Rx   d 8 C7 00 00 00 00 00 00 00
 4.895264 1  318             Rx   d 8 00 00 00 00 00 00 00 00
 4.895519 1  346             Rx   d 8 00 00 00 03 03 00 C0 00
 4.895780 1  348             Rx   d 8 00 00 00 01 00 00 00 00
 4.896034 1  430             Rx   d 8 48 00 40 9B 00 00 24 00
 4.896284 1  434             Rx   d 8 40 00 70 00 20 4D 28 00
 4.994967 1  318             Rx   d 8 00 00 00 00 00 00 00 00
 4.995179 1  346             Rx   d 8 00 00 00 03 03 00 C0 00
 4.995394 1  348             Rx   d 8 00 00 00 01 00 00 00 00
 4.995664 1  430             Rx   d 8 48 00 40 9B 00 00 24 00
 4.995874 1  434             Rx   d 8 40 00 70 00 20 4D 28 00
 5.055345 1  3E0             Rx   d 8 04 04 00 00 84 00 00 00
 5.095789 1  18B             Rx   d 8 00 00 00 1E 00 00 00 00
 5.095964 1  19A             Rx   d 8 00 00 00 02 40 00 00 00
 5.095988 1  220             Rx   d 8 10 01 00 00 00 00 00 00
 5.096001 1  225             Rx   d 8 A0 81 80 00 00 00 00 00
 5.096633 1  287             Rx   d 8 00 00 00 00 00 00 00 00
 5.096659 1  2F4             Rx   d 8 10 01 00 00 00 00 00 00
 5.096668 1  2FD             Rx   d 8 09 00 00 04 FD 02 00 00
 5.096673 1  30A             Rx   d 8 C7 00 00 00 00 00 00 00
 5.096974 1  315             Rx   d 8 00 00 00 00 00 00 00 00
 5.097196 1  318             Rx   d 8 00 00 00 00 00 00 00 00
 5.097500 1  346             Rx   d 8 00 00 00 03 03 00 C0 00
 5.097749 1  348             Rx   d 8 00 00 00 01 00 00 00 00
 5.098051 1  350             Rx   d 8 40 00 00 00 00 00 00 00
 5.098269 1  353             Rx   d 8 00 00 00 00 00 00 00 00
 5.098483 1  3C8             Rx   d 8 00 00 00 EC 00 00 00 00
 5.098746 1  3E0             Rx   d 8 04 04 00 00 84 00 00 00
 5.098998 1  3FB             Rx   d 8 00 00 09 03 04 00 00 00
 5.099252 1  430             Rx   d 8 48 00 40 9B 00 00 24 00
 5.099512 1  434             Rx   d 8 40 00 70 00 20 4D 28 00
 5.124746 1  2FD             Rx   d 8 09 00 00 04 FD 00 00 00
 5.144880 1  591             Rx   d 8 91 00 FF FF FF FF FF FF
 5.184983 1  225             Rx   d 8 A0 81 00 00 00 00 00 00
 5.195245 1  318             Rx   d 8 00 00 00 00 00 00 00 00
 5.195342 1  346             Rx   d 8 00 00 00 03 03 00 C0 00
 5.195584 1  348             Rx   d 8 00 00 00 01 00 00 00 00
 5.195752 1  430             Rx   d 8 48 00 40 9B 00 00 64 00
 5.196040 1  434             Rx   d 8 40 00 70 00 20 4D 28 00
 5.205299 1  2FD             Rx   d 8 09 00 00 04 FC 00 00 00
 5.294963 1  287             Rx   d 8 00 00 00 00 00 00 00 00
 5.295158 1  30A             Rx   d 8 C7 00 00 00 00 00 00 00
 5.295328 1  318             Rx   d 8 00 00 00 00 00 00 00 00
 5.295598 1  346             Rx   d 8 00 00 00 03 03 00 C0 00
 5.295846 1  348             Rx   d 8 00 00 00 01 00 00 00 00
 5.296100 1  430             Rx   d 8 48 00 40 9B 00 00 64 00
 5.296352 1  434             Rx   d 8 40 00 70 00 20 4D 28 00
 5.394838 1  318             Rx   d 8 00 00 00 00 00 00 00 00
 5.395025 1  346             Rx   d 8 00 00 00 03 03 00 C0 00
 5.395245 1  348             Rx   d 8 00 00 00 01 00 00 00 00
 5.395497 1  430             Rx   d 8 48 00 40 9B 00 00 64 00
 5.395745 1  434             Rx   d 8 40 00 70 00 20 4D 28 00
 5.494828 1  287             Rx   d 8 00 00 00 00 00 00 00 00
 5.495008 1  30A             Rx   d 8 C7 00 00 00 00 00 00 00
 5.495229 1  318             Rx   d 8 00 00 00 00 00 00 00 00
 5.495484 1  346             Rx   d 8 00 00 00 03 03 00 C0 00
 5.495738 1  348             Rx   d 8 00 00 00 01 00 00 00 00
 5.495994 1  430             Rx   d 8 48 00 40 9B 00 00 64 00
 5.496240 1  434             Rx   d 8 40 00 70 00 20 4D 28 00
 5.594935 1  318             Rx   d 8 00 00 00 00 00 00 00 00
 5.595115 1  346             Rx   d 8 00 00 00 03 03 00 C0 00
 5.595337 1  348             Rx   d 8 00 00 00 01 00 00 00 00
 5.595590 1  430             Rx   d 8 48 00 40 9B 00 00 64 00
 5.595839 1  434             Rx   d 8 40 00 70 00 20 4D 28 00
 5.694814 1  287             Rx   d 8 00 00 00 00 00 00 00 00
 5.694997 1  30A             Rx   d 8 C7 00 00 00 00 00 00 00
 5.695230 1  318             Rx   d 8 00 00 00 00 00 00 00 00
 5.695483 1  346             Rx   d 8 00 00 00 03 03 00 C0 00
 5.695740 1  348             Rx   d 8 00 00 00 01 00 00 00 00
 5.695989 1  430             Rx   d 8 48 00 40 9B 00 00 64 00
 5.696244 1  434             Rx   d 8 40 00 70 00 20 4D 28 00
 5.794833 1  318             Rx   d 8 00 00 00 00 00 00 00 00
 5.795014 1  346             Rx   d 8 00 00 00 03 03 00 C0 00
 5.795238 1  348             Rx   d 8 00 00 00 01 00 00 00 00
 5.795493 1  430             Rx   d 8 48 00 40 9B 00 00 64 00
 5.795740 1  434             Rx   d 8 40 00 70 00 20 4D 28 00
 5.894896 1  287             Rx   d 8 00 00 00 00 00 00 00 00
 5.895104 1  30A             Rx   d 8 C7 00 00 00 00 00 00 00
 5.895301 1  318             Rx   d 8 00 00 00 00 00 00 00 00
 5.895573 1  346             Rx   d 8 00 00 00 03 03 00 C0 00
 5.895841 1  348             Rx   d 8 00 00 00 01 00 00 00 00
 5.896088 1  430             Rx   d 8 48 00 40 9B 00 00 64 00
 5.896339 1  434             Rx   d 8 40 00 70 00 20 4D 28 00
 5.994841 1  318             Rx   d 8 00 00 00 00 00 00 00 00
 5.995049 1  346             Rx   d 8 00 00 00 03 03 00 C0 00
 5.995243 1  348             Rx   d 8 00 00 00 01 00 00 00 00
 5.995522 1  430             Rx   d 8 48 00 40 9B 00 00 64 00
 5.995752 1  434             Rx   d 8 40 00 70 00 20 4D 28 00
 6.004675 1  3B2             Tx   d 8 40 00 00 80 00 00 00 00
 6.004971 1  42F             Tx   d 8 00 00 00 00 00 00 67 78
 6.005515 1  202             Tx   d 8 40 00 00 00 41 41 3C C8
 6.005768 1  156             Tx   d 8 64 00 00 00 23 00 00 00
 6.007575 1  4C              Tx   d 8 00 55 55 00 00 00 00 00
 6.009432 1  3C3             Tx   d 8 00 00 00 00 00 00 00 00
 6.009728 1  416             Tx   d 8 00 00 00 00 00 00 00 00
 6.011981 1  3B4             Tx   d 8 31 00 00 00 00 00 00 00
 6.012324 1  421             Tx   d 8 08 00 00 00 00 00 00 00
 6.014657 1  42C             Tx   d 8 00 00 A6 00 00 00 00 00
 6.016803 1  77              Tx   d 8 23 00 00 00 00 00 00 00
 6.017126 1  191             Tx   d 8 41 11 00 00 00 00 00 00
 6.019611 1  3B3             Tx   d 8 00 00 00 00 96 00 FF 00
 6.020085 1  3D8             Tx   d 8 00 00 00 00 00 00 00 00
 6.022022 1  46B             Tx   d 8 00 00 00 00 00 00 00 00
 6.024983 1  123             Rx   d 8 40 00 00 00 00 00 00 00
 6.025167 1  3FB             Rx   d 8 00 01 09 02 04 00 00 00
 6.025387 1  430             Rx   d 8 48 00 40 9B 00 00 E4 00
 6.054846 1  123             Rx   d 8 00 00 00 00 00 00 00 00
 6.095090 1  18B             Rx   d 8 00 00 00 1E 00 00 00 00
 6.095187 1  19A             Rx   d 8 00 00 00 02 40 00 00 00
 6.095504 1  220             Rx   d 8 10 01 00 00 00 00 00 00
 6.095521 1  225             Rx   d 8 A0 81 00 00 00 00 00 00
 6.095853 1  287             Rx   d 8 00 00 00 00 00 00 00 00
 6.096099 1  2F4             Rx   d 8 10 01 00 00 00 00 00 00
 6.096379 1  2FD             Rx   d 8 09 00 00 04 FC 00 00 00
 6.096590 1  30A             Rx   d 8 C7 00 00 00 00 00 00 00
 6.096882 1  315             Rx   d 8 00 00 00 00 00 00 00 00
 6.097147 1  318             Rx   d 8 00 00 00 00 00 00 00 00
 6.097401 1  346             Rx   d 8 00 00 00 03 03 00 C0 00
 6.097660 1  348             Rx   d 8 00 00 00 01 00 00 00 00
 6.097918 1  350             Rx   d 8 40 00 00 00 00 00 00 00
 6.098257 1  353             Rx   d 8 00 00 00 00 00 00 00 00
 6.098811 1  3C8             Rx   d 8 00 00 00 EC 00 00 00 00
 6.098852 1  3E0             Rx   d 8 04 04 00 00 84 00 00 00
 6.099536 1  3FB             Rx   d 8 00 01 09 02 04 00 00 00
 6.099578 1  430             Rx   d 8 40 00 40 9B 00 00 84 00
 6.099588 1  434             Rx   d 8 40 00 70 00 20 4D 28 00
 6.124836 1  2FD             Rx   d 8 09 00 00 04 FD 02 00 00
 6.145084 1  591             Rx   d 8 91 00 FF FF FF FF FF FF
 6.194954 1  318             Rx   d 8 00 00 00 00 00 00 00 00
 6.195159 1  346             Rx   d 8 00 00 00 03 03 00 C0 00
 6.195354 1  348             Rx   d 8 00 00 00 01 00 00 00 00
 6.195630 1  430             Rx   d 8 48 00 40 9B 00 00 84 00
 6.195857 1  434             Rx   d 8 40 00 70 00 20 4D 28 00
 6.225188 1  430             Rx   d 8 C8 00 40 9B 00 00 84 00
 6.234817 1  225             Rx   d 8 A0 81 00 00 51 80 00 00
 6.295053 1  287             Rx   d 8 00 00 00 00 00 00 00 00
 6.295158 1  30A             Rx   d 8 C7 00 00 00 00 00 00 00
 6.295619 1  318             Rx   d 8 00 00 00 00 00 00 00 00
 6.295652 1  346             Rx   d 8 00 00 00 03 03 00 C0 00
 6.296129 1  348             Rx   d 8 00 00 00 01 00 00 00 00
 6.296164 1  430             Rx   d 8 C8 00 40 9B 00 00 84 00
 6.296580 1  434             Rx   d 8 40 00 70 00 20 4D 28 00
 6.394841 1  318             Rx   d 8 00 00 00 00 00 00 00 00
 6.395025 1  346             Rx   d 8 00 00 00 03 03 00 C0 00
 6.395247 1  348             Rx   d 8 00 00 00 01 00 00 00 00
 6.395499 1  430             Rx   d 8 C8 00 40 9B 00 00 84 00
 6.395746 1  434             Rx   d 8 40 00 70 00 20 4D 28 00
 6.494930 1  287             Rx   d 8 00 00 00 00 00 00 00 00
 6.495108 1  30A             Rx   d 8 C7 00 00 00 00 00 00 00
 6.495344 1  318             Rx   d 8 00 00 00 00 00 00 00 00
 6.495599 1  346             Rx   d 8 00 00 00 03 03 00 C0 00
 6.495853 1  348             Rx   d 8 00 00 00 01 00 00 00 00
 6.496109 1  430             Rx   d 8 C8 00 40 9B 00 00 84 00
 6.496358 1  434             Rx   d 8 40 00 70 00 20 4D 28 00
 6.595053 1  318             Rx   d 8 00 00 00 00 00 00 00 00
 6.595189 1  346             Rx   d 8 00 00 00 03 03 00 C0 00
 6.595815 1  348             Rx   d 8 00 00 00 01 00 00 00 00
 6.595853 1  430             Rx   d 8 C8 00 40 9B 00 00 84 00
 6.595860 1  434             Rx   d 8 40 00 70 00 20 4D 28 00
 6.694832 1  287             Rx   d 8 00 00 00 00 00 00 00 00
 6.695021 1  30A             Rx   d 8 C7 00 00 00 00 00 00 00
 6.695235 1  318             Rx   d 8 00 00 00 00 00 00 00 00
 6.695499 1  346             Rx   d 8 00 00 00 03 03 00 C0 00
 6.695748 1  348             Rx   d 8 00 00 00 01 00 00 00 00
 6.696002 1  430             Rx   d 8 C8 00 40 9B 00 00 84 00
 6.696254 1  434             Rx   d 8 40 00 70 00 20 4D 28 00
 6.794948 1  318             Rx   d 8 00 00 00 00 00 00 00 00
 6.795133 1  346             Rx   d 8 00 00 00 03 03 00 C0 00
 6.795346 1  348             Rx   d 8 00 00 00 01 00 00 00 00
 6.795603 1  430             Rx   d 8 C8 00 40 9B 00 00 84 00
 6.795846 1  434             Rx   d 8 40 00 70 00 20 4D 28 00
 6.894845 1  287             Rx   d 8 00 00 00 00 00 00 00 00
 6.895062 1  30A             Rx   d 8 C7 00 00 00 00 00 00 00
 6.895239 1  318             Rx   d 8 00 00 00 00 00 00 00 00
 6.895514 1  346             Rx   d 8 00 00 00 03 03 00 C0 00
 6.895756 1  348             Rx   d 8 00 00 00 01 00 00 00 00
 6.896012 1  430             Rx   d 8 C8 00 40 9B 00 00 84 00
 6.896258 1  434             Rx   d 8 40 00 70 00 20 4D 28 00
 6.994854 1  318             Rx   d 8 00 00 00 00 00 00 00 00
 6.995071 1  346             Rx   d 8 00 00 00 03 03 00 C0 00
 6.995251 1  348             Rx   d 8 00 00 00 01 00 00 00 00
 6.995533 1  430             Rx   d 8 C8 00 40 9B 00 00 84 00
 6.995751 1  434             Rx   d 8 40 00 70 00 20 4D 28 00
 7.024263 1  3B2             Tx   d 8 40 00 00 80 00 00 00 00
 7.024567 1  42F             Tx   d 8 00 00 00 00 00 00 67 78
 7.025155 1  202             Tx   d 8 40 00 00 00 41 41 3C C8
 7.025437 1  156             Tx   d 8 B4 00 00 00 23 00 00 00
 7.028086 1  4C              Tx   d 8 00 55 55 00 00 00 00 00
 7.030669 1  3C3             Tx   d 8 00 00 00 00 00 00 00 00
 7.032795 1  416             Tx   d 8 00 00 00 00 00 00 00 00
 7.034642 1  3B4             Tx   d 8 31 00 00 00 00 00 00 00
 7.036802 1  421             Tx   d 8 08 00 00 00 00 00 00 00
 7.038681 1  42C             Tx   d 8 00 00 A6 00 00 00 00 00
 7.041579 1  77              Tx   d 8 23 00 00 00 00 00 00 00
 7.044399 1  191             Tx   d 8 41 11 00 00 00 00 00 00
 7.049959 1  3B3             Tx   d 8 00 00 00 00 96 00 FF 00
 7.052528 1  3D8             Tx   d 8 00 00 00 00 00 00 00 00
 7.055506 1  46B             Tx   d 8 00 00 00 00 00 00 00 00
 7.095115 1  18B             Rx   d 8 00 00 00 1E 00 00 00 00
 7.095208 1  19A             Rx   d 8 00 00 00 02 40 00 00 00
 7.095520 1  220             Rx   d 8 10 01 00 00 00 00 00 00
 7.095539 1  225             Rx   d 8 A0 81 00 00 51 80 00 00
 7.095982 1  287             Rx   d 8 00 00 00 00 00 00 00 00
 7.096973 1  2F4             Rx   d 8 10 01 00 00 00 00 00 00
 7.097029 1  2FD             Rx   d 8 09 00 00 04 FD 02 00 00
 7.097041 1  30A             Rx   d 8 C7 00 00 00 00 00 00 00
 7.097049 1  315             Rx   d 8 00 00 00 00 00 00 00 00
 7.097705 1  318             Rx   d 8 00 00 00 00 00 00 00 00
 7.097737 1  346             Rx   d 8 00 00 00 03 03 00 C0 00
 7.097741 1  348             Rx   d 8 00 00 00 01 00 00 00 00
 7.097961 1  350             Rx   d 8 40 00 00 00 00 00 00 00
 7.098187 1  353             Rx   d 8 00 00 00 00 00 00 00 00
 7.098498 1  3C8             Rx   d 8 00 00 00 EC 00 00 00 00
 7.098682 1  3E0             Rx   d 8 04 04 00 00 84 00 00 00
 7.098939 1  3FB             Rx   d 8 00 01 09 02 04 00 00 00
 7.099201 1  430             Rx   d 8 C8 00 40 9B 00 00 84 00
 7.099482 1  434             Rx   d 8 40 00 70 00 20 4D 28 00
 7.144989 1  591             Rx   d 8 91 00 FF FF FF FF FF FF
 7.194982 1  318             Rx   d 8 00 00 00 00 00 00 00 00
 7.195048 1  346             Rx   d 8 00 00 00 03 03 00 C0 00
 7.195270 1  348             Rx   d 8 00 00 00 01 00 00 00 00
 7.195529 1  430             Rx   d 8 C8 00 40 9B 00 00 84 00
 7.195750 1  434             Rx   d 8 40 00 70 00 20 4D 28 00
 7.294819 1  287             Rx   d 8 00 00 00 00 00 00 00 00
 7.294997 1  30A             Rx   d 8 C7 00 00 00 00 00 00 00
 7.295284 1  318             Rx   d 8 00 00 00 00 00 00 00 00
 7.295508 1  346             Rx   d 8 00 00 00 03 03 00 C0 00
 7.295765 1  348             Rx   d 8 00 00 00 01 00 00 00 00
 7.296021 1  430             Rx   d 8 C8 00 40 9B 00 00 84 00
 7.296270 1  434             Rx   d 8 40 00 70 00 20 4D 28 00
 7.394943 1  318             Rx   d 8 00 00 00 00 00 00 00 00
 7.395142 1  346             Rx   d 8 00 00 00 03 03 00 C0 00
 7.395350 1  348             Rx   d 8 00 00 00 01 00 00 00 00
 7.395606 1  430             Rx   d 8 C8 00 40 9B 00 00 84 00
 7.395852 1  434             Rx   d 8 40 00 70 00 20 4D 28 00
 7.494826 1  287             Rx   d 8 00 00 00 00 00 00 00 00
 7.495010 1  30A             Rx   d 8 C7 00 00 00 00 00 00 00
 7.495248 1  318             Rx   d 8 00 00 00 00 00 00 00 00
 7.495498 1  346             Rx   d 8 00 00 00 03 03 00 C0 00
 7.495757 1  348             Rx   d 8 00 00 00 01 00 00 00 00
 7.496004 1  430             Rx   d 8 C8 00 40 9B 00 00 84 00
 7.496256 1  434             Rx   d 8 40 00 70 00 20 4D 28 00
 7.594863 1  318             Rx   d 8 00 00 00 00 00 00 00 00
 7.595049 1  346             Rx   d 8 00 00 00 03 03 00 C0 00
 7.595264 1  348             Rx   d 8 00 00 00 01 00 00 00 00
 7.595521 1  430             Rx   d 8 C8 00 40 9B 00 00 84 00
 7.595768 1  434             Rx   d 8 40 00 70 00 20 4D 28 00
 7.694945 1  287             Rx   d 8 00 00 00 00 00 00 00 00
 7.695133 1  30A             Rx   d 8 C7 00 00 00 00 00 00 00
 7.695355 1  318             Rx   d 8 00 00 00 00 00 00 00 00
 7.695604 1  346             Rx   d 8 00 00 00 03 03 00 C0 00
 7.695868 1  348             Rx   d 8 00 00 00 01 00 00 00 00
 7.696118 1  430             Rx   d 8 C8 00 40 9B 00 00 84 00
 7.696368 1  434             Rx   d 8 40 00 70 00 20 4D 28 00
 7.794847 1  318             Rx   d 8 00 00 00 00 00 00 00 00
 7.795034 1  346             Rx   d 8 00 00 00 03 03 00 C0 00
 7.795250 1  348             Rx   d 8 00 00 00 01 00 00 00 00
 7.795502 1  430             Rx   d 8 C8 00 40 9B 00 00 84 00
 7.795750 1  434             Rx   d 8 40 00 70 00 20 4D 28 00
 7.894850 1  287             Rx   d 8 00 00 00 00 00 00 00 00
 7.895053 1  30A             Rx   d 8 C7 00 00 00 00 00 00 00
 7.895256 1  318             Rx   d 8 00 00 00 00 00 00 00 00
 7.895520 1  346             Rx   d 8 00 00 00 03 03 00 C0 00
 7.895767 1  348             Rx   d 8 00 00 00 01 00 00 00 00
 7.896021 1  430             Rx   d 8 C8 00 40 9B 00 00 84 00
 7.896270 1  434             Rx   d 8 40 00 70 00 20 4D 28 00
 7.994949 1  318             Rx   d 8 00 00 00 00 00 00 00 00
 7.995156 1  346             Rx   d 8 00 00 00 03 03 00 C0 00
 7.995359 1  348             Rx   d 8 00 00 00 01 00 00 00 00
 7.995632 1  430             Rx   d 8 C8 00 40 9B 00 00 84 00
 7.995862 1  434             Rx   d 8 40 00 70 00 20 4D 28 00
 8.060076 1  3B2             Tx   d 8 40 00 00 80 00 00 00 00
 8.060139 1  ErrorFrame
 8.060583 1  42F             Tx   d 8 00 00 00 00 00 00 67 78
 8.061157 1  202             Tx   d 8 40 00 00 00 41 41 3C C8
 8.061600 1  156             Tx   d 8 64 00 00 00 23 00 00 00
 8.064475 1  4C              Tx   d 8 00 55 55 00 00 00 00 00
 8.065653 1  3C3             Tx   d 8 00 00 00 00 00 00 00 00
 8.071783 1  416             Tx   d 8 00 00 00 00 00 00 00 00
 8.074033 1  3B4             Tx   d 8 31 00 00 00 00 00 00 00
 8.074308 1  421             Tx   d 8 08 00 00 00 00 00 00 00
 8.076527 1  42C             Tx   d 8 00 00 A6 00 00 00 00 00
 8.078557 1  77              Tx   d 8 23 00 00 00 00 00 00 00
 8.079024 1  191             Tx   d 8 41 11 00 00 00 00 00 00
 8.081342 1  3B3             Tx   d 8 00 00 00 00 96 00 FF 00
 8.083559 1  3D8             Tx   d 8 00 00 00 00 00 00 00 00
 8.085968 1  46B             Tx   d 8 00 00 00 00 00 00 00 00
 8.094856 1  18B             Rx   d 8 00 00 00 1E 00 00 00 00
 8.095102 1  19A             Rx   d 8 00 00 00 02 40 00 00 00
 8.095264 1  220             Rx   d 8 10 01 00 00 00 00 00 00
 8.095601 1  225             Rx   d 8 A0 81 00 00 51 80 00 00
 8.095786 1  287             Rx   d 8 00 00 00 00 00 00 00 00
 8.096026 1  2F4             Rx   d 8 10 01 00 00 00 00 00 00
 8.096267 1  2FD             Rx   d 8 09 00 00 04 FD 02 00 00
 8.096518 1  30A             Rx   d 8 C7 00 00 00 00 00 00 00
 8.096801 1  315             Rx   d 8 00 00 00 00 00 00 00 00
 8.097088 1  318             Rx   d 8 00 00 00 00 00 00 00 00
 8.097349 1  346             Rx   d 8 00 00 00 03 03 00 C0 00
 8.097580 1  348             Rx   d 8 00 00 00 01 00 00 00 00
 8.097871 1  350             Rx   d 8 40 00 00 00 00 00 00 00
 8.098107 1  353             Rx   d 8 00 00 00 00 00 00 00 00
 8.098351 1  3C8             Rx   d 8 00 00 00 EC 00 00 00 00
 8.098604 1  3E0             Rx   d 8 04 04 00 00 84 00 00 00
 8.098860 1  3FB             Rx   d 8 00 01 09 02 04 00 00 00
 8.099111 1  430             Rx   d 8 C8 00 40 9B 00 00 84 00
 8.099363 1  434             Rx   d 8 40 00 70 00 20 4D 28 00
 8.144913 1  591             Rx   d 8 91 00 FF FF FF FF FF FF
 8.195015 1  318             Rx   d 8 00 00 00 00 00 00 00 00
 8.195102 1  346             Rx   d 8 00 00 00 03 03 00 C0 00
 8.195281 1  348             Rx   d 8 00 00 00 01 00 00 00 00
 8.195553 1  430             Rx   d 8 C8 00 40 9B 00 00 84 00
 8.195834 1  434             Rx   d 8 40 00 70 00 20 4D 28 00
 8.295011 1  287             Rx   d 8 00 00 00 00 00 00 00 00
 8.295200 1  30A             Rx   d 8 C7 00 00 00 00 00 00 00
 8.295412 1  318             Rx   d 8 00 00 00 00 00 00 00 00
 8.295670 1  346             Rx   d 8 00 00 00 03 03 00 C0 00
 8.295926 1  348             Rx   d 8 00 00 00 01 00 00 00 00
 8.296181 1  430             Rx   d 8 C8 00 40 9B 00 00 84 00
 8.296426 1  434             Rx   d 8 40 00 70 00 20 4D 28 00
 8.394962 1  318             Rx   d 8 00 00 00 00 00 00 00 00
 8.395137 1  346             Rx   d 8 00 00 00 03 03 00 C0 00
 8.395373 1  348             Rx   d 8 00 00 00 01 00 00 00 00
 8.395621 1  430             Rx   d 8 C8 00 40 9B 00 00 84 00
 8.395870 1  434             Rx   d 8 40 00 70 00 20 4D 28 00
 8.494940 1  287             Rx   d 8 00 00 00 00 00 00 00 00
 8.495114 1  30A             Rx   d 8 C7 00 00 00 00 00 00 00
 8.495386 1  318             Rx   d 8 00 00 00 00 00 00 00 00
 8.495606 1  346             Rx   d 8 00 00 00 03 03 00 C0 00
 8.495864 1  348             Rx   d 8 00 00 00 01 00 00 00 00
 8.496112 1  430             Rx   d 8 C8 00 40 9B 00 00 84 00
 8.496361 1  434             Rx   d 8 40 00 70 00 20 4D 28 00
 8.595002 1  318             Rx   d 8 00 00 00 00 00 00 00 00
 8.595180 1  346             Rx   d 8 00 00 00 03 03 00 C0 00
 8.595413 1  348             Rx   d 8 00 00 00 01 00 00 00 00
 8.595659 1  430             Rx   d 8 C8 00 40 9B 00 00 84 00
 8.595905 1  434             Rx   d 8 40 00 70 00 20 4D 28 00
 8.694907 1  287             Rx   d 8 00 00 00 00 00 00 00 00
 8.695088 1  30A             Rx   d 8 C7 00 00 00 00 00 00 00
 8.695350 1  318             Rx   d 8 00 00 00 00 00 00 00 00
 8.695577 1  346             Rx   d 8 00 00 00 03 03 00 C0 00
 8.695835 1  348             Rx   d 8 00 00 00 01 00 00 00 00
 8.696092 1  430             Rx   d 8 C8 00 40 9B 00 00 84 00
 8.696337 1  434             Rx   d 8 40 00 70 00 20 4D 28 00
 8.794951 1  318             Rx   d 8 00 00 00 00 00 00 00 00
 8.795124 1  346             Rx   d 8 00 00 00 03 03 00 C0 00
 8.795400 1  348             Rx   d 8 00 00 00 01 00 00 00 00
 8.795616 1  430             Rx   d 8 C8 00 40 9B 00 00 84 00
 8.795856 1  434             Rx   d 8 40 00 70 00 20 4D 28 00
 8.895015 1  287             Rx   d 8 00 00 00 00 00 00 00 00
 8.895216 1  30A             Rx   d 8 C7 00 00 00 00 00 00 00
 8.895406 1  318             Rx   d 8 00 00 00 00 00 00 00 00
 8.895666 1  346             Rx   d 8 00 00 00 03 03 00 C0 00
 8.895921 1  348             Rx   d 8 00 00 00 01 00 00 00 00
 8.896174 1  430             Rx   d 8 C8 00 40 9B 00 00 84 00
 8.896425 1  434             Rx   d 8 40 00 70 00 20 4D 28 00
 8.994948 1  318             Rx   d 8 00 00 00 00 00 00 00 00
 8.995151 1  346             Rx   d 8 00 00 00 03 03 00 C0 00
 8.995349 1  348             Rx   d 8 00 00 00 01 00 00 00 00
 8.995605 1  430             Rx   d 8 C8 00 40 9B 00 00 84 00
 8.995855 1  434             Rx   d 8 40 00 70 00 20 4D 28 00
 9.024782 1  430             Rx   d 8 C8 00 40 9B 00 00 04 00
 9.090088 1  3B2             Tx   d 8 40 00 00 80 00 00 00 00
 9.090733 1  42F             Tx   d 8 00 00 00 00 00 00 67 78
 9.091344 1  202             Tx   d 8 40 00 00 00 41 41 3C C8
 9.094066 1  156             Tx   d 8 B4 00 00 00 23 00 00 00
 9.094994 1  18B             Rx   d 8 00 00 00 1E 00 00 00 00
 9.095220 1  19A             Rx   d 8 00 00 00 02 40 00 00 00
 9.095372 1  220             Rx   d 8 10 01 00 00 00 00 00 00
 9.095656 1  225             Rx   d 8 A0 81 00 00 51 80 00 00
 9.095905 1  287             Rx   d 8 00 00 00 00 00 00 00 00
 9.096168 1  2F4             Rx   d 8 10 01 00 00 00 00 00 00
 9.096418 1  2FD             Rx   d 8 09 00 00 04 FD 02 00 00
 9.096682 1  30A             Rx   d 8 C7 00 00 00 00 00 00 00
 9.097069 1  315             Rx   d 8 00 00 00 00 00 00 00 00
 9.097574 1  318             Rx   d 8 00 00 00 00 00 00 00 00
 9.097617 1  346             Rx   d 8 00 00 00 03 03 00 C0 00
 9.098276 1  348             Rx   d 8 00 00 00 01 00 00 00 00
 9.098308 1  350             Rx   d 8 40 00 00 00 00 00 00 00
 9.098315 1  353             Rx   d 8 00 00 00 00 00 00 00 00
 9.098777 1  3C8             Rx   d 8 00 00 00 EC 00 00 00 00
 9.098799 1  3E0             Rx   d 8 04 04 00 00 84 00 00 00
 9.099048 1  3FB             Rx   d 8 00 01 09 02 04 00 00 00
 9.099227 1  430             Rx   d 8 C8 00 40 9B 00 00 04 00
 9.099545 1  434             Rx   d 8 40 00 70 00 20 4D 28 00
 9.101026 1  4C              Tx   d 8 00 55 55 00 00 00 00 00
 9.102790 1  3C3             Tx   d 8 00 00 00 00 00 00 00 00
 9.103364 1  416             Tx   d 8 00 00 00 00 00 00 00 00
 9.105985 1  3B4             Tx   d 8 31 00 00 00 00 00 00 00
 9.109117 1  421             Tx   d 8 08 00 00 00 00 00 00 00
 9.110603 1  42C             Tx   d 8 00 00 A6 00 00 00 00 00
 9.114999 1  77              Tx   d 8 23 00 00 00 00 00 00 00
 9.118359 1  191             Tx   d 8 41 11 00 00 00 00 00 00
 9.120380 1  3B3             Tx   d 8 00 00 00 00 96 00 FF 00
 9.120673 1  3D8             Tx   d 8 00 00 00 00 00 00 00 00
 9.122550 1  46B             Tx   d 8 00 00 00 00 00 00 00 00
 9.145161 1  591             Rx   d 8 91 00 FF FF FF FF FF FF
 9.195092 1  318             Rx   d 8 00 00 00 00 00 00 00 00
 9.195297 1  346             Rx   d 8 00 00 00 03 03 00 C0 00
 9.195469 1  348             Rx   d 8 00 00 00 01 00 00 00 00
 9.195728 1  430             Rx   d 8 C8 00 40 9B 00 00 04 00
 9.195975 1  434             Rx   d 8 40 00 70 00 20 4D 28 00
 9.295414 1  287             Rx   d 8 00 00 00 00 00 00 00 00
 9.295594 1  30A             Rx   d 8 C7 00 00 00 00 00 00 00
 9.295834 1  318             Rx   d 8 00 00 00 00 00 00 00 00
 9.296091 1  346             Rx   d 8 00 00 00 03 03 00 C0 00
 9.296341 1  348             Rx   d 8 00 00 00 01 00 00 00 00
 9.296601 1  430             Rx   d 8 C8 00 40 9B 00 00 04 00
 9.296846 1  434             Rx   d 8 40 00 70 00 20 4D 28 00
 9.395014 1  318             Rx   d 8 00 00 00 00 00 00 00 00
 9.395192 1  346             Rx   d 8 00 00 00 03 03 00 C0 00
 9.395427 1  348             Rx   d 8 00 00 00 01 00 00 00 00
 9.395679 1  430             Rx   d 8 C8 00 40 9B 00 00 04 00
 9.395924 1  434             Rx   d 8 40 00 70 00 20 4D 28 00
 9.464953 1  3E0             Rx   d 8 04 05 00 00 84 00 00 00
 9.495231 1  287             Rx   d 8 00 00 00 00 00 00 00 00
 9.495408 1  30A             Rx   d 8 C7 00 00 00 00 00 00 00
 9.495636 1  318             Rx   d 8 00 00 00 00 00 00 00 00
 9.495890 1  346             Rx   d 8 00 00 00 03 03 00 C0 00
 9.496146 1  348             Rx   d 8 00 00 00 01 00 00 00 00
 9.496394 1  430             Rx   d 8 C8 00 40 9B 00 00 04 00
 9.496648 1  434             Rx   d 8 40 00 70 00 20 4D 28 00
 9.595187 1  318             Rx   d 8 00 00 00 00 00 00 00 00
 9.595378 1  346             Rx   d 8 00 00 00 03 03 00 C0 00
 9.595591 1  348             Rx   d 8 00 00 00 01 00 00 00 00
 9.595842 1  430             Rx   d 8 C8 00 40 9B 00 00 04 00
 9.596081 1  434             Rx   d 8 40 00 70 00 20 4D 28 00
 9.695015 1  287             Rx   d 8 00 00 00 00 00 00 00 00
 9.695192 1  30A             Rx   d 8 C7 00 00 00 00 00 00 00
