date Sun Mar 16 11:23:32.296 AM 2025
base hex  timestamps absolute
internal events logged
Begin Triggerblock Sun Mar 16 11:23:32.299 AM 2025
 0.000000 Start of measurement
 0.000000 1  41              Rx   d 8 00 00 00 00 00 00 00 00
 0.000058 1  42C             Rx   d 8 80 00 00 00 00 00 00 00
 0.002810 1  166             Rx   d 8 76 00 00 FF FF FF 00 00
 0.002970 1  167             Rx   d 8 00 FF FF 00 00 02 0E 00
 0.003192 1  171             Rx   d 8 F0 E0 00 00 00 00 00 00
 0.003437 1  204             Rx   d 8 00 00 FF 00 00 00 00 00
 0.003690 1  421             Rx   d 8 04 00 11 00 00 00 FF 00
 0.003959 1  424             Rx   d 8 00 00 00 03 00 00 00 00
 0.004207 1  42D             Rx   d 8 00 03 FF 00 00 00 F0 00
 0.004436 1  42F             Rx   d 8 7D 02 05 4E 20 FF 00 00
 0.004677 1  43D             Rx   d 8 14 00 21 00 00 00 00 00
 0.004928 1  43E             Rx   d 8 00 00 00 00 00 00 00 00
 0.012992 1  47              Rx   d 8 64 22 BC F4 3B 98 00 00
 0.013049 1  165             Rx   d 8 20 81 00 00 00 00 00 00
 0.013287 1  167             Rx   d 8 00 FF FF 00 00 02 0E 00
 0.013511 1  200             Rx   d 8 00 00 80 26 80 26 F0 00
 0.013713 1  202             Rx   d 8 00 CC 00 00 00 00 00 00
 0.014010 1  204             Rx   d 8 00 00 FF 00 00 00 00 00
 0.014307 1  230             Rx   d 8 F0 1C 00 00 00 00 00 00
 0.019561 1  41              Rx   d 8 00 00 00 00 00 00 00 00
 0.022779 1  167             Rx   d 8 00 FF FF 00 00 02 0E 00
 0.022959 1  204             Rx   d 8 00 00 FF 00 00 00 00 00
 0.029845 1  242             Rx   d 8 FF FF 3F FF B8 00 03 00
 0.032836 1  47              Rx   d 8 64 22 BC F4 3B 98 00 00
 0.033039 1  165             Rx   d 8 20 81 00 00 00 00 00 00
 0.033197 1  167             Rx   d 8 00 FF FF 00 00 02 0E 00
 0.033443 1  171             Rx   d 8 F0 E0 00 00 00 00 00 00
 0.033682 1  200             Rx   d 8 00 00 80 26 80 26 F0 00
 0.033919 1  202             Rx   d 8 00 CC 00 00 00 00 00 00
 0.034170 1  204             Rx   d 8 00 00 FF 00 00 00 00 00
 0.034420 1  230             Rx   d 8 F0 1C 00 00 00 00 00 00
 0.034660 1  42F             Rx   d 8 7D 02 05 4E 20 FF 00 00
 0.039181 1  41              Rx   d 8 00 00 00 00 00 00 00 00
 0.042968 1  156             Rx   d 8 BA 00 00 00 00 00 00 00
 0.043002 1  167             Rx   d 8 00 FF FF 00 00 02 0E 00
 0.043270 1  178             Rx   d 8 00 00 02 00 02 54 CA 53
 0.043469 1  179             Rx   d 8 00 00 08 00 22 FF 00 00
 0.043717 1  17C             Rx   d 8 00 00 00 00 00 00 00 00
 0.043967 1  204             Rx   d 8 00 00 FF 00 00 00 00 00
 0.049775 1  42C             Rx   d 8 80 00 00 00 00 00 00 00
 0.052754 1  47              Rx   d 8 64 22 BC F4 3B 98 00 00
 0.052931 1  165             Rx   d 8 20 81 00 00 00 00 00 00
 0.053181 1  167             Rx   d 8 00 FF FF 00 00 02 0E 00
 0.053412 1  200             Rx   d 8 00 00 80 26 80 26 F0 00
 0.053659 1  202             Rx   d 8 00 CC 00 00 00 00 00 00
 0.053911 1  204             Rx   d 8 00 00 FF 00 00 00 00 00
 0.054161 1  230             Rx   d 8 F0 1C 00 00 00 00 00 00
 0.054403 1  43D             Rx   d 8 14 00 21 00 00 00 00 00
 0.054654 1  43E             Rx   d 8 00 00 00 00 00 00 00 00
 0.058906 1  41              Rx   d 8 00 00 00 00 00 00 00 00
 0.062843 1  167             Rx   d 8 00 FF FF 00 00 02 0E 00
 0.063054 1  171             Rx   d 8 F0 E0 00 00 00 00 00 00
 0.063262 1  204             Rx   d 8 00 00 FF 00 00 00 00 00
 0.063464 1  42F             Rx   d 8 7D 02 05 4E 20 FF 00 00
 0.069164 1  242             Rx   d 8 FF FF 3F FF B8 00 03 00
 0.072766 1  47              Rx   d 8 64 22 BC F4 3B 98 00 00
 0.072959 1  165             Rx   d 8 20 81 00 00 00 00 00 00
 0.073211 1  167             Rx   d 8 00 FF FF 00 00 02 0E 00
 0.073447 1  200             Rx   d 8 00 00 80 26 80 26 F0 00
 0.073688 1  202             Rx   d 8 00 CC 00 00 00 00 00 00
 0.073920 1  204             Rx   d 8 00 00 FF 00 00 00 00 00
 0.074168 1  230             Rx   d 8 F0 1C 00 00 00 00 00 00
 0.078556 1  41              Rx   d 8 00 00 00 00 00 00 00 00
 0.082815 1  167             Rx   d 8 00 FF FF 00 00 02 0E 00
 0.082985 1  204             Rx   d 8 00 00 FF 00 00 00 00 00
 0.092836 1  47              Rx   d 8 64 22 BC F4 3B 98 00 00
 0.093028 1  165             Rx   d 8 20 81 00 00 00 00 00 00
 0.093169 1  167             Rx   d 8 00 FF FF 00 00 02 0E 00
 0.093447 1  171             Rx   d 8 F0 E0 00 00 00 00 00 00
 0.093700 1  200             Rx   d 8 00 00 80 26 80 26 F0 00
 0.093950 1  202             Rx   d 8 00 CC 00 00 00 00 00 00
 0.094198 1  204             Rx   d 8 00 00 FF 00 00 00 00 00
 0.094402 1  230             Rx   d 8 F0 1C 00 00 00 00 00 00
 0.094651 1  42F             Rx   d 8 7D 02 05 4E 20 FF 00 00
 0.098665 1  41              Rx   d 8 00 00 00 00 00 00 00 00
 0.098732 1  3B6             Rx   d 8 09 00 00 00 00 00 00 00
 0.098742 1  3B7             Rx   d 8 00 00 00 00 00 00 00 00
 0.099071 1  42C             Rx   d 8 80 00 00 00 00 00 00 00
 0.103289 1  166             Rx   d 8 76 00 00 FF FF FF 00 00
 0.103332 1  167             Rx   d 8 00 FF FF 00 00 02 0E 00
 0.103336 1  204             Rx   d 8 00 00 FF 00 00 00 00 00
 0.103839 1  421             Rx   d 8 04 00 11 00 00 00 FF 00
 0.103860 1  424             Rx   d 8 00 00 00 03 00 00 00 00
 0.104279 1  42D             Rx   d 8 00 03 FF 00 00 00 F0 00
 0.104292 1  43D             Rx   d 8 14 00 21 00 00 00 00 00
 0.104525 1  43E             Rx   d 8 00 00 00 00 00 00 00 00
 0.108901 1  242             Rx   d 8 FF FF 3F FF B7 00 03 00
 0.113236 1  47              Rx   d 8 64 22 BC F4 3B 98 00 00
 0.113286 1  165             Rx   d 8 20 81 00 00 00 00 00 00
 0.113291 1  167             Rx   d 8 00 FF FF 00 00 02 0E 00
 0.113550 1  200             Rx   d 8 00 00 80 26 80 26 F0 00
 0.113787 1  202             Rx   d 8 00 CC 00 00 00 00 00 00
 0.113928 1  204             Rx   d 8 00 00 FF 00 00 00 00 00
 0.114207 1  230             Rx   d 8 F0 1C 00 00 00 00 00 00
 0.117775 1  41              Rx   d 8 00 00 00 00 00 00 00 00
 0.123007 1  167             Rx   d 8 00 FF FF 00 00 02 0E 00
 0.123051 1  171             Rx   d 8 F0 E0 00 00 00 00 00 00
 0.123310 1  204             Rx   d 8 00 00 FF 00 00 00 00 00
 0.123521 1  42F             Rx   d 8 7D 02 05 4E 20 FF 00 00
 0.132792 1  47              Rx   d 8 64 22 BC F4 3B 98 00 00
 0.132931 1  165             Rx   d 8 20 81 00 00 00 00 00 00
 0.133169 1  167             Rx   d 8 00 FF FF 00 00 02 0E 00
 0.133413 1  200             Rx   d 8 00 00 80 26 80 26 F0 00
 0.133655 1  202             Rx   d 8 00 CC 00 00 00 00 00 00
 0.133899 1  204             Rx   d 8 00 00 FF 00 00 00 00 00
 0.134151 1  230             Rx   d 8 F0 1C 00 00 00 00 00 00
 0.137418 1  41              Rx   d 8 00 00 00 00 00 00 00 00
 0.142830 1  156             Rx   d 8 BA 00 00 00 00 00 00 00
 0.143071 1  167             Rx   d 8 00 FF FF 00 00 02 0E 00
 0.143247 1  178             Rx   d 8 00 00 02 00 02 54 CA 53
 0.143433 1  179             Rx   d 8 00 00 08 00 22 FF 00 00
 0.143679 1  17C             Rx   d 8 00 00 00 00 00 00 00 00
 0.143933 1  204             Rx   d 8 00 00 FF 00 00 00 00 00
 0.148309 1  242             Rx   d 8 FF FF 3F FF B8 00 03 00
 0.148506 1  40A             Rx   d 8 C1 04 01 8A 07 54 85 41
 0.148733 1  42C             Rx   d 8 80 00 00 00 00 00 00 00
 0.152735 1  47              Rx   d 8 64 22 BC F4 3B 98 00 00
 0.152914 1  165             Rx   d 8 20 81 00 00 00 00 00 00
 0.153157 1  167             Rx   d 8 00 FF FF 00 00 02 0E 00
 0.153401 1  171             Rx   d 8 F0 E0 00 00 00 00 00 00
 0.153636 1  200             Rx   d 8 00 00 80 26 80 26 F0 00
 0.153888 1  202             Rx   d 8 00 CC 00 00 00 00 00 00
 0.154136 1  204             Rx   d 8 00 00 FF 00 00 00 00 00
 0.154382 1  230             Rx   d 8 F0 1C 00 00 00 00 00 00
 0.154620 1  42F             Rx   d 8 7D 02 05 4E 20 FF 00 00
 0.154868 1  43D             Rx   d 8 14 00 21 00 00 00 00 00
 0.155127 1  43E             Rx   d 8 00 00 00 00 00 00 00 00
 0.156957 1  41              Rx   d 8 00 00 00 00 00 00 00 00
 0.162750 1  167             Rx   d 8 00 FF FF 00 00 02 0E 00
 0.162936 1  204             Rx   d 8 00 00 FF 00 00 00 00 00
 0.172797 1  47              Rx   d 8 64 22 BC F4 3B 98 00 00
 0.172985 1  165             Rx   d 8 20 81 00 00 00 00 00 00
 0.173222 1  167             Rx   d 8 00 FF FF 00 00 02 0E 00
 0.173429 1  200             Rx   d 8 00 00 80 26 80 26 F0 00
 0.173655 1  202             Rx   d 8 00 CC 00 00 00 00 00 00
 0.173901 1  204             Rx   d 8 00 00 FF 00 00 00 00 00
 0.174148 1  230             Rx   d 8 F0 1C 00 00 00 00 00 00
 0.176832 1  41              Rx   d 8 00 00 00 00 00 00 00 00
 0.182764 1  167             Rx   d 8 00 FF FF 00 00 02 0E 00
 0.182925 1  171             Rx   d 8 F0 E0 00 00 00 00 00 00
 0.183170 1  204             Rx   d 8 00 00 FF 00 00 00 00 00
 0.183413 1  42F             Rx   d 8 7D 02 05 4E 20 FF 00 00
 0.187246 1  242             Rx   d 8 FF FF 3F FF B8 00 03 00
 0.192706 1  47              Rx   d 8 64 22 BC F4 3B 98 00 00
 0.192921 1  165             Rx   d 8 20 81 00 00 00 00 00 00
 0.193163 1  167             Rx   d 8 00 FF FF 00 00 02 0E 00
 0.193405 1  200             Rx   d 8 00 00 80 26 80 26 F0 00
 0.193648 1  202             Rx   d 8 00 CC 00 00 00 00 00 00
 0.193898 1  204             Rx   d 8 00 00 FF 00 00 00 00 00
 0.194147 1  230             Rx   d 8 F0 1C 00 00 00 00 00 00
 0.196301 1  41              Rx   d 8 00 00 00 00 00 00 00 00
 0.196516 1  42C             Rx   d 8 80 00 00 00 00 00 00 00
 0.202736 1  166             Rx   d 8 76 00 00 FF FF FF 00 00
 0.202931 1  167             Rx   d 8 00 FF FF 00 00 02 0E 00
 0.203172 1  204             Rx   d 8 00 00 FF 00 00 00 00 00
 0.203418 1  421             Rx   d 8 04 00 11 00 00 00 FF 00
 0.203668 1  424             Rx   d 8 00 00 00 03 00 00 00 00
 0.203916 1  42D             Rx   d 8 00 03 FF 00 00 00 F0 00
 0.204199 1  43D             Rx   d 8 14 00 21 00 00 00 00 00
 0.204459 1  43E             Rx   d 8 00 00 00 00 00 00 00 00
 0.213007 1  47              Rx   d 8 64 22 BC F4 3B 98 00 00
 0.213050 1  165             Rx   d 8 20 81 00 00 00 00 00 00
 0.213281 1  167             Rx   d 8 00 FF FF 00 00 02 0E 00
 0.213462 1  171             Rx   d 8 F0 E0 00 00 00 00 00 00
 0.213712 1  200             Rx   d 8 00 00 80 26 80 26 F0 00
 0.213949 1  202             Rx   d 8 00 CC 00 00 00 00 00 00
 0.214210 1  204             Rx   d 8 00 00 FF 00 00 00 00 00
 0.214448 1  230             Rx   d 8 F0 1C 00 00 00 00 00 00
 0.214705 1  42F             Rx   d 8 7D 02 05 4E 20 FF 00 00
 0.216304 1  41              Rx   d 8 00 00 00 00 00 00 00 00
 0.222975 1  167             Rx   d 8 00 FF FF 00 00 02 0E 00
 0.223022 1  204             Rx   d 8 00 00 FF 00 00 00 00 00
 0.226725 1  242             Rx   d 8 FF FF 3F FF B8 00 03 00
 0.233238 1  47              Rx   d 8 64 22 BC F4 3B 98 00 00
 0.233289 1  165             Rx   d 8 20 81 00 00 00 00 00 00
 0.233296 1  167             Rx   d 8 00 FF FF 00 00 02 0E 00
 0.233502 1  200             Rx   d 8 00 00 80 26 80 26 F0 00
 0.233996 1  202             Rx   d 8 00 CC 00 00 00 00 00 00
 0.234020 1  204             Rx   d 8 00 00 FF 00 00 00 00 00
 0.234322 1  230             Rx   d 8 F0 1C 00 00 00 00 00 00
 0.235880 1  41              Rx   d 8 00 00 00 00 00 00 00 00
 0.242835 1  156             Rx   d 8 BA 00 00 00 00 00 00 00
 0.243048 1  167             Rx   d 8 00 FF FF 00 00 02 0E 00
 0.243319 1  171             Rx   d 8 F0 E0 00 00 00 00 00 00
 0.243474 1  178             Rx   d 8 00 00 02 00 02 54 CA 53
 0.243720 1  179             Rx   d 8 00 00 08 00 22 FF 00 00
 0.243950 1  17C             Rx   d 8 00 00 00 00 00 00 00 00
 0.244205 1  204             Rx   d 8 00 00 FF 00 00 00 00 00
 0.244461 1  42F             Rx   d 8 7D 02 05 4E 20 FF 00 00
 0.246487 1  42C             Rx   d 8 80 00 00 00 00 00 00 00
 0.252942 1  47              Rx   d 8 64 22 BC F4 3B 98 00 00
 0.252990 1  165             Rx   d 8 20 81 00 00 00 00 00 00
 0.253255 1  167             Rx   d 8 00 FF FF 00 00 02 0E 00
 0.253446 1  200             Rx   d 8 00 00 80 26 80 26 F0 00
 0.253784 1  202             Rx   d 8 00 CC 00 00 00 00 00 00
 0.253908 1  204             Rx   d 8 00 00 FF 00 00 00 00 00
 0.254165 1  230             Rx   d 8 F0 1C 00 00 00 00 00 00
 0.254402 1  43D             Rx   d 8 14 00 21 00 00 00 00 00
 0.254649 1  43E             Rx   d 8 00 00 00 00 00 00 00 00
 0.255434 1  41              Rx   d 8 00 00 00 00 00 00 00 00
 0.263141 1  167             Rx   d 8 00 FF FF 00 00 02 0E 00
 0.263188 1  204             Rx   d 8 00 00 FF 00 00 00 00 00
 0.265993 1  242             Rx   d 8 FF FF 3F FF B8 00 03 00
 0.272780 1  47              Rx   d 8 64 22 BC F4 3B 98 00 00
 0.272934 1  165             Rx   d 8 20 81 00 00 00 00 00 00
 0.273164 1  167             Rx   d 8 00 FF FF 00 00 02 0E 00
 0.273404 1  171             Rx   d 8 F0 E0 00 00 00 00 00 00
 0.273641 1  200             Rx   d 8 00 00 80 26 80 26 F0 00
 0.273892 1  202             Rx   d 8 00 CC 00 00 00 00 00 00
 0.274139 1  204             Rx   d 8 00 00 FF 00 00 00 00 00
 0.274388 1  230             Rx   d 8 F0 1C 00 00 00 00 00 00
 0.274625 1  42F             Rx   d 8 7D 02 05 4E 20 FF 00 00
 0.274882 1  41              Rx   d 8 00 00 00 00 00 00 00 00
 0.283000 1  167             Rx   d 8 00 FF FF 00 00 02 0E 00
 0.283036 1  204             Rx   d 8 00 00 FF 00 00 00 00 00
 0.292809 1  47              Rx   d 8 64 22 BC F4 3B 98 00 00
 0.292985 1  165             Rx   d 8 20 81 00 00 00 00 00 00
 0.293197 1  167             Rx   d 8 00 FF FF 00 00 02 0E 00
 0.293442 1  200             Rx   d 8 00 00 80 26 80 26 F0 00
 0.293698 1  202             Rx   d 8 00 CC 00 00 00 00 00 00
 0.294068 1  204             Rx   d 8 00 00 FF 00 00 00 00 00
 0.294384 1  230             Rx   d 8 F0 1C 00 00 00 00 00 00
 0.294710 1  41              Rx   d 8 00 00 00 00 00 00 00 00
 0.295059 1  42C             Rx   d 8 80 00 00 00 00 00 00 00
 0.302779 1  166             Rx   d 8 76 00 00 FF FF FF 00 00
 0.302930 1  167             Rx   d 8 00 FF FF 00 00 02 0E 00
 0.303182 1  171             Rx   d 8 F0 E0 00 00 00 00 00 00
 0.303432 1  204             Rx   d 8 00 00 FF 00 00 00 00 00
 0.303663 1  421             Rx   d 8 04 00 11 00 00 00 FF 00
 0.303912 1  424             Rx   d 8 00 00 00 03 00 00 00 00
 0.304157 1  42D             Rx   d 8 00 03 FF 00 00 00 F0 00
 0.304396 1  42F             Rx   d 8 7D 02 05 4E 20 FF 00 00
 0.304643 1  43D             Rx   d 8 14 00 21 00 00 00 00 00
 0.304909 1  43E             Rx   d 8 00 00 00 00 00 00 00 00
 0.305325 1  242             Rx   d 8 FF FF 3F FF B8 00 03 00
 0.312765 1  47              Rx   d 8 64 22 BC F4 3B 98 00 00
 0.312917 1  165             Rx   d 8 20 81 00 00 00 00 00 00
 0.313219 1  167             Rx   d 8 00 FF FF 00 00 02 0E 00
 0.313406 1  200             Rx   d 8 00 00 80 26 80 26 F0 00
 0.313649 1  202             Rx   d 8 00 CC 00 00 00 00 00 00
 0.313897 1  204             Rx   d 8 00 00 FF 00 00 00 00 00
 0.314146 1  230             Rx   d 8 F0 1C 00 00 00 00 00 00
 0.314413 1  41              Rx   d 8 00 00 00 00 00 00 00 00
 0.322983 1  167             Rx   d 8 00 FF FF 00 00 02 0E 00
 0.323024 1  204             Rx   d 8 00 00 FF 00 00 00 00 00
 0.333305 1  47              Rx   d 8 64 22 BC F4 3B 98 00 00
 0.333364 1  165             Rx   d 8 20 81 00 00 00 00 00 00
 0.333373 1  167             Rx   d 8 00 FF FF 00 00 02 0E 00
 0.334292 1  171             Rx   d 8 F0 E0 00 00 00 00 00 00
 0.334349 1  200             Rx   d 8 00 00 80 26 80 26 F0 00
 0.334357 1  41              Rx   d 8 00 00 00 00 00 00 00 00
 0.334364 1  202             Rx   d 8 00 CC 00 00 00 00 00 00
 0.334959 1  204             Rx   d 8 00 00 FF 00 00 00 00 00
 0.334993 1  230             Rx   d 8 F0 1C 00 00 00 00 00 00
 0.335001 1  42F             Rx   d 8 7D 02 05 4E 20 FF 00 00
 0.342783 1  156             Rx   d 8 BA 00 00 00 00 00 00 00
 0.342960 1  167             Rx   d 8 00 FF FF 00 00 02 0E 00
 0.343171 1  178             Rx   d 8 00 00 02 00 02 54 CA 53
 0.343410 1  179             Rx   d 8 00 00 08 00 22 FF 00 00
 0.343662 1  17C             Rx   d 8 00 00 00 00 00 00 00 00
 0.343911 1  204             Rx   d 8 00 00 FF 00 00 00 00 00
 0.344760 1  242             Rx   d 8 FF FF 3F FF B8 00 03 00
 0.345005 1  38D             Rx   d 8 20 00 00 00 00 00 0C F0
 0.345256 1  3B1             Rx   d 8 00 00 00 00 00 00 00 00
 0.345517 1  3B6             Rx   d 8 09 00 00 00 00 00 00 00
 0.345775 1  3B7             Rx   d 8 00 00 00 00 00 00 00 00
 0.346005 1  3B8             Rx   d 8 FF FF FF FF 00 00 00 00
 0.346259 1  3E3             Rx   d 8 00 00 00 00 80 00 00 00
 0.346514 1  3EB             Rx   d 8 00 04 04 00 00 00 00 00
 0.346768 1  40A             Rx   d 8 C1 10 40 84 20 08 80 00
 0.347030 1  42C             Rx   d 8 80 00 00 00 00 00 00 00
 0.347281 1  43C             Rx   d 8 B2 00 4B 2C 3C 99 88 14
 0.347536 1  447             Rx   d 8 20 00 00 4B 00 00 00 00
 0.352769 1  47              Rx   d 8 64 22 BC F4 3B 98 00 00
 0.352956 1  165             Rx   d 8 20 81 00 00 00 00 00 00
 0.353202 1  167             Rx   d 8 00 FF FF 00 00 02 0E 00
 0.353433 1  200             Rx   d 8 00 00 80 26 80 26 F0 00
 0.353683 1  41              Rx   d 8 00 00 00 00 00 00 00 00
 0.353940 1  202             Rx   d 8 00 CC 00 00 00 00 00 00
 0.354169 1  204             Rx   d 8 00 00 FF 00 00 00 00 00
 0.354404 1  230             Rx   d 8 F0 1C 00 00 00 00 00 00
 0.354664 1  43D             Rx   d 8 14 00 21 00 00 00 00 00
 0.354901 1  43E             Rx   d 8 00 00 00 00 00 00 00 00
 0.362962 1  167             Rx   d 8 00 FF FF 00 00 02 0E 00
 0.363004 1  171             Rx   d 8 F0 E0 00 00 00 00 00 00
 0.363280 1  204             Rx   d 8 00 00 FF 00 00 00 00 00
 0.363455 1  42F             Rx   d 8 7D 02 05 4E 20 FF 00 00
 0.372828 1  47              Rx   d 8 64 22 BC F4 3B 98 00 00
 0.373027 1  165             Rx   d 8 20 81 00 00 00 00 00 00
 0.373258 1  41              Rx   d 8 00 00 00 00 00 00 00 00
 0.373587 1  167             Rx   d 8 00 FF FF 00 00 02 0E 00
 0.373956 1  200             Rx   d 8 00 00 80 26 80 26 F0 00
 0.373979 1  202             Rx   d 8 00 CC 00 00 00 00 00 00
 0.374499 1  204             Rx   d 8 00 00 FF 00 00 00 00 00
 0.374535 1  230             Rx   d 8 F0 1C 00 00 00 00 00 00
 0.382781 1  167             Rx   d 8 00 FF FF 00 00 02 0E 00
 0.382946 1  204             Rx   d 8 00 00 FF 00 00 00 00 00
 0.392825 1  47              Rx   d 8 64 22 BC F4 3B 98 00 00
 0.393044 1  41              Rx   d 8 00 00 00 00 00 00 00 00
 0.393229 1  165             Rx   d 8 20 81 00 00 00 00 00 00
 0.393460 1  167             Rx   d 8 00 FF FF 00 00 02 0E 00
 0.393668 1  171             Rx   d 8 F0 E0 00 00 00 00 00 00
 0.393903 1  200             Rx   d 8 00 00 80 26 80 26 F0 00
 0.394155 1  202             Rx   d 8 00 CC 00 00 00 00 00 00
 0.394400 1  204             Rx   d 8 00 00 FF 00 00 00 00 00
 0.394645 1  230             Rx   d 8 F0 1C 00 00 00 00 00 00
 0.404242 1  42D             Rx   d 8 00 03 FF 00 00 00 F0 00
 0.413283 1  41              Rx   d 8 00 00 00 00 00 00 00 00
 0.422763 1  167             Rx   d 8 00 FF FF 00 00 02 0E 00
 0.432267 1  41              Rx   d 8 00 00 00 00 00 00 00 00
 0.443050 1  156             Rx   d 8 BA 00 00 00 00 00 00 00
 0.443088 1  167             Rx   d 8 00 FF FF 00 00 02 0E 00
 0.443491 1  178             Rx   d 8 00 00 02 00 02 54 CA 53
 0.452107 1  41              Rx   d 8 00 00 00 00 00 00 00 00
 0.462578 1  242             Rx   d 8 FF FF 3F FF B8 00 03 00
 0.471511 1  41              Rx   d 8 00 00 00 00 00 00 00 00
 0.491527 1  41              Rx   d 8 00 00 00 00 00 00 00 00
 0.504436 1  43E             Rx   d 8 00 00 00 00 00 00 00 00
 0.522974 1  167             Rx   d 8 00 FF FF 00 00 02 0E 00
 0.541477 1  242             Rx   d 8 FF FF 3F FF B8 00 03 00
 0.554692 1  43E             Rx   d 8 00 00 00 00 00 00 00 00
 0.569849 1  41              Rx   d 8 00 00 00 00 00 00 00 00
 0.589477 1  41              Rx   d 8 00 00 00 00 00 00 00 00
 0.609374 1  41              Rx   d 8 00 00 00 00 00 00 00 00
 0.628897 1  41              Rx   d 8 00 00 00 00 00 00 00 00
 0.642807 1  156             Rx   d 8 BA 00 00 00 00 00 00 00
 0.662764 1  167             Rx   d 8 00 FF FF 00 00 02 0E 00
 0.672799 1  47              Rx   d 8 64 22 BC F4 3B 98 00 00
 0.687741 1  41              Rx   d 8 00 00 00 00 00 00 00 00
 0.702800 1  166             Rx   d 8 76 00 00 FF FF FF 00 00
 0.722804 1  167             Rx   d 8 00 FF FF 00 00 02 0E 00
 0.733212 1  167             Rx   d 8 00 FF FF 00 00 02 0E 00
 0.753044 1  47              Rx   d 8 64 22 BC F4 3B 98 00 00
 0.766663 1  41              Rx   d 8 00 00 00 00 00 00 00 00
 0.782947 1  167             Rx   d 8 00 FF FF 00 00 02 0E 00
 0.794157 1  230             Rx   d 8 F0 1C 00 00 00 00 00 00
 0.812751 1  47              Rx   d 8 64 22 BC F4 3B 98 00 00
 0.825581 1  41              Rx   d 8 00 00 00 00 00 00 00 00
 0.842761 1  156             Rx   d 8 BA 00 00 00 00 00 00 00
 0.862824 1  167             Rx   d 8 00 FF FF 00 00 02 0E 00
 0.873883 1  202             Rx   d 8 00 CC 00 00 00 00 00 00
 0.892945 1  47              Rx   d 8 64 22 BC F4 3B 98 00 00
 0.903259 1  166             Rx   d 8 76 00 00 FF FF FF 00 00
 0.922790 1  167             Rx   d 8 00 FF FF 00 00 02 0E 00
 0.943241 1  156             Rx   d 8 BA 00 00 00 00 00 00 00
 0.952749 1  47              Rx   d 8 64 22 BC F4 3B 98 00 00
 0.972839 1  47              Rx   d 8 64 22 BC F4 3B 98 00 00
 0.992774 1  47              Rx   d 8 64 22 BC F4 3B 98 00 00
 1.012826 1  47              Rx   d 8 64 22 BC F4 3B 98 00 00
 1.032609 1  42C             Rx   d 8 80 00 00 00 00 00 00 00
 1.041877 1  41              Rx   d 8 00 00 00 00 00 00 00 00
 1.052280 1  242             Rx   d 8 FF FF 3F FF B8 00 03 00
 1.072780 1  47              Rx   d 8 64 22 BC F4 3B 98 00 00
 1.082814 1  167             Rx   d 8 00 FF FF 00 00 02 0E 00
 1.100779 1  41              Rx   d 8 00 00 00 00 00 00 00 00
 1.112763 1  47              Rx   d 8 64 22 BC F4 3B 98 00 00
 1.131340 1  242             Rx   d 8 FF FF 3F FF B8 00 03 00
 1.152802 1  47              Rx   d 8 64 22 BC F4 3B 98 00 00
 1.162840 1  167             Rx   d 8 00 FF FF 00 00 02 0E 00
 1.179438 1  41              Rx   d 8 00 00 00 00 00 00 00 00
 1.192919 1  47              Rx   d 8 64 22 BC F4 3B 98 00 00
 1.202786 1  166             Rx   d 8 76 00 00 FF FF FF 00 00
 1.222769 1  167             Rx   d 8 00 FF FF 00 00 02 0E 00
 1.238481 1  41              Rx   d 8 00 00 00 00 00 00 00 00
 1.258050 1  41              Rx   d 8 00 00 00 00 00 00 00 00
 1.277774 1  41              Rx   d 8 00 00 00 00 00 00 00 00
 1.294159 1  204             Rx   d 8 00 00 FF 00 00 00 00 00
 1.312971 1  47              Rx   d 8 64 22 BC F4 3B 98 00 00
 1.327748 1  242             Rx   d 8 FF FF 3F FF B8 00 03 00
 1.343473 1  179             Rx   d 8 00 00 08 00 22 FF 00 00
 1.362764 1  167             Rx   d 8 00 FF FF 00 00 02 0E 00
 1.382977 1  167             Rx   d 8 00 FF FF 00 00 02 0E 00
 1.393063 1  47              Rx   d 8 64 22 BC F4 3B 98 00 00
 1.412762 1  47              Rx   d 8 64 22 BC F4 3B 98 00 00
 1.433087 1  47              Rx   d 8 64 22 BC F4 3B 98 00 00
 1.452802 1  47              Rx   d 8 64 22 BC F4 3B 98 00 00
 1.453444 1  200             Rx   d 8 00 00 80 26 80 26 F0 00
 1.462854 1  167             Rx   d 8 00 FF FF 00 00 02 0E 00
 1.482769 1  167             Rx   d 8 00 FF FF 00 00 02 0E 00
 1.494740 1  230             Rx   d 8 F0 1C 00 00 00 00 00 00
 1.502795 1  166             Rx   d 8 76 00 00 FF FF FF 00 00
 1.522756 1  167             Rx   d 8 00 FF FF 00 00 02 0E 00
 1.532837 1  47              Rx   d 8 64 22 BC F4 3B 98 00 00
 1.552747 1  47              Rx   d 8 64 22 BC F4 3B 98 00 00
 1.562961 1  167             Rx   d 8 00 FF FF 00 00 02 0E 00
 1.572909 1  41              Rx   d 8 00 00 00 00 00 00 00 00
 1.594652 1  42F             Rx   d 8 7D 02 05 4E 20 FF 00 00
 1.602726 1  242             Rx   d 8 FF FF 3F FF B8 00 03 00
 1.622809 1  42C             Rx   d 8 80 00 00 00 00 00 00 00
 1.632939 1  165             Rx   d 8 20 81 00 00 00 00 00 00
 1.651389 1  41              Rx   d 8 00 00 00 00 00 00 00 00
 1.653552 1  47              Rx   d 8 64 22 BC F4 3B 98 00 00
 1.655205 1  43E             Rx   d 8 00 00 00 00 00 00 00 00
 1.670787 1  41              Rx   d 8 00 00 00 00 00 00 00 00
 1.690610 1  41              Rx   d 8 00 00 00 00 00 00 00 00
 1.693156 1  47              Rx   d 8 64 22 BC F4 3B 98 00 00
 1.702764 1  166             Rx   d 8 76 00 00 FF FF FF 00 00
 1.710371 1  41              Rx   d 8 00 00 00 00 00 00 00 00
 1.721044 1  242             Rx   d 8 FF FF 3F FF B8 00 03 00
 1.732921 1  47              Rx   d 8 64 22 BC F4 3B 98 00 00
 1.742769 1  156             Rx   d 8 BA 00 00 00 00 00 00 00
 1.752712 1  47              Rx   d 8 64 22 BC F4 3B 98 00 00
 1.760110 1  242             Rx   d 8 FF FF 3F FF B8 00 03 00
 1.772763 1  47              Rx   d 8 64 22 BC F4 3B 98 00 00
 1.788746 1  41              Rx   d 8 00 00 00 00 00 00 00 00
 1.802794 1  166             Rx   d 8 76 00 00 FF FF FF 00 00
 1.813969 1  202             Rx   d 8 00 CC 00 00 00 00 00 00
 1.819141 1  3B6             Rx   d 8 09 00 00 00 00 00 00 00
 1.828091 1  41              Rx   d 8 00 00 00 00 00 00 00 00
 1.847948 1  41              Rx   d 8 00 00 00 00 00 00 00 00
 1.862752 1  167             Rx   d 8 00 FF FF 00 00 02 0E 00
 1.877986 1  242             Rx   d 8 FF FF 3F FF B8 00 03 00
 1.887388 1  41              Rx   d 8 00 00 00 00 00 00 00 00
 1.892727 1  47              Rx   d 8 64 22 BC F4 3B 98 00 00
 1.912916 1  47              Rx   d 8 64 22 BC F4 3B 98 00 00
 1.922800 1  167             Rx   d 8 00 FF FF 00 00 02 0E 00
 1.934134 1  230             Rx   d 8 F0 1C 00 00 00 00 00 00
 1.946142 1  41              Rx   d 8 00 00 00 00 00 00 00 00
 1.962830 1  167             Rx   d 8 00 FF FF 00 00 02 0E 00
 1.972770 1  47              Rx   d 8 64 22 BC F4 3B 98 00 00
 1.985472 1  41              Rx   d 8 00 00 00 00 00 00 00 00
 2.002810 1  166             Rx   d 8 76 00 00 FF FF FF 00 00
 2.003209 1  204             Rx   d 8 00 00 FF 00 00 00 00 00
 2.022779 1  167             Rx   d 8 00 FF FF 00 00 02 0E 00
 2.032971 1  47              Rx   d 8 64 22 BC F4 3B 98 00 00
 2.052713 1  47              Rx   d 8 64 22 BC F4 3B 98 00 00
 2.072777 1  47              Rx   d 8 64 22 BC F4 3B 98 00 00
 2.082803 1  167             Rx   d 8 00 FF FF 00 00 02 0E 00
 2.092758 1  47              Rx   d 8 64 22 BC F4 3B 98 00 00
 2.112919 1  47              Rx   d 8 64 22 BC F4 3B 98 00 00
 2.132766 1  47              Rx   d 8 64 22 BC F4 3B 98 00 00
 2.142914 1  41              Rx   d 8 00 00 00 00 00 00 00 00
 2.162520 1  41              Rx   d 8 00 00 00 00 00 00 00 00
 2.173474 1  200             Rx   d 8 00 00 80 26 80 26 F0 00
 2.192525 1  242             Rx   d 8 FF FF 3F FF B8 00 03 00
 2.212636 1  42C             Rx   d 8 80 00 00 00 00 00 00 00
 2.231730 1  242             Rx   d 8 FF FF 3F FF B8 00 03 00
 2.252776 1  47              Rx   d 8 64 22 BC F4 3B 98 00 00
 2.262919 1  167             Rx   d 8 00 FF FF 00 00 02 0E 00
 2.280358 1  41              Rx   d 8 00 00 00 00 00 00 00 00
 2.300116 1  41              Rx   d 8 00 00 00 00 00 00 00 00
 2.315806 1  447             Rx   d 8 20 00 00 4B 00 00 00 00
 2.332783 1  47              Rx   d 8 64 22 BC F4 3B 98 00 00
 2.342684 1  156             Rx   d 8 BA 00 00 00 00 00 00 00
 2.359088 1  41              Rx   d 8 00 00 00 00 00 00 00 00
 2.378752 1  41              Rx   d 8 00 00 00 00 00 00 00 00
 2.389206 1  3C7             Rx   d 8 00 00 40 00 00 00 00 00
 2.408954 1  3B3             Rx   d 8 10 88 00 00 E6 00 03 3C
 2.428336 1  242             Rx   d 8 FF FF 3F FF B8 00 03 00
 2.442800 1  156             Rx   d 8 BA 00 00 00 00 00 00 00
 2.462731 1  167             Rx   d 8 00 FF FF 00 00 02 0E 00
 2.482806 1  167             Rx   d 8 00 FF FF 00 00 02 0E 00
 2.496614 1  41              Rx   d 8 00 00 00 00 00 00 00 00
 2.516482 1  41              Rx   d 8 00 00 00 00 00 00 00 00
 2.532801 1  47              Rx   d 8 64 22 BC F4 3B 98 00 00
 2.546470 1  242             Rx   d 8 FF FF 3F FF B8 00 03 00
 2.572748 1  47              Rx   d 8 64 22 BC F4 3B 98 00 00
 2.582760 1  167             Rx   d 8 00 FF FF 00 00 02 0E 00
 2.602783 1  166             Rx   d 8 76 00 00 FF FF FF 00 00
 2.622845 1  167             Rx   d 8 00 FF FF 00 00 02 0E 00
 2.634171 1  41              Rx   d 8 00 00 00 00 00 00 00 00
 2.652764 1  47              Rx   d 8 64 22 BC F4 3B 98 00 00
 2.672786 1  47              Rx   d 8 64 22 BC F4 3B 98 00 00
 2.682775 1  167             Rx   d 8 00 FF FF 00 00 02 0E 00
 2.702816 1  166             Rx   d 8 76 00 00 FF FF FF 00 00
 2.712765 1  47              Rx   d 8 64 22 BC F4 3B 98 00 00
 2.732659 1  41              Rx   d 8 00 00 00 00 00 00 00 00
 2.742786 1  156             Rx   d 8 BA 00 00 00 00 00 00 00
 2.762768 1  167             Rx   d 8 00 FF FF 00 00 02 0E 00
 2.782534 1  242             Rx   d 8 FF FF 3F FF B8 00 03 00
 2.802253 1  3B6             Rx   d 8 09 00 00 00 00 00 00 00
 2.811386 1  41              Rx   d 8 00 00 00 00 00 00 00 00
 2.830701 1  41              Rx   d 8 00 00 00 00 00 00 00 00
 2.842772 1  156             Rx   d 8 BA 00 00 00 00 00 00 00
 2.861095 1  242             Rx   d 8 FF FF 3F FF B8 00 03 00
 2.872686 1  47              Rx   d 8 64 22 BC F4 3B 98 00 00
 2.889844 1  41              Rx   d 8 00 00 00 00 00 00 00 00
 2.909533 1  41              Rx   d 8 00 00 00 00 00 00 00 00
 2.922815 1  167             Rx   d 8 00 FF FF 00 00 02 0E 00
 2.939593 1  242             Rx   d 8 FF FF 3F FF B8 00 03 00
 2.962912 1  167             Rx   d 8 00 FF FF 00 00 02 0E 00
 2.973635 1  200             Rx   d 8 00 00 80 26 80 26 F0 00
 2.992732 1  47              Rx   d 8 64 22 BC F4 3B 98 00 00
 3.012756 1  47              Rx   d 8 64 22 BC F4 3B 98 00 00
 3.027395 1  41              Rx   d 8 00 00 00 00 00 00 00 00
 3.047414 1  41              Rx   d 8 00 00 00 00 00 00 00 00
 3.062750 1  167             Rx   d 8 00 FF FF 00 00 02 0E 00
 3.072787 1  47              Rx   d 8 64 22 BC F4 3B 98 00 00
 3.092697 1  47              Rx   d 8 64 22 BC F4 3B 98 00 00
 3.112934 1  47              Rx   d 8 64 22 BC F4 3B 98 00 00
 3.125702 1  41              Rx   d 8 00 00 00 00 00 00 00 00
 3.142758 1  156             Rx   d 8 BA 00 00 00 00 00 00 00
 3.162770 1  167             Rx   d 8 00 FF FF 00 00 02 0E 00
 3.182946 1  167             Rx   d 8 00 FF FF 00 00 02 0E 00
 3.202760 1  166             Rx   d 8 76 00 00 FF FF FF 00 00
 3.212883 1  47              Rx   d 8 64 22 BC F4 3B 98 00 00
 3.232795 1  47              Rx   d 8 64 22 BC F4 3B 98 00 00
 3.252747 1  47              Rx   d 8 64 22 BC F4 3B 98 00 00
 3.262895 1  167             Rx   d 8 00 FF FF 00 00 02 0E 00
 3.282737 1  167             Rx   d 8 00 FF FF 00 00 02 0E 00
 3.296633 1  42C             Rx   d 8 80 00 00 00 00 00 00 00
 3.322402 1  41              Rx   d 8 00 00 00 00 00 00 00 00
 3.332851 1  242             Rx   d 8 FF FF 3F FF B8 00 03 00
 3.352075 1  3B5             Rx   d 8 FF FD FF FD FF FD FF FD
 3.362713 1  167             Rx   d 8 00 FF FF 00 00 02 0E 00
 3.381481 1  41              Rx   d 8 00 00 00 00 00 00 00 00
 3.393888 1  202             Rx   d 8 00 CC 00 00 00 00 00 00
 3.411730 1  242             Rx   d 8 FF FF 3F FF B8 00 03 00
 3.432707 1  47              Rx   d 8 64 22 BC F4 3B 98 00 00
 3.450831 1  242             Rx   d 8 FF FF 3F FF B8 00 03 00
 3.460075 1  41              Rx   d 8 00 00 00 00 00 00 00 00
 3.479728 1  41              Rx   d 8 00 00 00 00 00 00 00 00
 3.490442 1  242             Rx   d 8 FF FF 3F FF B8 00 03 00
 3.512738 1  47              Rx   d 8 64 22 BC F4 3B 98 00 00
 3.529324 1  242             Rx   d 8 FF FF 3F FF B8 00 03 00
 3.543391 1  178             Rx   d 8 00 00 02 00 02 54 CA 53
 3.562900 1  167             Rx   d 8 00 FF FF 00 00 02 0E 00
 3.574149 1  204             Rx   d 8 00 00 FF 00 00 00 00 00
 3.588438 1  42C             Rx   d 8 80 00 00 00 00 00 00 00
 3.612695 1  47              Rx   d 8 64 22 BC F4 3B 98 00 00
 3.632792 1  47              Rx   d 8 64 22 BC F4 3B 98 00 00
 3.642787 1  156             Rx   d 8 BA 00 00 00 00 00 00 00
 3.662761 1  167             Rx   d 8 00 FF FF 00 00 02 0E 00
 3.682788 1  167             Rx   d 8 00 FF FF 00 00 02 0E 00
 3.693630 1  200             Rx   d 8 00 00 80 26 80 26 F0 00
 3.712777 1  47              Rx   d 8 64 22 BC F4 3B 98 00 00
 3.732724 1  47              Rx   d 8 64 22 BC F4 3B 98 00 00
 3.752879 1  47              Rx   d 8 64 22 BC F4 3B 98 00 00
 3.765457 1  242             Rx   d 8 FF FF 3F FF B8 00 03 00
 3.782919 1  167             Rx   d 8 00 FF FF 00 00 02 0E 00
 3.792780 1  47              Rx   d 8 64 22 BC F4 3B 98 00 00
 3.812762 1  47              Rx   d 8 64 22 BC F4 3B 98 00 00
 3.822807 1  167             Rx   d 8 00 FF FF 00 00 02 0E 00
 3.842716 1  156             Rx   d 8 BA 00 00 00 00 00 00 00
 3.862821 1  167             Rx   d 8 00 FF FF 00 00 02 0E 00
 3.872720 1  41              Rx   d 8 00 00 00 00 00 00 00 00
 3.892550 1  41              Rx   d 8 00 00 00 00 00 00 00 00
 3.904184 1  42D             Rx   d 8 00 03 FF 00 00 00 F0 00
 3.922667 1  242             Rx   d 8 FF FF 3F FF B8 00 03 00
 3.934030 1  202             Rx   d 8 00 CC 00 00 00 00 00 00
 3.952693 1  47              Rx   d 8 64 22 BC F4 3B 98 00 00
 3.971174 1  41              Rx   d 8 00 00 00 00 00 00 00 00
 3.990669 1  41              Rx   d 8 00 00 00 00 00 00 00 00
 4.001271 1  242             Rx   d 8 FF FF 3F FF B8 00 03 00
 4.022750 1  167             Rx   d 8 00 FF FF 00 00 02 0E 00
 4.040693 1  242             Rx   d 8 FF FF 3F FF B8 00 03 00
 4.053638 1  200             Rx   d 8 00 00 80 26 80 26 F0 00
 4.072719 1  47              Rx   d 8 64 22 BC F4 3B 98 00 00
 4.089032 1  41              Rx   d 8 00 00 00 00 00 00 00 00
 4.092750 1  47              Rx   d 8 64 22 BC F4 3B 98 00 00
 4.103918 1  42D             Rx   d 8 00 03 FF 00 00 00 F0 00
 4.119290 1  242             Rx   d 8 FF FF 3F FF B8 00 03 00
 4.132738 1  47              Rx   d 8 64 22 BC F4 3B 98 00 00
 4.142705 1  156             Rx   d 8 BA 00 00 00 00 00 00 00
 4.162772 1  167             Rx   d 8 00 FF FF 00 00 02 0E 00
 4.178328 1  42C             Rx   d 8 80 00 00 00 00 00 00 00
 4.197921 1  242             Rx   d 8 FF FF 3F FF B8 00 03 00
 4.214171 1  230             Rx   d 8 F0 1C 00 00 00 00 00 00
 4.226783 1  41              Rx   d 8 00 00 00 00 00 00 00 00
 4.246261 1  41              Rx   d 8 00 00 00 00 00 00 00 00
 4.262885 1  167             Rx   d 8 00 FF FF 00 00 02 0E 00
 4.272767 1  47              Rx   d 8 64 22 BC F4 3B 98 00 00
 4.292725 1  47              Rx   d 8 64 22 BC F4 3B 98 00 00
 4.312880 1  47              Rx   d 8 64 22 BC F4 3B 98 00 00
 4.325035 1  41              Rx   d 8 00 00 00 00 00 00 00 00
 4.342809 1  156             Rx   d 8 BA 00 00 00 00 00 00 00
 4.354374 1  230             Rx   d 8 F0 1C 00 00 00 00 00 00
 4.372726 1  47              Rx   d 8 64 22 BC F4 3B 98 00 00
 4.392741 1  47              Rx   d 8 64 22 BC F4 3B 98 00 00
 4.412889 1  47              Rx   d 8 64 22 BC F4 3B 98 00 00
 4.422777 1  167             Rx   d 8 00 FF FF 00 00 02 0E 00
 4.442734 1  156             Rx   d 8 BA 00 00 00 00 00 00 00
 4.452761 1  47              Rx   d 8 64 22 BC F4 3B 98 00 00
 4.472737 1  47              Rx   d 8 64 22 BC F4 3B 98 00 00
 4.482278 1  41              Rx   d 8 00 00 00 00 00 00 00 00
 4.502200 1  41              Rx   d 8 00 00 00 00 00 00 00 00
 4.512899 1  165             Rx   d 8 20 81 00 00 00 00 00 00
 4.532765 1  47              Rx   d 8 64 22 BC F4 3B 98 00 00
 4.551658 1  242             Rx   d 8 FF FF 3F FF B8 00 03 00
 4.562777 1  167             Rx   d 8 00 FF FF 00 00 02 0E 00
 4.571412 1  42C             Rx   d 8 80 00 00 00 00 00 00 00
 4.590938 1  242             Rx   d 8 FF FF 3F FF B8 00 03 00
 4.612870 1  47              Rx   d 8 64 22 BC F4 3B 98 00 00
 4.630352 1  242             Rx   d 8 FF FF 3F FF B8 00 03 00
 4.639627 1  41              Rx   d 8 00 00 00 00 00 00 00 00
 4.654831 1  43D             Rx   d 8 14 00 21 00 00 00 00 00
 4.669907 1  242             Rx   d 8 FF FF 3F FF B8 00 03 00
 4.692731 1  47              Rx   d 8 64 22 BC F4 3B 98 00 00
 4.702684 1  166             Rx   d 8 76 00 00 FF FF FF 00 00
 4.722794 1  167             Rx   d 8 00 FF FF 00 00 02 0E 00
 4.732721 1  47              Rx   d 8 64 22 BC F4 3B 98 00 00
 4.752768 1  47              Rx   d 8 64 22 BC F4 3B 98 00 00
 4.763023 1  204             Rx   d 8 00 00 FF 00 00 00 00 00
 4.782741 1  167             Rx   d 8 00 FF FF 00 00 02 0E 00
 4.793215 1  167             Rx   d 8 00 FF FF 00 00 02 0E 00
 4.812694 1  47              Rx   d 8 64 22 BC F4 3B 98 00 00
 4.832764 1  47              Rx   d 8 64 22 BC F4 3B 98 00 00
 4.852764 1  47              Rx   d 8 64 22 BC F4 3B 98 00 00
 4.866948 1  242             Rx   d 8 FF FF 3F FF B8 00 03 00
 4.882734 1  167             Rx   d 8 00 FF FF 00 00 02 0E 00
 4.892722 1  47              Rx   d 8 64 22 BC F4 3B 98 00 00
 4.902893 1  166             Rx   d 8 76 00 00 FF FF FF 00 00
 4.922724 1  167             Rx   d 8 00 FF FF 00 00 02 0E 00
 4.942788 1  156             Rx   d 8 BA 00 00 00 00 00 00 00
 4.952724 1  47              Rx   d 8 64 22 BC F4 3B 98 00 00
 4.972745 1  47              Rx   d 8 64 22 BC F4 3B 98 00 00
 4.992747 1  47              Rx   d 8 64 22 BC F4 3B 98 00 00
 5.003687 1  424             Rx   d 8 00 00 00 03 00 00 00 00
 5.032754 1  41              Rx   d 8 00 00 00 00 00 00 00 00
 5.042777 1  156             Rx   d 8 BA 00 00 00 00 00 00 00
 5.063094 1  167             Rx   d 8 00 FF FF 00 00 02 0E 00
 5.071940 1  41              Rx   d 8 00 00 00 00 00 00 00 00
 5.082755 1  167             Rx   d 8 00 FF FF 00 00 02 0E 00
 5.102811 1  242             Rx   d 8 FF FF 3F FF B8 00 03 00
 5.123177 1  167             Rx   d 8 00 FF FF 00 00 02 0E 00
 5.131066 1  41              Rx   d 8 00 00 00 00 00 00 00 00
 5.132776 1  47              Rx   d 8 64 22 BC F4 3B 98 00 00
 5.141704 1  242             Rx   d 8 FF FF 3F FF B8 00 03 00
 5.161436 1  42C             Rx   d 8 80 00 00 00 00 00 00 00
 5.180838 1  242             Rx   d 8 FF FF 3F FF B8 00 03 00
 5.193850 1  202             Rx   d 8 00 CC 00 00 00 00 00 00
 5.212643 1  47              Rx   d 8 64 22 BC F4 3B 98 00 00
 5.229271 1  41              Rx   d 8 00 00 00 00 00 00 00 00
 5.243232 1  156             Rx   d 8 BA 00 00 00 00 00 00 00
 5.252868 1  47              Rx   d 8 64 22 BC F4 3B 98 00 00
 5.268710 1  41              Rx   d 8 00 00 00 00 00 00 00 00
 5.283048 1  167             Rx   d 8 00 FF FF 00 00 02 0E 00
 5.283111 1  171             Rx   d 8 F0 E0 00 00 00 00 00 00
 5.283563 1  204             Rx   d 8 00 00 FF 00 00 00 00 00
 5.288480 1  41              Rx   d 8 00 00 00 00 00 00 00 00
 5.293029 1  47              Rx   d 8 64 22 BC F4 3B 98 00 00
 5.293077 1  165             Rx   d 8 20 81 00 00 00 00 00 00
 5.293511 1  167             Rx   d 8 00 FF FF 00 00 02 0E 00
 5.299050 1  242             Rx   d 8 FF FF 3F FF B8 00 03 00
 5.312932 1  47              Rx   d 8 64 22 BC F4 3B 98 00 00
 5.327906 1  41              Rx   d 8 00 00 00 00 00 00 00 00
 5.338164 1  242             Rx   d 8 FF FF 3F FF B8 00 03 00
 5.357851 1  3B3             Rx   d 8 10 88 00 00 E6 00 03 3C
 5.372915 1  47              Rx   d 8 64 22 BC F4 3B 98 00 00
 5.372957 1  165             Rx   d 8 20 81 00 00 00 00 00 00
 5.373200 1  167             Rx   d 8 00 FF FF 00 00 02 0E 00
 5.386594 1  41              Rx   d 8 00 00 00 00 00 00 00 00
 5.403403 1  204             Rx   d 8 00 00 FF 00 00 00 00 00
 5.413000 1  47              Rx   d 8 64 22 BC F4 3B 98 00 00
 5.425979 1  41              Rx   d 8 00 00 00 00 00 00 00 00
 5.432708 1  47              Rx   d 8 64 22 BC F4 3B 98 00 00
 5.432881 1  165             Rx   d 8 20 81 00 00 00 00 00 00
 5.442778 1  156             Rx   d 8 BA 00 00 00 00 00 00 00
 5.452766 1  47              Rx   d 8 64 22 BC F4 3B 98 00 00
 5.462940 1  171             Rx   d 8 F0 E0 00 00 00 00 00 00
 5.472698 1  47              Rx   d 8 64 22 BC F4 3B 98 00 00
 5.482896 1  167             Rx   d 8 00 FF FF 00 00 02 0E 00
 5.512764 1  47              Rx   d 8 64 22 BC F4 3B 98 00 00
 5.532964 1  47              Rx   d 8 64 22 BC F4 3B 98 00 00
 5.543177 1  178             Rx   d 8 00 00 02 00 02 54 CA 53
 5.555368 1  43E             Rx   d 8 00 00 00 00 00 00 00 00
 5.572713 1  47              Rx   d 8 64 22 BC F4 3B 98 00 00
 5.592719 1  47              Rx   d 8 64 22 BC F4 3B 98 00 00
 5.603434 1  204             Rx   d 8 00 00 FF 00 00 00 00 00
 5.622586 1  41              Rx   d 8 00 00 00 00 00 00 00 00
 5.633478 1  167             Rx   d 8 00 FF FF 00 00 02 0E 00
 5.652718 1  47              Rx   d 8 64 22 BC F4 3B 98 00 00
 5.661962 1  41              Rx   d 8 00 00 00 00 00 00 00 00
 5.681808 1  41              Rx   d 8 00 00 00 00 00 00 00 00
 5.701269 1  41              Rx   d 8 00 00 00 00 00 00 00 00
 5.713414 1  167             Rx   d 8 00 FF FF 00 00 02 0E 00
 5.722890 1  167             Rx   d 8 00 FF FF 00 00 02 0E 00
 5.733882 1  202             Rx   d 8 00 CC 00 00 00 00 00 00
 5.742698 1  156             Rx   d 8 BA 00 00 00 00 00 00 00
 5.753670 1  202             Rx   d 8 00 CC 00 00 00 00 00 00
 5.770471 1  242             Rx   d 8 FF FF 3F FF B8 00 03 00
 5.792749 1  47              Rx   d 8 64 22 BC F4 3B 98 00 00
 5.799517 1  41              Rx   d 8 00 00 00 00 00 00 00 00
 5.803914 1  42D             Rx   d 8 00 03 FF 00 00 00 F0 00
 5.819173 1  41              Rx   d 8 00 00 00 00 00 00 00 00
 5.823032 1  167             Rx   d 8 00 FF FF 00 00 02 0E 00
 5.838826 1  41              Rx   d 8 00 00 00 00 00 00 00 00
 5.853392 1  171             Rx   d 8 F0 E0 00 00 00 00 00 00
 5.873008 1  47              Rx   d 8 64 22 BC F4 3B 98 00 00
 5.882683 1  167             Rx   d 8 00 FF FF 00 00 02 0E 00
 5.897953 1  41              Rx   d 8 00 00 00 00 00 00 00 00
 5.917463 1  41              Rx   d 8 00 00 00 00 00 00 00 00
 5.933399 1  200             Rx   d 8 00 00 80 26 80 26 F0 00
 5.952676 1  47              Rx   d 8 64 22 BC F4 3B 98 00 00
 5.972878 1  47              Rx   d 8 64 22 BC F4 3B 98 00 00
 5.983083 1  167             Rx   d 8 00 FF FF 00 00 02 0E 00
 5.995969 1  41              Rx   d 8 00 00 00 00 00 00 00 00
 6.013461 1  200             Rx   d 8 00 00 80 26 80 26 F0 00
 6.032756 1  47              Rx   d 8 64 22 BC F4 3B 98 00 00
 6.046228 1  242             Rx   d 8 FF FF 3F FF B8 00 03 00
 6.062717 1  167             Rx   d 8 00 FF FF 00 00 02 0E 00
 6.074589 1  41              Rx   d 8 00 00 00 00 00 00 00 00
 6.092868 1  47              Rx   d 8 64 22 BC F4 3B 98 00 00
 6.112701 1  47              Rx   d 8 64 22 BC F4 3B 98 00 00
 6.122976 1  167             Rx   d 8 00 FF FF 00 00 02 0E 00
 6.132885 1  47              Rx   d 8 64 22 BC F4 3B 98 00 00
 6.143358 1  179             Rx   d 8 00 00 08 00 22 FF 00 00
 6.162906 1  167             Rx   d 8 00 FF FF 00 00 02 0E 00
 6.182697 1  167             Rx   d 8 00 FF FF 00 00 02 0E 00
 6.192692 1  41              Rx   d 8 00 00 00 00 00 00 00 00
 6.212749 1  47              Rx   d 8 64 22 BC F4 3B 98 00 00
 6.222778 1  167             Rx   d 8 00 FF FF 00 00 02 0E 00
 6.243023 1  156             Rx   d 8 BA 00 00 00 00 00 00 00
 6.243386 1  171             Rx   d 8 F0 E0 00 00 00 00 00 00
 6.245395 1  3B7             Rx   d 8 00 00 00 00 00 00 00 00
 6.247579 1  43C             Rx   d 8 B2 00 4B 2C 3C 99 88 14
 6.262710 1  167             Rx   d 8 00 FF FF 00 00 02 0E 00
 6.281862 1  242             Rx   d 8 FF FF 3F FF B8 00 03 00
 6.301033 1  3B5             Rx   d 8 FF FD FF FD FF FD FF FD
 6.314162 1  230             Rx   d 8 F0 1C 00 00 00 00 00 00
 6.322999 1  167             Rx   d 8 00 FF FF 00 00 02 0E 00
 6.334132 1  204             Rx   d 8 00 00 FF 00 00 00 00 00
 6.340913 1  3B3             Rx   d 8 10 88 00 00 E6 00 03 3C
 6.353400 1  167             Rx   d 8 00 FF FF 00 00 02 0E 00
 6.363059 1  167             Rx   d 8 00 FF FF 00 00 02 0E 00
 6.369507 1  41              Rx   d 8 00 00 00 00 00 00 00 00
 6.382794 1  167             Rx   d 8 00 FF FF 00 00 02 0E 00
 6.389448 1  41              Rx   d 8 00 00 00 00 00 00 00 00
 6.402735 1  166             Rx   d 8 76 00 00 FF FF FF 00 00
 6.403659 1  424             Rx   d 8 00 00 00 03 00 00 00 00
 6.422721 1  167             Rx   d 8 00 FF FF 00 00 02 0E 00
 6.433391 1  200             Rx   d 8 00 00 80 26 80 26 F0 00
 6.448214 1  41              Rx   d 8 00 00 00 00 00 00 00 00
 6.468129 1  41              Rx   d 8 00 00 00 00 00 00 00 00
 6.482643 1  167             Rx   d 8 00 FF FF 00 00 02 0E 00
 6.494136 1  230             Rx   d 8 F0 1C 00 00 00 00 00 00
 6.502870 1  166             Rx   d 8 76 00 00 FF FF FF 00 00
 6.522632 1  167             Rx   d 8 00 FF FF 00 00 02 0E 00
 6.532745 1  47              Rx   d 8 64 22 BC F4 3B 98 00 00
 6.542866 1  156             Rx   d 8 BA 00 00 00 00 00 00 00
 6.553208 1  47              Rx   d 8 64 22 BC F4 3B 98 00 00
 6.566259 1  41              Rx   d 8 00 00 00 00 00 00 00 00
 6.585967 1  41              Rx   d 8 00 00 00 00 00 00 00 00
 6.602688 1  166             Rx   d 8 76 00 00 FF FF FF 00 00
 6.622751 1  167             Rx   d 8 00 FF FF 00 00 02 0E 00
 6.633343 1  171             Rx   d 8 F0 E0 00 00 00 00 00 00
 6.652941 1  47              Rx   d 8 64 22 BC F4 3B 98 00 00
 6.664838 1  41              Rx   d 8 00 00 00 00 00 00 00 00
 6.682875 1  167             Rx   d 8 00 FF FF 00 00 02 0E 00
 6.692854 1  47              Rx   d 8 64 22 BC F4 3B 98 00 00
 6.712660 1  47              Rx   d 8 64 22 BC F4 3B 98 00 00
 6.722714 1  167             Rx   d 8 00 FF FF 00 00 02 0E 00
 6.734367 1  3B6             Rx   d 8 09 00 00 00 00 00 00 00
 6.752673 1  47              Rx   d 8 64 22 BC F4 3B 98 00 00
 6.772750 1  47              Rx   d 8 64 22 BC F4 3B 98 00 00
 6.783419 1  42C             Rx   d 8 80 00 00 00 00 00 00 00
 6.802341 1  41              Rx   d 8 00 00 00 00 00 00 00 00
 6.803019 1  166             Rx   d 8 76 00 00 FF FF FF 00 00
 6.821848 1  41              Rx   d 8 00 00 00 00 00 00 00 00
 6.833404 1  200             Rx   d 8 00 00 80 26 80 26 F0 00
 6.852778 1  47              Rx   d 8 64 22 BC F4 3B 98 00 00
 6.861208 1  41              Rx   d 8 00 00 00 00 00 00 00 00
 6.871463 1  242             Rx   d 8 FF FF 3F FF B8 00 03 00
 6.873607 1  200             Rx   d 8 00 00 80 26 80 26 F0 00
 6.892742 1  47              Rx   d 8 64 22 BC F4 3B 98 00 00
 6.893385 1  200             Rx   d 8 00 00 80 26 80 26 F0 00
 6.900422 1  41              Rx   d 8 00 00 00 00 00 00 00 00
 6.920219 1  41              Rx   d 8 00 00 00 00 00 00 00 00
 6.939799 1  41              Rx   d 8 00 00 00 00 00 00 00 00
 6.952741 1  47              Rx   d 8 64 22 BC F4 3B 98 00 00
 6.972711 1  47              Rx   d 8 64 22 BC F4 3B 98 00 00
End TriggerBlock
