date Fri Mar 21 06:44:18.938 PM 2025
base hex  timestamps absolute
internal events logged
Begin Triggerblock Fri Mar 21 06:44:20.797 PM 2025
 0.000000 Start of measurement
 0.000000 1  59E             Rx   d 8 9E 00 FF FF FF FF FF FF
 0.000145 1  59E             Rx   d 8 9E 00 FF FF FF FF FF FF
 0.000562 1  48              Rx   d 8 00 00 00 00 00 00 E0 00
 0.000799 1  4A              Rx   d 8 02 00 00 00 00 00 00 00
 0.001050 1  4B              Rx   d 8 00 00 00 00 00 00 00 00
 0.001307 1  76              Rx   d 8 00 00 1F F7 FC 00 00 F0
 0.001540 1  77              Rx   d 8 0F FE 0F FE 00 00 00 00
 0.001788 1  108             Rx   d 8 00 00 00 00 40 00 72 64
 0.002033 1  109             Rx   d 8 00 00 0E 00 00 00 00 00
 0.002283 1  14C             Rx   d 8 00 00 00 00 00 00 00 00
 0.002526 1  20A             Rx   d 8 00 78 00 00 00 00 4E 20
 0.002777 1  263             Rx   d 8 00 00 00 00 00 00 00 00
 0.003027 1  275             Rx   d 8 00 00 00 00 00 00 00 00
 0.003276 1  277             Rx   d 8 00 00 00 00 02 00 00 00
 0.003511 1  279             Rx   d 8 00 50 00 3C A8 96 01 00
 0.003764 1  27A             Rx   d 8 00 FF FE 00 00 00 00 00
 0.004014 1  303             Rx   d 8 00 00 00 00 00 00 00 00
 0.004264 1  307             Rx   d 8 00 00 00 00 00 00 00 00
 0.004514 1  38A             Rx   d 8 00 00 00 00 00 00 00 00
 0.004762 1  3A8             Rx   d 8 00 00 00 00 00 00 00 00
 0.005011 1  3AE             Rx   d 8 00 00 00 00 00 00 00 00
 0.005270 1  3B3             Rx   d 8 04 00 00 0C FE 00 00 00
 0.005559 1  3CA             Rx   d 8 04 00 00 00 00 00 00 00
 0.005786 1  3D0             Rx   d 8 00 00 00 00 00 00 1F FE
 0.006030 1  412             Rx   d 8 7D 00 80 80 00 00 00 00
 0.006274 1  424             Rx   d 8 00 26 80 00 00 00 30 00
 0.006531 1  42C             Rx   d 8 00 00 00 00 00 00 00 00
 0.006788 1  42F             Rx   d 8 00 04 00 00 06 0B 00 00
 0.007027 1  431             Rx   d 8 00 00 00 00 00 00 00 00
 0.007269 1  432             Rx   d 8 00 00 00 00 00 00 00 00
 0.007512 1  433             Rx   d 8 00 00 00 00 00 80 00 00
 0.007763 1  46A             Rx   d 8 00 00 00 00 00 00 C0 00
 0.008016 1  46B             Rx   d 8 FF A0 48 00 00 00 52 00
 0.008258 1  470             Rx   d 8 00 00 00 FE 00 00 00 00
 0.008510 1  479             Rx   d 8 00 00 00 00 00 00 00 00
 0.019690 1  76              Rx   d 8 00 00 1F F7 FC 00 00 F0
 0.019870 1  20A             Rx   d 8 00 78 00 00 00 00 4E 20
 0.029742 1  3CA             Rx   d 8 04 00 00 00 00 00 00 00
 0.039712 1  76              Rx   d 8 00 00 1F F7 FC 00 00 F0
 0.039853 1  20A             Rx   d 8 00 78 00 00 00 00 4E 20
 0.049793 1  412             Rx   d 8 7D 00 80 80 00 00 00 00
 0.049949 1  42F             Rx   d 8 00 04 00 00 06 0B 00 00
 0.059737 1  76              Rx   d 8 00 00 1F F7 FC 00 00 F0
 0.059922 1  20A             Rx   d 8 00 78 00 00 00 00 4E 20
 0.060164 1  3CA             Rx   d 8 04 00 00 00 00 00 00 00
 0.079774 1  76              Rx   d 8 00 00 1F F7 FC 00 00 F0
 0.079912 1  20A             Rx   d 8 00 78 00 00 00 00 4E 20
 0.089705 1  3CA             Rx   d 8 04 00 00 00 00 00 00 00
 0.099052 1  18B             Rx   d 8 00 00 00 1E 00 00 00 00
 0.099264 1  19A             Rx   d 8 00 00 00 00 00 00 00 00
 0.099533 1  220             Rx   d 8 00 01 00 00 00 00 00 00
 0.099791 1  48              Rx   d 8 00 00 00 00 00 00 E0 00
 0.100044 1  76              Rx   d 8 00 00 1F F7 FC 00 00 F0
 0.100268 1  20A             Rx   d 8 00 78 00 00 00 00 4E 20
 0.100537 1  225             Rx   d 8 00 00 00 00 00 00 00 00
 0.100766 1  38A             Rx   d 8 00 00 00 00 00 00 00 00
 0.101035 1  287             Rx   d 8 00 00 00 00 00 00 00 00
 0.101273 1  412             Rx   d 8 7D 00 80 80 00 00 00 00
 0.101534 1  42F             Rx   d 8 00 04 00 00 06 0B 00 00
 0.101784 1  433             Rx   d 8 00 00 00 00 00 80 00 00
 0.102022 1  470             Rx   d 8 00 00 00 FE 00 00 00 00
 0.102276 1  2F4             Rx   d 8 00 01 00 00 00 00 00 00
 0.102519 1  2FD             Rx   d 8 00 00 00 00 FC 00 00 00
 0.102765 1  30A             Rx   d 8 81 00 00 00 00 00 00 00
 0.103020 1  315             Rx   d 8 00 00 00 00 00 00 00 00
 0.103285 1  318             Rx   d 8 00 00 00 00 00 00 00 00
 0.103539 1  346             Rx   d 8 00 00 00 03 03 00 C0 00
 0.103817 1  348             Rx   d 8 00 00 00 00 00 00 00 00
 0.104079 1  350             Rx   d 8 00 00 00 00 00 00 00 00
 0.104341 1  353             Rx   d 8 00 00 00 00 00 00 00 00
 0.104646 1  3C8             Rx   d 8 00 00 00 00 00 00 00 00
 0.104896 1  3E0             Rx   d 8 00 00 00 00 80 00 00 00
 0.105162 1  3FB             Rx   d 8 00 00 00 00 04 00 00 00
 0.105545 1  430             Rx   d 8 00 00 00 00 08 00 60 00
 0.105816 1  434             Rx   d 8 00 00 00 00 20 FF F0 00
 0.119729 1  76              Rx   d 8 00 00 1F F7 FC 00 00 F0
 0.119884 1  20A             Rx   d 8 00 78 00 00 00 00 4E 20
 0.120138 1  84              Rx   d 8 00 00 00 01 00 00 0C 00
 0.120383 1  3CA             Rx   d 8 04 00 00 00 00 00 00 00
 0.120624 1  331             Rx   d 8 C0 00 48 55 02 00 00 00
 0.120866 1  38D             Rx   d 8 20 00 00 00 00 20 0C F0
 0.121264 1  3B2             Rx   d 8 14 00 C0 0C E6 00 00 00
 0.121514 1  3B4             Rx   d 8 34 21 11 FF 1E 1A 00 00
 0.121752 1  3B5             Rx   d 8 FF FD FF FD FF FD FF FD
 0.122456 1  3B8             Rx   d 8 FF FF FF FF 00 00 00 00
 0.122736 1  3C3             Rx   d 8 5C 00 20 00 00 00 00 00
 0.123235 1  3E3             Rx   d 8 00 00 00 00 80 00 00 00
 0.123503 1  3EC             Rx   d 8 00 04 14 00 00 00 00 00
 0.123737 1  40A             Rx   d 8 C0 00 00 23 61 0C 4D 00
 0.124585 1  447             Rx   d 8 20 00 00 4B 00 20 00 00
 0.125795 1  3B3             Rx   d 8 14 00 00 0C FE 00 00 00
 0.126033 1  42C             Rx   d 8 00 30 C4 80 00 00 00 97
 0.126270 1  46B             Rx   d 8 CD A0 48 00 00 00 D2 01
 0.129809 1  433             Rx   d 8 00 00 00 00 00 90 00 00
 0.133382 1  156             Rx   d 8 4B 00 00 00 01 00 00 00
 0.133862 1  166             Rx   d 8 7B 00 00 00 00 00 00 00
 0.134083 1  167             Rx   d 8 00 80 07 00 00 1A 18 00
 0.134342 1  171             Rx   d 8 F0 E0 00 00 00 00 00 00
 0.134567 1  178             Rx   d 8 00 00 02 00 06 3C CE 3C
 0.134805 1  179             Rx   d 8 00 00 00 00 22 00 00 00
 0.135058 1  17C             Rx   d 8 00 00 00 00 00 00 00 00
 0.135534 1  202             Rx   d 8 00 F4 50 00 20 00 00 00
 0.135781 1  204             Rx   d 8 C0 00 7D 00 00 00 00 00
 0.136277 1  421             Rx   d 8 04 00 01 00 00 00 00 00
 0.136767 1  42D             Rx   d 8 00 01 60 00 00 00 F0 00
 0.140581 1  76              Rx   d 8 00 00 1F F7 FC 00 00 F0
 0.140714 1  109             Rx   d 8 00 01 EE 00 00 00 04 00
 0.140920 1  20A             Rx   d 8 F1 F8 00 00 00 00 4E 20
 0.141151 1  38A             Rx   d 8 4E 00 00 01 00 46 00 00
 0.141390 1  424             Rx   d 8 00 26 80 01 00 00 30 00
 0.143093 1  167             Rx   d 8 00 80 09 00 00 1A 18 00
 0.143383 1  204             Rx   d 8 C0 00 7D 00 00 00 00 00
 0.149087 1  331             Rx   d 8 C0 00 00 00 02 00 00 00
 0.149312 1  38D             Rx   d 8 20 00 00 00 00 00 0C F0
 0.149565 1  3C3             Rx   d 8 5C CC 20 00 00 00 00 00
 0.150032 1  3CA             Rx   d 8 04 00 00 00 00 00 00 00
 0.150269 1  412             Rx   d 8 7D 00 80 80 00 00 00 00
 0.150486 1  42F             Rx   d 8 9F 01 84 00 06 0B 00 00
 0.150736 1  479             Rx   d 8 00 00 00 00 00 00 00 00
 0.153566 1  167             Rx   d 8 00 80 0B 00 00 1A 18 00
 0.154047 1  202             Rx   d 8 00 F2 60 00 20 00 00 00
 0.154298 1  204             Rx   d 8 C0 00 7D 00 00 00 00 00
 0.159677 1  76              Rx   d 8 00 00 1F F7 FC 00 00 F0
 0.159904 1  20A             Rx   d 8 F1 F8 00 00 00 00 4E 20
 0.160164 1  3B2             Rx   d 8 14 08 C0 0C E6 00 03 3C
 0.160394 1  447             Rx   d 8 20 00 00 4B 00 30 00 00
 0.163089 1  167             Rx   d 8 00 80 0B 00 00 1A 18 00
 0.163371 1  171             Rx   d 8 F0 E0 00 00 00 00 00 00
 0.163631 1  204             Rx   d 8 C0 00 7D 00 00 00 00 00
 0.165512 1  433             Rx   d 8 C0 00 00 00 00 90 00 00
 0.168230 1  3B4             Rx   d 8 34 21 11 FF 1E 1A 00 00
 0.173650 1  167             Rx   d 8 00 80 0C 00 00 1A 18 00
 0.174057 1  202             Rx   d 8 00 F0 70 00 20 00 00 00
 0.174301 1  204             Rx   d 8 C0 00 7D 00 00 00 00 00
 0.178615 1  3B5             Rx   d 8 FF FD FF FD FF FD FF FD
 0.178876 1  3C3             Rx   d 8 5C C0 20 08 00 00 01 00
 0.179671 1  76              Rx   d 8 00 00 1F F7 FC 00 00 F0
 0.179910 1  20A             Rx   d 8 F1 F8 00 00 00 00 4E 20
 0.180159 1  3CA             Rx   d 8 04 00 00 00 00 00 00 00
 0.183108 1  167             Rx   d 8 00 80 0D 00 00 1A 18 00
 0.183375 1  204             Rx   d 8 C0 00 7D 00 00 00 00 00
 0.193621 1  167             Rx   d 8 00 80 0D 00 00 1A 18 00
 0.193817 1  171             Rx   d 8 F0 E0 00 00 00 00 00 00
 0.194299 1  202             Rx   d 8 00 FE 00 00 20 00 00 00
 0.194550 1  204             Rx   d 8 C0 00 7D 00 00 00 00 00
 0.199085 1  318             Rx   d 8 00 00 00 00 00 00 00 00
 0.199293 1  346             Rx   d 8 00 00 00 03 03 00 C0 00
 0.199559 1  348             Rx   d 8 00 00 00 00 00 00 00 00
 0.199804 1  430             Rx   d 8 00 00 00 00 08 00 60 00
 0.200065 1  434             Rx   d 8 00 00 00 00 20 FF F0 00
 0.200541 1  48              Rx   d 8 00 00 00 00 00 00 E0 00
 0.200754 1  76              Rx   d 8 00 00 1F F7 FC 00 00 F0
 0.201007 1  14C             Rx   d 8 08 00 00 01 00 00 00 00
 0.201245 1  20A             Rx   d 8 F1 F8 00 00 00 00 4E 20
 0.201533 1  412             Rx   d 8 7D 00 80 80 00 00 00 00
 0.201752 1  42F             Rx   d 8 7D 02 05 00 06 0B 00 00
 0.202006 1  433             Rx   d 8 C0 00 00 00 00 90 00 00
 0.202231 1  470             Rx   d 8 00 00 40 00 00 00 00 00
 0.203129 1  167             Rx   d 8 00 80 0E 00 00 1A 1F 00
 0.203397 1  204             Rx   d 8 C0 00 7D 00 00 00 00 00
 0.207885 1  3C3             Rx   d 8 5C C0 20 C8 00 00 01 00
 0.209808 1  3CA             Rx   d 8 04 00 00 00 00 00 00 00
 0.213820 1  167             Rx   d 8 00 80 10 00 00 1A 1F 00
 0.214181 1  202             Rx   d 8 00 FC 10 00 20 00 00 00
 0.214333 1  204             Rx   d 8 C0 00 7D 00 00 00 00 00
 0.218805 1  3B2             Rx   d 8 14 88 C0 0C E6 00 03 3C
 0.220257 1  76              Rx   d 8 00 00 1F F7 FC 00 00 F0
 0.220436 1  20A             Rx   d 8 F1 F8 00 00 00 00 4E 20
 0.220648 1  3B3             Rx   d 8 14 80 00 0C FE 00 00 00
 0.223823 1  167             Rx   d 8 00 80 10 00 00 1A 1F 00
 0.223895 1  171             Rx   d 8 F0 E0 00 00 00 00 00 00
 0.223903 1  204             Rx   d 8 C0 00 7D 00 00 00 00 00
 0.227531 1  3EC             Rx   d 8 00 04 04 00 00 00 00 00
 0.233484 1  156             Rx   d 8 4B 00 00 00 01 00 00 00
 0.233841 1  166             Rx   d 8 78 00 00 00 00 00 00 00
 0.234074 1  167             Rx   d 8 00 80 11 00 00 1A 21 00
 0.234326 1  178             Rx   d 8 00 00 02 00 06 3C CE 3C
 0.234571 1  179             Rx   d 8 00 00 00 00 22 00 00 00
 0.234823 1  17C             Rx   d 8 00 00 00 00 00 00 00 00
 0.235373 1  202             Rx   d 8 00 FA 20 00 20 00 00 00
 0.235585 1  204             Rx   d 8 C0 00 7D 00 00 00 00 00
 0.236040 1  421             Rx   d 8 04 00 01 00 00 00 00 00
 0.236510 1  42D             Rx   d 8 00 01 60 00 00 00 F0 00
 0.238480 1  3C3             Rx   d 8 5C C0 20 C8 00 00 01 00
 0.240715 1  76              Rx   d 8 00 00 1F F7 FC 00 00 F0
 0.240921 1  20A             Rx   d 8 F1 F8 00 00 00 00 4E 20
 0.241160 1  3CA             Rx   d 8 04 00 00 00 00 00 00 00
 0.243258 1  167             Rx   d 8 00 80 13 00 00 1A 21 00
 0.243580 1  204             Rx   d 8 C0 00 7D 00 00 00 00 00
 0.250130 1  412             Rx   d 8 7D 00 80 80 00 00 00 00
 0.250194 1  42C             Rx   d 8 10 30 C4 80 00 00 00 96
 0.250523 1  42F             Rx   d 8 7D 02 05 00 06 0B 00 00
 0.253695 1  167             Rx   d 8 00 80 13 00 00 1A 21 00
 0.253841 1  171             Rx   d 8 F0 E0 00 00 00 00 00 00
 0.254336 1  202             Rx   d 8 00 F8 30 00 20 00 00 00
 0.254568 1  204             Rx   d 8 C0 00 7D 00 00 00 00 00
 0.259855 1  76              Rx   d 8 00 00 1F F7 FC 00 00 F0
 0.260010 1  20A             Rx   d 8 F1 F8 00 00 00 00 4E 20
 0.263120 1  167             Rx   d 8 00 80 14 00 00 1A 21 00
 0.263345 1  204             Rx   d 8 C0 00 7D 00 00 00 00 00
 0.270192 1  3CA             Rx   d 8 04 00 00 00 00 00 00 00
 0.273657 1  167             Rx   d 8 00 80 15 00 00 1A 21 00
 0.274078 1  202             Rx   d 8 00 F6 40 00 20 00 00 00
 0.274321 1  204             Rx   d 8 C0 00 7D 00 00 00 00 00
 0.280137 1  76              Rx   d 8 00 00 1F F7 FC 00 00 F0
 0.280320 1  20A             Rx   d 8 F1 F8 00 00 00 00 4E 20
 0.283837 1  167             Rx   d 8 00 80 15 00 00 1A 21 00
 0.283906 1  171             Rx   d 8 F0 E0 00 00 00 00 00 00
 0.283916 1  204             Rx   d 8 C0 00 7D 00 00 00 00 00
 0.293689 1  167             Rx   d 8 00 80 16 00 00 1A 21 00
 0.294067 1  202             Rx   d 8 00 F4 50 00 20 00 00 00
 0.294309 1  204             Rx   d 8 C0 00 7D 00 00 00 00 00
 0.299011 1  287             Rx   d 8 00 00 00 00 00 00 00 00
 0.299267 1  30A             Rx   d 8 81 00 00 00 00 00 00 00
 0.299542 1  318             Rx   d 8 00 00 00 00 00 00 00 00
 0.299788 1  346             Rx   d 8 00 00 00 03 03 00 C0 00
 0.300035 1  48              Rx   d 8 00 00 00 00 00 00 E0 00
 0.300263 1  76              Rx   d 8 00 00 1F F7 FC 00 00 F0
 0.300509 1  20A             Rx   d 8 F1 F8 00 00 00 00 4E 20
 0.300756 1  348             Rx   d 8 00 00 00 00 00 00 00 00
 0.301017 1  3CA             Rx   d 8 04 00 00 00 00 00 00 00
 0.301267 1  412             Rx   d 8 7D 00 80 80 00 00 00 00
 0.301548 1  42F             Rx   d 8 7D 02 05 00 06 0B 00 00
 0.301797 1  430             Rx   d 8 00 00 00 00 08 00 60 00
 0.302011 1  433             Rx   d 8 C0 00 00 00 00 90 00 00
 0.302255 1  434             Rx   d 8 00 00 00 00 20 FF F0 00
 0.302505 1  470             Rx   d 8 00 00 40 00 00 00 00 00
 0.302754 1  479             Rx   d 8 00 00 00 00 00 00 00 00
 0.303152 1  167             Rx   d 8 00 80 17 00 00 1A 21 00
 0.303461 1  204             Rx   d 8 C0 00 7D 00 00 00 00 00
 0.313913 1  167             Rx   d 8 00 80 17 00 00 1A 21 00
 0.313954 1  171             Rx   d 8 F0 E0 00 00 00 00 00 00
 0.314426 1  202             Rx   d 8 00 F2 60 00 20 00 00 00
 0.314594 1  204             Rx   d 8 C0 00 7D 00 00 00 00 00
 0.317904 1  40A             Rx   d 8 C1 00 57 46 30 4A 58 58
 0.320743 1  76              Rx   d 8 00 00 1F F7 FC 00 00 F0
 0.320894 1  20A             Rx   d 8 F1 F8 00 00 00 00 4E 20
 0.323816 1  167             Rx   d 8 00 80 17 00 00 1A 21 00
 0.323873 1  204             Rx   d 8 C0 00 7D 00 00 00 00 00
 0.329875 1  3CA             Rx   d 8 04 00 00 00 00 00 00 00
 0.333389 1  156             Rx   d 8 4B 00 00 00 01 00 00 00
 0.333861 1  166             Rx   d 8 77 00 00 00 00 00 00 00
 0.334089 1  167             Rx   d 8 00 80 18 00 00 1A 21 00
 0.334334 1  178             Rx   d 8 00 00 02 00 06 3C CE 3C
 0.334568 1  179             Rx   d 8 00 00 00 00 22 00 00 00
 0.334818 1  17C             Rx   d 8 00 00 00 00 00 00 00 00
 0.335328 1  202             Rx   d 8 00 F0 70 00 20 00 00 00
 0.335565 1  204             Rx   d 8 C0 00 7D 00 00 00 00 00
 0.336320 1  421             Rx   d 8 04 00 01 00 00 00 00 00
 0.336773 1  42D             Rx   d 8 00 01 60 00 00 00 F0 00
 0.340514 1  76              Rx   d 8 00 00 1F F7 FC 00 00 F0
 0.340670 1  20A             Rx   d 8 F1 F8 00 00 00 00 4E 20
 0.343150 1  167             Rx   d 8 00 80 18 00 00 1A 21 00
 0.343355 1  171             Rx   d 8 F0 E0 00 00 00 00 00 00
 0.343596 1  204             Rx   d 8 C0 00 7D 00 00 00 00 00
 0.350069 1  412             Rx   d 8 7D 00 80 80 00 00 00 00
 0.350108 1  42F             Rx   d 8 7D 02 05 00 06 0B 00 00
 0.353922 1  167             Rx   d 8 00 80 18 00 00 1A 21 00
 0.354125 1  202             Rx   d 8 00 FE 00 00 20 00 00 00
 0.354356 1  204             Rx   d 8 C0 00 7D 00 00 00 00 00
 0.360432 1  76              Rx   d 8 00 00 1F F7 FC 00 00 F0
 0.360476 1  20A             Rx   d 8 F1 F8 00 00 00 00 4E 20
 0.360684 1  3CA             Rx   d 8 04 00 00 00 00 00 00 00
 0.363171 1  167             Rx   d 8 00 80 19 00 00 1A 21 00
 0.363386 1  204             Rx   d 8 80 00 7D 00 00 00 00 00
 0.367580 1  331             Rx   d 8 C0 00 00 00 02 00 00 00
 0.373693 1  167             Rx   d 8 00 80 19 00 00 1A 21 00
 0.373839 1  171             Rx   d 8 F0 E0 00 00 00 00 00 00
 0.374411 1  202             Rx   d 8 00 FC 10 00 20 00 00 00
 0.374583 1  204             Rx   d 8 80 00 7D 00 00 00 00 00
 0.375682 1  3C3             Rx   d 8 5C C0 00 C8 00 00 01 00
 0.375882 1  42C             Rx   d 8 30 30 C4 80 00 00 00 96
 0.379872 1  76              Rx   d 8 00 00 1F F7 FC 00 00 F0
 0.380048 1  20A             Rx   d 8 F1 F8 00 00 00 00 4E 20
 0.383550 1  167             Rx   d 8 00 80 19 00 00 1A 21 00
 0.383590 1  204             Rx   d 8 80 00 7D 00 00 00 00 00
 0.390025 1  3CA             Rx   d 8 04 00 00 00 00 00 00 00
 0.393769 1  167             Rx   d 8 00 80 1A 00 00 1A 21 00
 0.394090 1  202             Rx   d 8 00 FA 20 00 20 00 00 00
 0.394401 1  204             Rx   d 8 80 00 7D 00 00 00 00 00
 0.399107 1  318             Rx   d 8 00 00 00 00 00 00 00 00
 0.420218 1  76              Rx   d 8 00 00 1F F7 FC 00 00 F0
 0.434065 1  167             Rx   d 8 00 80 1A 00 00 1A 21 00
 0.453750 1  167             Rx   d 8 00 80 1A 00 00 1A 21 00
 0.473695 1  167             Rx   d 8 00 FF FF 00 00 02 21 00
 0.483169 1  167             Rx   d 8 00 FF FF 00 00 02 21 00
 0.499655 1  287             Rx   d 8 00 00 00 00 00 00 00 00
 0.509941 1  3CA             Rx   d 8 04 00 00 00 00 00 00 00
 0.533631 1  156             Rx   d 8 4B 00 00 00 03 00 00 00
 0.549984 1  412             Rx   d 8 7D 00 80 80 00 00 00 00
 0.563245 1  167             Rx   d 8 00 FF FF 00 00 02 21 00
 0.579942 1  76              Rx   d 8 00 00 1F F7 FC 00 00 F0
 0.599317 1  318             Rx   d 8 00 00 00 00 00 00 00 00
 0.612478 1  3B8             Rx   d 8 FF FF FF FF 00 00 00 00
 0.613708 1  167             Rx   d 8 00 FF FF 00 00 02 21 00
 0.613861 1  171             Rx   d 8 F0 E0 00 00 00 00 00 00
 0.619957 1  76              Rx   d 8 00 00 1F F7 FC 00 00 F0
 0.620136 1  20A             Rx   d 8 F1 F8 00 00 00 00 4E 20
 0.623208 1  167             Rx   d 8 00 FF FF 00 00 02 21 00
 0.623400 1  204             Rx   d 8 80 00 7D 00 00 00 00 00
 0.630100 1  3CA             Rx   d 8 04 00 00 00 00 00 00 00
 0.633563 1  156             Rx   d 8 4B 00 00 00 03 00 00 00
 0.633836 1  166             Rx   d 8 76 00 00 FF FF FF 00 00
 0.635747 1  202             Rx   d 8 00 CC 00 00 00 00 00 00
 0.653647 1  167             Rx   d 8 00 FF FF 00 00 02 21 00
 0.671204 1  3B5             Rx   d 8 FF FD FF FD FF FD FF FD
 0.690037 1  3CA             Rx   d 8 04 00 00 00 00 00 00 00
 0.710702 1  3B2             Rx   d 8 14 88 C0 0C E6 00 03 3C
 0.710841 1  40A             Rx   d 8 C1 02 32 38 38 33 36 00
 0.713685 1  167             Rx   d 8 00 FF FF 00 00 02 21 00
 0.714105 1  202             Rx   d 8 00 CC 00 00 00 00 00 00
 0.714343 1  204             Rx   d 8 80 00 7D 00 00 00 00 00
 0.720164 1  76              Rx   d 8 00 00 1F F7 FC 00 00 F0
 0.720195 1  20A             Rx   d 8 F1 F8 00 00 00 00 4E 20
 0.720479 1  3CA             Rx   d 8 04 00 00 00 00 00 00 00
 0.723207 1  167             Rx   d 8 00 FF FF 00 00 02 21 00
 0.723380 1  204             Rx   d 8 80 00 7D 00 00 00 00 00
 0.733521 1  156             Rx   d 8 4B 00 00 00 03 00 00 00
 0.733886 1  166             Rx   d 8 76 00 00 FF FF FF 00 00
 0.734099 1  167             Rx   d 8 00 FF FF 00 00 02 21 00
 0.750351 1  3CA             Rx   d 8 04 00 00 00 00 00 00 00
 0.763205 1  167             Rx   d 8 00 FF FF 00 00 02 21 00
 0.780009 1  76              Rx   d 8 00 00 1F F7 FC 00 00 F0
 0.793715 1  167             Rx   d 8 00 FF FF 00 00 02 21 00
 0.810427 1  3CA             Rx   d 8 04 00 00 00 00 00 00 00
 0.823213 1  167             Rx   d 8 00 FF FF 00 00 02 21 00
 0.840759 1  76              Rx   d 8 00 00 1F F7 FC 00 00 F0
 0.860353 1  76              Rx   d 8 00 00 1F F7 FC 00 00 F0
 0.880105 1  76              Rx   d 8 00 00 1F F7 FC 00 00 F0
 0.894102 1  202             Rx   d 8 00 CC 00 00 00 00 00 00
 0.913867 1  167             Rx   d 8 00 FF FF 00 00 02 21 00
 0.930114 1  3CA             Rx   d 8 04 00 00 00 00 00 00 00
 0.950558 1  412             Rx   d 8 7D 00 80 80 00 00 00 00
 0.973692 1  167             Rx   d 8 00 FF FF 00 00 02 21 00
 0.983263 1  167             Rx   d 8 00 FF FF 00 00 02 21 00
 1.000553 1  77              Rx   d 8 1F FE 0F FE 00 01 00 00
 1.020278 1  76              Rx   d 8 00 00 1F F7 FC 00 00 F0
 1.043152 1  167             Rx   d 8 00 FF FF 00 00 02 20 00
 1.060326 1  76              Rx   d 8 00 00 1F F7 FC 00 00 F0
 1.070583 1  225             Rx   d 8 20 80 80 00 00 00 00 00
 1.093993 1  167             Rx   d 8 00 FF FF 00 00 02 20 00
 1.104305 1  38D             Rx   d 8 20 00 00 00 00 00 0C F0
 1.120371 1  76              Rx   d 8 00 00 1F F7 FC 00 00 F0
 1.135562 1  204             Rx   d 8 80 00 7D 00 00 00 00 00
 1.140726 1  76              Rx   d 8 00 00 1F F7 FC 00 00 F0
 1.140752 1  20A             Rx   d 8 F1 F8 00 00 00 00 4E 20
 1.141051 1  3CA             Rx   d 8 04 00 00 00 00 00 00 00
 1.143281 1  167             Rx   d 8 00 FF FF 00 00 02 20 00
 1.143430 1  204             Rx   d 8 80 00 7D 00 00 00 00 00
 1.150508 1  412             Rx   d 8 7D 00 80 80 00 00 00 00
 1.150550 1  42F             Rx   d 8 7D 02 05 4E 26 0B 00 00
 1.151949 1  3B4             Rx   d 8 34 21 11 FF 1E 1A 00 00
 1.153704 1  167             Rx   d 8 00 FF FF 00 00 02 20 00
 1.153840 1  171             Rx   d 8 F0 E0 00 00 00 00 00 00
 1.154425 1  202             Rx   d 8 00 CC 00 00 00 00 00 00
 1.154616 1  204             Rx   d 8 80 00 7D 00 00 00 00 00
 1.160203 1  76              Rx   d 8 00 00 1F F7 FC 00 00 F0
 1.170190 1  3CA             Rx   d 8 04 00 00 00 00 00 00 00
 1.183158 1  167             Rx   d 8 00 FF FF 00 00 02 20 00
 1.201075 1  3CA             Rx   d 8 04 00 00 00 00 00 00 00
 1.220244 1  76              Rx   d 8 00 00 1F F7 FC 00 00 F0
 1.240503 1  76              Rx   d 8 00 00 1F F7 FC 00 00 F0
 1.260442 1  76              Rx   d 8 00 00 1F F7 FC 00 00 F0
 1.273691 1  167             Rx   d 8 00 FF FF 00 00 02 20 00
 1.283209 1  167             Rx   d 8 00 FF FF 00 00 02 20 00
 1.300969 1  48              Rx   d 8 00 00 00 00 00 00 E0 00
 1.320217 1  76              Rx   d 8 00 00 1F F7 FC 00 00 F0
 1.335241 1  178             Rx   d 8 00 00 02 00 09 60 CE 15
 1.360547 1  76              Rx   d 8 00 00 1F F7 FC 00 00 F0
 1.373686 1  167             Rx   d 8 00 FF FF 00 00 02 20 00
 1.393835 1  167             Rx   d 8 00 FF FF 00 00 02 20 00
 1.410295 1  3CA             Rx   d 8 04 00 00 00 00 00 00 00
 1.433596 1  156             Rx   d 8 4B 00 00 00 03 00 00 00
 1.443633 1  167             Rx   d 8 00 FF FF 00 00 02 20 00
 1.460528 1  76              Rx   d 8 00 00 1F F7 FC 00 00 F0
 1.473710 1  167             Rx   d 8 00 FF FF 00 00 02 20 00
 1.493686 1  167             Rx   d 8 00 FF FF 00 00 02 20 00
 1.513729 1  167             Rx   d 8 00 FF FF 00 00 02 20 00
 1.530395 1  3CA             Rx   d 8 04 00 00 00 00 00 00 00
 1.543186 1  167             Rx   d 8 00 FF FF 00 00 02 20 00
 1.560321 1  76              Rx   d 8 00 00 1F F7 FC 00 00 F0
 1.580749 1  76              Rx   d 8 00 00 1F F7 FC 00 00 F0
 1.595617 1  3B8             Rx   d 8 FF FF FF FF 00 00 00 00
 1.613889 1  167             Rx   d 8 00 FF FF 00 00 02 20 00
 1.633670 1  156             Rx   d 8 4B 00 00 00 03 00 00 00
 1.643600 1  204             Rx   d 8 80 00 7D 00 00 00 00 00
 1.673889 1  167             Rx   d 8 00 FF FF 00 00 02 20 00
 1.693910 1  167             Rx   d 8 00 FF FF 00 00 02 20 00
 1.700520 1  48              Rx   d 8 00 00 00 00 00 00 E0 00
 1.710529 1  3CA             Rx   d 8 04 00 00 00 00 00 00 00
 1.723845 1  167             Rx   d 8 00 FF FF 00 00 02 20 00
 1.740765 1  76              Rx   d 8 00 00 1F F7 FC 00 00 F0
 1.753687 1  167             Rx   d 8 00 FF FF 00 00 02 20 00
 1.770478 1  3CA             Rx   d 8 04 00 00 00 00 00 00 00
 1.783341 1  167             Rx   d 8 00 FF FF 00 00 02 20 00
 1.800414 1  48              Rx   d 8 00 00 00 00 00 00 E0 00
 1.813692 1  167             Rx   d 8 00 FF FF 00 00 02 20 00
 1.833372 1  156             Rx   d 8 4B 00 00 00 03 00 00 00
 1.843194 1  167             Rx   d 8 00 FF FF 00 00 02 20 00
 1.860633 1  76              Rx   d 8 00 00 1F F7 FC 00 00 F0
 1.873693 1  167             Rx   d 8 00 FF FF 00 00 02 20 00
 1.890311 1  40A             Rx   d 8 C1 02 32 38 38 33 36 00
 1.913677 1  167             Rx   d 8 00 FF FF 00 00 02 20 00
 1.933665 1  156             Rx   d 8 4B 00 00 00 03 00 00 00
 1.943177 1  167             Rx   d 8 00 FF FF 00 00 02 20 00
 1.960533 1  76              Rx   d 8 00 00 1F F7 FC 00 00 F0
 1.980500 1  76              Rx   d 8 00 00 1F F7 FC 00 00 F0
 1.994078 1  167             Rx   d 8 00 FF FF 00 00 02 20 00
 2.013649 1  167             Rx   d 8 00 FF FF 00 00 02 20 00
 2.033676 1  156             Rx   d 8 4B 00 00 00 03 00 00 00
 2.050830 1  412             Rx   d 8 7D 00 80 80 00 00 00 00
 2.073802 1  167             Rx   d 8 00 FF FF 00 00 02 20 00
 2.093665 1  167             Rx   d 8 00 FF FF 00 00 02 20 00
 2.113687 1  167             Rx   d 8 00 FF FF 00 00 02 20 00
 2.123219 1  167             Rx   d 8 00 FF FF 00 00 02 20 00
 2.123417 1  204             Rx   d 8 80 00 7D 00 00 00 00 00
 2.131101 1  3CA             Rx   d 8 04 00 00 00 00 00 00 00
 2.133513 1  156             Rx   d 8 4B 00 00 00 03 00 00 00
 2.133856 1  166             Rx   d 8 76 00 00 FF FF FF 00 00
 2.134099 1  167             Rx   d 8 00 FF FF 00 00 02 20 00
 2.134350 1  178             Rx   d 8 00 00 02 00 09 60 CD E4
 2.134609 1  179             Rx   d 8 00 00 08 00 22 FF 00 00
 2.134850 1  17C             Rx   d 8 00 00 00 00 00 00 00 00
 2.135379 1  202             Rx   d 8 00 CC 00 00 00 00 00 00
 2.145491 1  3B5             Rx   d 8 FF FD FF FD FF FD FF FD
 2.163149 1  167             Rx   d 8 00 FF FF 00 00 02 20 00
 2.180898 1  76              Rx   d 8 00 00 1F F7 FC 00 00 F0
 2.200833 1  48              Rx   d 8 00 00 00 00 00 00 E0 00
 2.220769 1  76              Rx   d 8 00 00 1F F7 FC 00 00 F0
 2.233537 1  156             Rx   d 8 4B 00 00 00 03 00 00 00
 2.250699 1  3CA             Rx   d 8 04 00 00 00 00 00 00 00
 2.273769 1  167             Rx   d 8 00 FF FF 00 00 02 20 00
 2.280755 1  76              Rx   d 8 00 00 1F F7 FC 00 00 F0
 2.300612 1  48              Rx   d 8 00 00 00 00 00 00 E0 00
 2.320835 1  76              Rx   d 8 00 00 1F F7 FC 00 00 F0
 2.330996 1  331             Rx   d 8 C0 00 00 00 02 00 00 00
 2.350866 1  412             Rx   d 8 7D 00 80 80 00 00 00 00
 2.360638 1  76              Rx   d 8 00 00 1F F7 FC 00 00 F0
 2.380914 1  76              Rx   d 8 00 00 1F F7 FC 00 00 F0
 2.394075 1  202             Rx   d 8 00 CC 00 00 00 00 00 00
 2.413711 1  167             Rx   d 8 00 FF FF 00 00 02 20 00
 2.420810 1  76              Rx   d 8 00 00 1F F7 FC 00 00 F0
 2.436037 1  421             Rx   d 8 04 00 11 00 00 00 FF 00
 2.454102 1  202             Rx   d 8 00 CC 00 00 00 00 00 00
 2.473655 1  167             Rx   d 8 00 FF FF 00 00 02 20 00
 2.483466 1  167             Rx   d 8 00 FF FF 00 00 02 20 00
 2.500713 1  48              Rx   d 8 00 00 00 00 00 00 E0 00
 2.514090 1  202             Rx   d 8 00 CC 00 00 00 00 00 00
 2.533448 1  156             Rx   d 8 4B 00 00 00 03 00 00 00
 2.550935 1  3CA             Rx   d 8 04 00 00 00 00 00 00 00
 2.573766 1  167             Rx   d 8 00 FF FF 00 00 02 20 00
 2.593715 1  167             Rx   d 8 00 FF FF 00 00 02 20 00
 2.601022 1  48              Rx   d 8 00 00 00 00 00 00 E0 00
 2.620943 1  76              Rx   d 8 00 00 1F F7 FC 00 00 F0
 2.633515 1  156             Rx   d 8 4B 00 00 00 03 00 00 00
 2.650965 1  412             Rx   d 8 7D 00 80 80 00 00 00 00
 2.660811 1  76              Rx   d 8 00 00 1F F7 FC 00 00 F0
 2.673674 1  167             Rx   d 8 00 FF FF 00 00 02 20 00
 2.683663 1  204             Rx   d 8 80 00 7D 00 00 00 00 00
 2.700830 1  48              Rx   d 8 00 00 00 00 00 00 E0 00
 2.713673 1  167             Rx   d 8 00 FF FF 00 00 02 20 00
 2.730922 1  3CA             Rx   d 8 04 00 00 00 00 00 00 00
 2.750873 1  412             Rx   d 8 7D 00 80 80 00 00 00 00
 2.760949 1  76              Rx   d 8 00 00 1F F7 FC 00 00 F0
 2.780843 1  76              Rx   d 8 00 00 1F F7 FC 00 00 F0
 2.793681 1  167             Rx   d 8 00 FF FF 00 00 02 20 00
 2.813822 1  167             Rx   d 8 00 FF FF 00 00 02 20 00
 2.833612 1  156             Rx   d 8 4B 00 00 00 03 00 00 00
 2.850899 1  3CA             Rx   d 8 04 00 00 00 00 00 00 00
 2.860981 1  76              Rx   d 8 00 00 1F F7 FC 00 00 F0
 2.880826 1  76              Rx   d 8 00 00 1F F7 FC 00 00 F0
 2.893721 1  167             Rx   d 8 00 FF FF 00 00 02 20 00
 2.910914 1  3CA             Rx   d 8 04 00 00 00 00 00 00 00
 2.933496 1  156             Rx   d 8 4B 00 00 00 03 00 00 00
 2.943224 1  167             Rx   d 8 00 FF FF 00 00 02 20 00
 2.960884 1  76              Rx   d 8 00 00 1F F7 FC 00 00 F0
 2.980879 1  76              Rx   d 8 00 00 1F F7 FC 00 00 F0
 2.990588 1  59E             Rx   d 8 9E 00 FF FF FF FF FF FF
 3.006543 1  424             Rx   d 8 00 26 80 03 00 00 30 00
 3.021215 1  76              Rx   d 8 00 00 1F F7 FC 00 00 F0
 3.033623 1  156             Rx   d 8 4B 00 00 00 03 00 00 00
 3.033868 1  166             Rx   d 8 76 00 00 FF FF FF 00 00
 3.036217 1  421             Rx   d 8 04 00 11 00 00 00 FF 00
 3.041363 1  76              Rx   d 8 00 00 1F F7 FC 00 00 F0
 3.041415 1  20A             Rx   d 8 F1 F8 00 00 00 00 4E 20
 3.043824 1  167             Rx   d 8 00 FF FF 00 00 02 20 00
 3.050990 1  412             Rx   d 8 7D 00 80 80 00 00 00 00
 3.051156 1  42F             Rx   d 8 7D 02 05 4E 26 0B 00 00
 3.060878 1  76              Rx   d 8 00 00 1F F7 FC 00 00 F0
 3.069831 1  38D             Rx   d 8 20 00 00 00 00 00 0C F0
 3.070925 1  3B8             Rx   d 8 FF FF FF FF 00 00 00 00
 3.070972 1  3E3             Rx   d 8 00 00 00 00 80 00 00 00
 3.072436 1  447             Rx   d 8 20 00 00 4B 00 10 00 00
 3.080965 1  76              Rx   d 8 00 00 1F F7 FC 00 00 F0
 3.093638 1  167             Rx   d 8 00 FF FF 00 00 02 20 00
 3.101474 1  48              Rx   d 8 00 00 00 00 00 00 E0 00
 3.101518 1  76              Rx   d 8 00 00 1F F7 FC 00 00 F0
 3.117477 1  3B4             Rx   d 8 34 21 11 FF 1E 1A 00 00
 3.121868 1  3CA             Rx   d 8 04 00 00 00 00 00 00 00
 3.133907 1  166             Rx   d 8 76 00 00 FF FF FF 00 00
 3.136455 1  421             Rx   d 8 04 00 11 00 00 00 FF 00
 3.160930 1  76              Rx   d 8 00 00 1F F7 FC 00 00 F0
 3.163224 1  167             Rx   d 8 00 FF FF 00 00 02 20 00
 3.173735 1  167             Rx   d 8 00 FF FF 00 00 02 20 00
 3.174129 1  202             Rx   d 8 00 CC 00 00 00 00 00 00
 3.181585 1  76              Rx   d 8 00 00 1F F7 FC 00 00 F0
 3.181728 1  20A             Rx   d 8 F1 F8 00 00 00 00 4E 20
 3.193693 1  167             Rx   d 8 00 FF FF 00 00 02 20 00
 3.211100 1  3CA             Rx   d 8 04 00 00 00 00 00 00 00
 3.220982 1  76              Rx   d 8 00 00 1F F7 FC 00 00 F0
 3.221129 1  20A             Rx   d 8 F1 F8 00 00 00 00 4E 20
 3.233456 1  156             Rx   d 8 4B 00 00 00 03 00 00 00
 3.233793 1  166             Rx   d 8 76 00 00 FF FF FF 00 00
 3.234050 1  167             Rx   d 8 00 FF FF 00 00 02 20 00
 3.234296 1  178             Rx   d 8 00 00 02 00 09 60 CD B6
 3.234543 1  179             Rx   d 8 00 00 08 00 22 FF 00 00
 3.252078 1  412             Rx   d 8 7D 00 80 80 00 00 00 00
 3.252129 1  42C             Rx   d 8 30 30 C4 80 00 00 00 97
 3.254713 1  202             Rx   d 8 00 CC 00 00 00 00 00 00
 3.273670 1  167             Rx   d 8 00 FF FF 00 00 02 20 00
 3.293656 1  167             Rx   d 8 00 FF FF 00 00 02 20 00
 3.301022 1  48              Rx   d 8 00 00 00 00 00 00 E0 00
 3.321519 1  76              Rx   d 8 00 00 1F F7 FC 00 00 F0
 3.335303 1  202             Rx   d 8 00 CC 00 00 00 00 00 00
 3.353653 1  167             Rx   d 8 00 FF FF 00 00 02 20 00
 3.373673 1  167             Rx   d 8 00 FF FF 00 00 02 20 00
 3.391457 1  3CA             Rx   d 8 04 00 00 00 00 00 00 00
 3.413767 1  167             Rx   d 8 00 FF FF 00 00 02 20 00
 3.423231 1  167             Rx   d 8 00 FF FF 00 00 02 20 00
 3.434351 1  171             Rx   d 8 F0 E0 00 00 00 00 00 00
 3.436377 1  421             Rx   d 8 04 00 11 00 00 00 FF 00
 3.443131 1  167             Rx   d 8 00 FF FF 00 00 02 20 00
 3.461426 1  76              Rx   d 8 00 00 1F F7 FC 00 00 F0
 3.463303 1  167             Rx   d 8 00 FF FF 00 00 02 20 00
 3.473666 1  167             Rx   d 8 00 FF FF 00 00 02 20 00
 3.483436 1  167             Rx   d 8 00 FF FF 00 00 02 20 00
 3.501082 1  48              Rx   d 8 00 00 00 00 00 00 E0 00
 3.521281 1  76              Rx   d 8 00 00 1F F7 FC 00 00 F0
 3.533403 1  156             Rx   d 8 BA 00 00 00 03 00 00 00
 3.551454 1  412             Rx   d 8 7D 00 80 80 00 00 00 00
 3.563471 1  167             Rx   d 8 00 FF FF 00 00 02 20 00
 3.581387 1  76              Rx   d 8 00 00 1F F7 FC 00 00 F0
 3.593698 1  167             Rx   d 8 00 FF FF 00 00 02 20 00
 3.613674 1  167             Rx   d 8 00 FF FF 00 00 02 20 00
 3.631690 1  3CA             Rx   d 8 04 00 00 00 00 00 00 00
 3.643150 1  167             Rx   d 8 00 FF FF 00 00 02 20 00
 3.659900 1  3B2             Rx   d 8 14 88 C0 0C E6 00 03 3C
 3.681337 1  76              Rx   d 8 00 00 1F F7 FC 00 00 F0
 3.693702 1  167             Rx   d 8 00 FF FF 00 00 02 20 00
 3.713655 1  167             Rx   d 8 00 FF FF 00 00 02 20 00
 3.733486 1  156             Rx   d 8 BA 00 00 00 03 00 00 00
 3.751306 1  3CA             Rx   d 8 04 00 00 00 00 00 00 00
 3.763397 1  167             Rx   d 8 00 FF FF 00 00 02 20 00
 3.781467 1  76              Rx   d 8 00 00 1F F7 FC 00 00 F0
 3.793854 1  167             Rx   d 8 00 FF FF 00 00 02 20 00
 3.811277 1  3CA             Rx   d 8 04 00 00 00 00 00 00 00
 3.833666 1  156             Rx   d 8 BA 00 00 00 03 00 00 00
 3.851329 1  412             Rx   d 8 7D 00 80 80 00 00 00 00
 3.856148 1  40A             Rx   d 8 C1 00 57 46 30 4A 58 58
 3.861250 1  76              Rx   d 8 00 00 1F F7 FC 00 00 F0
 3.861457 1  20A             Rx   d 8 F1 F8 00 00 00 00 4E 20
 3.863589 1  167             Rx   d 8 00 FF FF 00 00 02 20 00
 3.863629 1  204             Rx   d 8 00 00 FF 00 00 00 00 00
 3.871495 1  3CA             Rx   d 8 04 00 00 00 00 00 00 00
 3.873715 1  167             Rx   d 8 00 FF FF 00 00 02 20 00
 3.874505 1  202             Rx   d 8 00 CC 00 00 00 00 00 00
 3.874543 1  204             Rx   d 8 00 00 FF 00 00 00 00 00
 3.881278 1  76              Rx   d 8 00 00 1F F7 FC 00 00 F0
 3.881473 1  20A             Rx   d 8 F1 F8 00 00 00 00 4E 20
 3.883087 1  167             Rx   d 8 00 FF FF 00 00 02 20 00
 3.893662 1  167             Rx   d 8 00 FF FF 00 00 02 20 00
 3.913659 1  167             Rx   d 8 00 FF FF 00 00 02 20 00
 3.931447 1  3CA             Rx   d 8 04 00 00 00 00 00 00 00
 3.936640 1  421             Rx   d 8 04 00 11 00 00 00 FF 00
 3.951515 1  412             Rx   d 8 7D 00 80 80 00 00 00 00
 3.963110 1  167             Rx   d 8 00 FF FF 00 00 02 20 00
 3.981529 1  76              Rx   d 8 00 00 1F F7 FC 00 00 F0
 4.001323 1  48              Rx   d 8 00 00 00 00 00 00 E0 00
 4.009413 1  470             Rx   d 8 00 00 40 00 00 00 00 00
 4.033517 1  156             Rx   d 8 BA 00 00 00 03 00 00 00
 4.052212 1  3CA             Rx   d 8 04 00 00 00 00 00 00 00
 4.073845 1  167             Rx   d 8 00 FF FF 00 00 02 20 00
 4.074197 1  202             Rx   d 8 00 CC 00 00 00 00 00 00
 4.081704 1  76              Rx   d 8 00 00 1F F7 FC 00 00 F0
 4.081743 1  20A             Rx   d 8 F1 F8 00 00 00 00 4E 20
 4.081960 1  3CA             Rx   d 8 04 00 00 00 00 00 00 00
 4.083163 1  167             Rx   d 8 00 FF FF 00 00 02 20 00
 4.100530 1  3B4             Rx   d 8 34 21 11 FF 1E 1A 00 00
 4.121855 1  76              Rx   d 8 00 00 1F F7 FC 00 00 F0
 4.141315 1  76              Rx   d 8 00 00 1F F7 FC 00 00 F0
 4.161374 1  76              Rx   d 8 00 00 1F F7 FC 00 00 F0
 4.174063 1  202             Rx   d 8 00 CC 00 00 00 00 00 00
 4.193645 1  167             Rx   d 8 00 FF FF 00 00 02 20 00
 4.213886 1  167             Rx   d 8 00 FF FF 00 00 02 20 00
 4.231443 1  3CA             Rx   d 8 04 00 00 00 00 00 00 00
 4.249734 1  40A             Rx   d 8 C1 02 32 38 38 33 36 00
 4.263525 1  167             Rx   d 8 00 FF FF 00 00 02 20 00
 4.281446 1  76              Rx   d 8 00 00 1F F7 FC 00 00 F0
 4.301536 1  287             Rx   d 8 00 00 00 00 00 00 00 00
 4.321931 1  76              Rx   d 8 00 00 1F F7 FC 00 00 F0
 4.334047 1  167             Rx   d 8 00 FF FF 00 00 02 20 00
 4.351958 1  3CA             Rx   d 8 04 00 00 00 00 00 00 00
 4.363602 1  167             Rx   d 8 00 FF FF 00 00 02 20 00
 4.381429 1  76              Rx   d 8 00 00 1F F7 FC 00 00 F0
 4.393894 1  167             Rx   d 8 00 FF FF 00 00 02 20 00
 4.411704 1  3CA             Rx   d 8 04 00 00 00 00 00 00 00
 4.436618 1  42D             Rx   d 8 00 01 60 00 00 00 F0 00
 4.463232 1  167             Rx   d 8 00 FF FF 00 00 02 20 00
 4.493789 1  167             Rx   d 8 00 FF FF 00 00 02 20 00
 4.505092 1  433             Rx   d 8 C0 00 00 00 00 90 00 00
 4.523117 1  167             Rx   d 8 00 FF FF 00 00 02 20 00
 4.541787 1  76              Rx   d 8 00 00 1F F7 FC 00 00 F0
 4.561943 1  76              Rx   d 8 00 00 1F F7 FC 00 00 F0
 4.581520 1  76              Rx   d 8 00 00 1F F7 FC 00 00 F0
 4.602504 1  48              Rx   d 8 00 00 00 00 00 00 E0 00
 4.621559 1  76              Rx   d 8 00 00 1F F7 FC 00 00 F0
 4.635603 1  202             Rx   d 8 00 CC 00 00 00 00 00 00
 4.661559 1  76              Rx   d 8 00 00 1F F7 FC 00 00 F0
 4.674070 1  202             Rx   d 8 00 CC 00 00 00 00 00 00
 4.693646 1  167             Rx   d 8 00 FF FF 00 00 02 16 00
 4.711735 1  3CA             Rx   d 8 04 00 00 00 00 00 00 00
 4.733441 1  156             Rx   d 8 BA 00 00 00 03 00 00 00
 4.751773 1  412             Rx   d 8 7D 00 80 80 00 00 00 00
 4.761860 1  76              Rx   d 8 00 00 1F F7 FC 00 00 F0
 4.781945 1  76              Rx   d 8 00 00 1F F7 FC 00 00 F0
 4.801854 1  318             Rx   d 8 00 00 00 00 00 00 00 00
 4.831740 1  3CA             Rx   d 8 04 00 00 00 00 00 00 00
 4.843150 1  167             Rx   d 8 00 FF FF 00 00 02 16 00
 4.861807 1  76              Rx   d 8 00 00 1F F7 FC 00 00 F0
 4.882169 1  76              Rx   d 8 00 00 1F F7 FC 00 00 F0
 4.901795 1  287             Rx   d 8 00 00 00 00 00 00 00 00
 4.921795 1  76              Rx   d 8 00 00 1F F7 FC 00 00 F0
 4.935769 1  204             Rx   d 8 00 00 FF 00 00 00 00 00
 4.961862 1  76              Rx   d 8 00 00 1F F7 FC 00 00 F0
 4.973752 1  167             Rx   d 8 00 FF FF 00 00 02 16 00
 4.991402 1  59E             Rx   d 8 9E 00 FF FF FF FF FF FF
 5.004965 1  303             Rx   d 8 00 00 00 00 00 00 00 00
 5.022084 1  76              Rx   d 8 00 00 1F F7 FC 00 00 F0
 5.033547 1  156             Rx   d 8 BA 00 00 00 03 00 00 00
 5.033850 1  166             Rx   d 8 76 00 00 FF FF FF 00 00
 5.034094 1  167             Rx   d 8 00 FF FF 00 00 02 16 00
 5.034312 1  178             Rx   d 8 00 00 02 00 09 60 C9 8A
 5.034560 1  179             Rx   d 8 00 00 08 00 22 FF 00 00
 5.034864 1  17C             Rx   d 8 00 00 00 00 00 00 00 00
 5.035648 1  202             Rx   d 8 00 CC 00 00 00 00 00 00
 5.035810 1  204             Rx   d 8 00 00 FF 00 00 00 00 00
 5.036533 1  38D             Rx   d 8 20 00 00 00 00 00 0C F0
 5.037508 1  3B8             Rx   d 8 FF FF FF FF 00 00 00 00
 5.037724 1  3E3             Rx   d 8 00 00 00 00 80 00 00 00
 5.037971 1  421             Rx   d 8 04 00 11 00 00 00 FF 00
 5.038231 1  3EC             Rx   d 8 00 04 04 00 00 00 00 00
 5.038748 1  40A             Rx   d 8 C1 00 57 46 30 4A 58 58
 5.040228 1  447             Rx   d 8 20 00 00 4B 00 10 00 00
 5.042260 1  76              Rx   d 8 00 00 1F F7 FC 00 00 F0
 5.055048 1  202             Rx   d 8 00 CC 00 00 00 00 00 00
 5.063170 1  167             Rx   d 8 00 FF FF 00 00 02 16 00
 5.071697 1  591             Rx   d 8 91 00 FF FF FF FF FF FF
 5.071873 1  3CA             Rx   d 8 04 00 00 00 00 00 00 00
 5.073601 1  167             Rx   d 8 00 FF FF 00 00 02 16 00
 5.081962 1  76              Rx   d 8 00 00 1F F7 FC 00 00 F0
 5.082006 1  20A             Rx   d 8 F1 F8 00 00 00 00 4E 20
 5.093870 1  167             Rx   d 8 00 FF FF 00 00 02 16 00
 5.105136 1  30A             Rx   d 8 85 00 00 00 00 00 00 00
 5.113757 1  167             Rx   d 8 00 FF FF 00 00 02 16 00
 5.131820 1  3CA             Rx   d 8 04 00 00 00 00 00 00 00
 5.133551 1  156             Rx   d 8 BA 00 00 00 03 00 00 00
 5.134030 1  166             Rx   d 8 76 00 00 FF FF FF 00 00
 5.134293 1  167             Rx   d 8 00 FF FF 00 00 02 16 00
 5.143098 1  167             Rx   d 8 00 FF FF 00 00 02 16 00
 5.161902 1  76              Rx   d 8 00 00 1F F7 FC 00 00 F0
 5.181975 1  76              Rx   d 8 00 00 1F F7 FC 00 00 F0
 5.201498 1  318             Rx   d 8 00 00 00 00 00 00 00 00
 5.222365 1  76              Rx   d 8 00 00 1F F7 FC 00 00 F0
 5.232276 1  40A             Rx   d 8 C1 01 47 41 48 4A 48 45
 5.236781 1  42D             Rx   d 8 00 01 60 00 00 00 F0 00
 5.252142 1  3CA             Rx   d 8 04 00 00 00 00 00 00 00
 5.273704 1  167             Rx   d 8 00 FF FF 00 00 02 16 00
 5.293662 1  167             Rx   d 8 00 FF FF 00 00 02 16 00
 5.304163 1  42F             Rx   d 8 7D 02 05 4E 26 0B 00 00
 5.322091 1  76              Rx   d 8 00 00 1F F7 FC 00 00 F0
 5.333490 1  156             Rx   d 8 BA 00 00 00 03 00 00 00
 5.342276 1  3CA             Rx   d 8 04 00 00 00 00 00 00 00
 5.362057 1  76              Rx   d 8 00 00 1F F7 FC 00 00 F0
 5.373551 1  167             Rx   d 8 00 FF FF 00 00 02 16 00
 5.393746 1  167             Rx   d 8 00 FF FF 00 00 02 16 00
 5.403457 1  412             Rx   d 8 7D 00 80 80 00 00 00 00
 5.422091 1  76              Rx   d 8 00 00 1F F7 FC 00 00 F0
 5.423189 1  167             Rx   d 8 00 FF FF 00 00 02 16 00
 5.436611 1  42D             Rx   d 8 00 01 60 00 00 00 F0 00
 5.451919 1  412             Rx   d 8 7D 00 80 80 00 00 00 00
 5.462154 1  76              Rx   d 8 00 00 1F F7 FC 00 00 F0
 5.473644 1  167             Rx   d 8 00 FF FF 00 00 02 16 00
 5.492021 1  3CA             Rx   d 8 04 00 00 00 00 00 00 00
 5.513653 1  167             Rx   d 8 00 FF FF 00 00 02 16 00
 5.522077 1  76              Rx   d 8 00 00 1F F7 FC 00 00 F0
 5.522105 1  20A             Rx   d 8 F1 F8 00 00 00 00 4E 20
 5.522360 1  3CA             Rx   d 8 04 00 00 00 00 00 00 00
 5.523133 1  167             Rx   d 8 00 FF FF 00 00 02 16 00
 5.523389 1  204             Rx   d 8 00 00 FF 00 00 00 00 00
 5.535597 1  202             Rx   d 8 00 CC 00 00 00 00 00 00
 5.551965 1  3CA             Rx   d 8 04 00 00 00 00 00 00 00
 5.562092 1  76              Rx   d 8 00 00 1F F7 FC 00 00 F0
 5.573840 1  167             Rx   d 8 00 FF FF 00 00 02 16 00
 5.593618 1  167             Rx   d 8 00 FF FF 00 00 02 16 00
 5.604479 1  433             Rx   d 8 C0 00 00 00 00 90 00 00
 5.621974 1  76              Rx   d 8 00 00 1F F7 FC 00 00 F0
 5.623631 1  204             Rx   d 8 00 00 FF 00 00 00 00 00
 5.636174 1  421             Rx   d 8 04 00 11 00 00 00 FF 00
 5.652036 1  412             Rx   d 8 7D 00 80 80 00 00 00 00
 5.661964 1  76              Rx   d 8 00 00 1F F7 FC 00 00 F0
 5.662101 1  20A             Rx   d 8 F1 F8 00 00 00 00 4E 20
 5.663064 1  167             Rx   d 8 00 FF FF 00 00 02 16 00
 5.663351 1  204             Rx   d 8 00 00 FF 00 00 00 00 00
 5.672327 1  3CA             Rx   d 8 04 00 00 00 00 00 00 00
 5.673675 1  167             Rx   d 8 00 FF FF 00 00 02 16 00
 5.693664 1  167             Rx   d 8 00 FF FF 00 00 02 16 00
 5.714026 1  167             Rx   d 8 00 FF FF 00 00 02 16 00
 5.722000 1  76              Rx   d 8 00 00 1F F7 FC 00 00 F0
 5.733845 1  166             Rx   d 8 76 00 00 FF FF FF 00 00
 5.752046 1  412             Rx   d 8 7D 00 80 80 00 00 00 00
 5.773819 1  167             Rx   d 8 00 FF FF 00 00 02 16 00
 5.792076 1  3CA             Rx   d 8 04 00 00 00 00 00 00 00
 5.813670 1  167             Rx   d 8 00 FF FF 00 00 02 16 00
 5.833451 1  156             Rx   d 8 BA 00 00 00 00 00 00 00
 5.842198 1  76              Rx   d 8 00 00 1F F7 FC 00 00 F0
 5.854286 1  204             Rx   d 8 00 00 FF 00 00 00 00 00
 5.873782 1  167             Rx   d 8 00 FF FF 00 00 02 16 00
 5.893628 1  167             Rx   d 8 00 FF FF 00 00 02 16 00
 5.902564 1  76              Rx   d 8 00 00 1F F7 FC 00 00 F0
 5.922352 1  76              Rx   d 8 00 00 1F F7 FC 00 00 F0
 5.933396 1  156             Rx   d 8 BA 00 00 00 00 00 00 00
 5.952293 1  412             Rx   d 8 7D 00 80 80 00 00 00 00
 5.972441 1  3CA             Rx   d 8 04 00 00 00 00 00 00 00
 5.982771 1  76              Rx   d 8 00 00 1F F7 FC 00 00 F0
 6.001898 1  318             Rx   d 8 00 00 00 00 00 00 00 00
 6.019100 1  38D             Rx   d 8 20 00 00 00 00 00 0C F0
 6.023512 1  76              Rx   d 8 00 00 1F F7 FC 00 00 F0
 6.032142 1  3CA             Rx   d 8 04 00 00 00 00 00 00 00
 6.033377 1  156             Rx   d 8 BA 00 00 00 00 00 00 00
 6.033787 1  166             Rx   d 8 76 00 00 FF FF FF 00 00
 6.034018 1  167             Rx   d 8 00 FF FF 00 00 02 16 00
 6.034271 1  178             Rx   d 8 00 00 02 00 02 54 C9 89
 6.034538 1  179             Rx   d 8 00 00 08 00 22 FF 00 00
 6.042114 1  76              Rx   d 8 00 00 1F F7 FC 00 00 F0
 6.061806 1  225             Rx   d 8 20 81 00 00 00 00 00 00
 6.066692 1  3B4             Rx   d 8 34 21 11 FF 1E 1A 00 00
 6.076701 1  3B5             Rx   d 8 FF FD FF FD FF FD FF FD
 6.092478 1  3CA             Rx   d 8 04 00 00 00 00 00 00 00
 6.101881 1  19A             Rx   d 8 00 00 00 02 40 00 00 00
 6.103283 1  38A             Rx   d 8 4E 00 00 01 00 46 00 00
 6.104761 1  204             Rx   d 8 00 00 FF 00 00 00 00 00
 6.113625 1  167             Rx   d 8 00 FF FF 00 00 02 16 00
 6.133363 1  156             Rx   d 8 BA 00 00 00 00 00 00 00
 6.136745 1  421             Rx   d 8 04 00 11 00 00 00 FF 00
 6.152640 1  3CA             Rx   d 8 04 00 00 00 00 00 00 00
 6.152690 1  412             Rx   d 8 7D 00 80 80 00 00 00 00
 6.152697 1  42F             Rx   d 8 7D 02 05 4E 26 0B 00 00
 6.153047 1  479             Rx   d 8 00 00 00 00 00 00 00 00
 6.153769 1  167             Rx   d 8 00 FF FF 00 00 02 16 00
 6.154112 1  202             Rx   d 8 00 CC 00 00 00 00 00 00
 6.154362 1  204             Rx   d 8 00 00 FF 00 00 00 00 00
 6.162514 1  76              Rx   d 8 00 00 1F F7 FC 00 00 F0
 6.162565 1  20A             Rx   d 8 F1 F8 00 00 00 00 4E 20
 6.163664 1  167             Rx   d 8 00 FF FF 00 00 02 16 00
 6.173650 1  167             Rx   d 8 00 FF FF 00 00 02 16 00
 6.193817 1  167             Rx   d 8 00 FF FF 00 00 02 16 00
 6.204700 1  433             Rx   d 8 C0 00 00 00 00 90 00 00
 6.222479 1  76              Rx   d 8 00 00 1F F7 FC 00 00 F0
 6.235625 1  202             Rx   d 8 00 CC 00 00 00 00 00 00
 6.242628 1  3CA             Rx   d 8 04 00 00 00 00 00 00 00
 6.254825 1  202             Rx   d 8 00 CC 00 00 00 00 00 00
 6.272247 1  3CA             Rx   d 8 04 00 00 00 00 00 00 00
 6.293901 1  167             Rx   d 8 00 FF FF 00 00 02 16 00
 6.305534 1  434             Rx   d 8 00 00 00 00 60 FF F0 00
 6.322209 1  76              Rx   d 8 00 00 1F F7 FC 00 00 F0
 6.335788 1  202             Rx   d 8 00 CC 00 00 00 00 00 00
 6.343557 1  204             Rx   d 8 00 00 FF 00 00 00 00 00
 6.362792 1  76              Rx   d 8 00 00 1F F7 FC 00 00 F0
 6.363047 1  3CA             Rx   d 8 04 00 00 00 00 00 00 00
 6.373903 1  167             Rx   d 8 00 FF FF 00 00 02 16 00
 6.392276 1  3CA             Rx   d 8 04 00 00 00 00 00 00 00
 6.401824 1  318             Rx   d 8 00 00 00 00 00 00 00 00
 6.414063 1  202             Rx   d 8 00 CC 00 00 00 00 00 00
 6.433550 1  156             Rx   d 8 BA 00 00 00 00 00 00 00
 6.452638 1  3CA             Rx   d 8 04 00 00 00 00 00 00 00
 6.462593 1  76              Rx   d 8 00 00 1F F7 FC 00 00 F0
 6.462771 1  20A             Rx   d 8 F1 F8 00 00 00 00 4E 20
 6.463122 1  167             Rx   d 8 00 FF FF 00 00 02 16 00
 6.473660 1  167             Rx   d 8 00 FF FF 00 00 02 16 00
 6.493613 1  167             Rx   d 8 00 FF FF 00 00 02 16 00
 6.502242 1  318             Rx   d 8 00 00 00 00 00 00 00 00
 6.522312 1  76              Rx   d 8 00 00 1F F7 FC 00 00 F0
 6.542365 1  76              Rx   d 8 00 00 1F F7 FC 00 00 F0
 6.562623 1  76              Rx   d 8 00 00 1F F7 FC 00 00 F0
 6.569004 1  3B5             Rx   d 8 FF FD FF FD FF FD FF FD
 6.582359 1  76              Rx   d 8 00 00 1F F7 FC 00 00 F0
 6.601889 1  318             Rx   d 8 00 00 00 00 00 00 00 00
 6.614385 1  202             Rx   d 8 00 CC 00 00 00 00 00 00
 6.633341 1  156             Rx   d 8 BA 00 00 00 00 00 00 00
 6.652711 1  412             Rx   d 8 7D 00 80 80 00 00 00 00
 6.673844 1  167             Rx   d 8 00 FF FF 00 00 02 15 00
 6.692607 1  3CA             Rx   d 8 04 00 00 00 00 00 00 00
 6.703930 1  171             Rx   d 8 F0 E0 00 00 00 00 00 00
 6.722375 1  76              Rx   d 8 00 00 1F F7 FC 00 00 F0
 6.742423 1  76              Rx   d 8 00 00 1F F7 FC 00 00 F0
 6.762408 1  76              Rx   d 8 00 00 1F F7 FC 00 00 F0
 6.773657 1  167             Rx   d 8 00 FF FF 00 00 02 15 00
 6.793742 1  167             Rx   d 8 00 FF FF 00 00 02 15 00
 6.804630 1  433             Rx   d 8 C0 00 00 00 00 90 00 00
 6.822636 1  76              Rx   d 8 00 00 1F F7 FC 00 00 F0
 6.842431 1  76              Rx   d 8 00 00 1F F7 FC 00 00 F0
 6.862432 1  76              Rx   d 8 00 00 1F F7 FC 00 00 F0
 6.882653 1  76              Rx   d 8 00 00 1F F7 FC 00 00 F0
 6.893677 1  167             Rx   d 8 00 FF FF 00 00 02 15 00
 6.905593 1  479             Rx   d 8 00 00 00 00 00 00 00 00
 6.932527 1  3CA             Rx   d 8 04 00 00 00 00 00 00 00
 6.942433 1  76              Rx   d 8 00 00 1F F7 FC 00 00 F0
 6.962815 1  76              Rx   d 8 00 00 1F F7 FC 00 00 F0
 6.982515 1  76              Rx   d 8 00 00 1F F7 FC 00 00 F0
 6.994060 1  202             Rx   d 8 00 CC 00 00 00 00 00 00
 7.013609 1  167             Rx   d 8 00 FF FF 00 00 02 15 00
 7.033500 1  156             Rx   d 8 BA 00 00 00 00 00 00 00
 7.049592 1  3B4             Rx   d 8 34 21 11 FF 1E 1A 00 00
 7.071780 1  591             Rx   d 8 91 00 FF FF FF FF FF FF
 7.083092 1  20A             Rx   d 8 F1 F8 00 00 00 00 4E 20
 7.099839 1  3B2             Rx   d 8 14 88 C0 0C E6 00 03 3C
 7.114048 1  202             Rx   d 8 00 CC 00 00 00 00 00 00
 7.133518 1  156             Rx   d 8 BA 00 00 00 00 00 00 00
 7.152889 1  412             Rx   d 8 7D 00 80 80 00 00 00 00
 7.162962 1  76              Rx   d 8 00 00 1F F7 FC 00 00 F0
 7.182580 1  76              Rx   d 8 00 00 1F F7 FC 00 00 F0
 7.198601 1  40A             Rx   d 8 C0 00 00 23 61 0C 88 00
 7.213641 1  167             Rx   d 8 00 FF FF 00 00 02 15 00
 7.232708 1  3CA             Rx   d 8 04 00 00 00 00 00 00 00
 7.246647 1  331             Rx   d 8 C0 00 00 00 02 00 00 00
 7.262714 1  76              Rx   d 8 00 00 1F F7 FC 00 00 F0
 7.282642 1  76              Rx   d 8 00 00 1F F7 FC 00 00 F0
 7.294017 1  202             Rx   d 8 00 CC 00 00 00 00 00 00
 7.313710 1  167             Rx   d 8 00 FF FF 00 00 02 15 00
 7.333424 1  156             Rx   d 8 BA 00 00 00 00 00 00 00
 7.342802 1  76              Rx   d 8 00 00 1F F7 FC 00 00 F0
 7.362611 1  76              Rx   d 8 00 00 1F F7 FC 00 00 F0
 7.382693 1  76              Rx   d 8 00 00 1F F7 FC 00 00 F0
 7.401799 1  318             Rx   d 8 00 00 00 00 00 00 00 00
 7.414528 1  204             Rx   d 8 00 00 FF 00 00 00 00 00
 7.433394 1  156             Rx   d 8 BA 00 00 00 00 00 00 00
 7.452799 1  412             Rx   d 8 7D 00 80 80 00 00 00 00
 7.472874 1  3CA             Rx   d 8 04 00 00 00 00 00 00 00
 7.493840 1  167             Rx   d 8 00 FF FF 00 00 02 15 00
 7.502926 1  48              Rx   d 8 00 00 00 00 00 00 E0 00
 7.522739 1  76              Rx   d 8 00 00 1F F7 FC 00 00 F0
 7.543043 1  76              Rx   d 8 00 00 1F F7 FC 00 00 F0
 7.562767 1  76              Rx   d 8 00 00 1F F7 FC 00 00 F0
 7.573743 1  167             Rx   d 8 00 FF FF 00 00 02 15 00
 7.591810 1  3B2             Rx   d 8 14 88 C0 0C E6 00 03 3C
 7.604040 1  14C             Rx   d 8 08 00 00 01 00 00 00 00
 7.622897 1  76              Rx   d 8 00 00 1F F7 FC 00 00 F0
 7.634529 1  178             Rx   d 8 00 00 02 00 02 54 C9 B2
 7.652966 1  3CA             Rx   d 8 04 00 00 00 00 00 00 00
 7.673640 1  167             Rx   d 8 00 FF FF 00 00 02 15 00
 7.682790 1  76              Rx   d 8 00 00 1F F7 FC 00 00 F0
 7.701492 1  287             Rx   d 8 00 00 00 00 00 00 00 00
 7.713147 1  3CA             Rx   d 8 04 00 00 00 00 00 00 00
 7.733359 1  156             Rx   d 8 BA 00 00 00 00 00 00 00
 7.742811 1  76              Rx   d 8 00 00 1F F7 FC 00 00 F0
 7.762834 1  76              Rx   d 8 00 00 1F F7 FC 00 00 F0
 7.782926 1  76              Rx   d 8 00 00 1F F7 FC 00 00 F0
 7.801818 1  318             Rx   d 8 00 00 00 00 00 00 00 00
 7.813605 1  167             Rx   d 8 00 FF FF 00 00 02 15 00
 7.832904 1  3CA             Rx   d 8 04 00 00 00 00 00 00 00
 7.852924 1  412             Rx   d 8 7D 00 80 80 00 00 00 00
 7.863007 1  76              Rx   d 8 00 00 1F F7 FC 00 00 F0
 7.882826 1  76              Rx   d 8 00 00 1F F7 FC 00 00 F0
 7.901503 1  287             Rx   d 8 00 00 00 00 00 00 00 00
 7.922971 1  76              Rx   d 8 00 00 1F F7 FC 00 00 F0
 7.933410 1  156             Rx   d 8 BA 00 00 00 00 00 00 00
 7.952948 1  3CA             Rx   d 8 04 00 00 00 00 00 00 00
 7.973617 1  167             Rx   d 8 00 FF FF 00 00 02 15 00
 7.986044 1  3E3             Rx   d 8 00 00 00 00 80 00 00 00
 8.004036 1  76              Rx   d 8 00 00 1F F7 FC 00 00 F0
 8.022922 1  76              Rx   d 8 00 00 1F F7 FC 00 00 F0
 8.032467 1  3B4             Rx   d 8 34 21 11 FF 1E 1A 00 00
 8.033453 1  156             Rx   d 8 BA 00 00 00 00 00 00 00
 8.033813 1  166             Rx   d 8 76 00 00 FF FF FF 00 00
 8.035824 1  202             Rx   d 8 00 CC 00 00 00 00 00 00
 8.039245 1  46B             Rx   d 8 B8 A0 48 00 00 00 D2 09
 8.052944 1  412             Rx   d 8 7D 00 80 80 00 00 00 00
 8.071885 1  591             Rx   d 8 91 00 FF FF FF FF FF FF
 8.093701 1  167             Rx   d 8 00 FF FF 00 00 02 15 00
 8.103032 1  2F4             Rx   d 8 10 01 00 00 00 00 00 00
 8.106172 1  3CA             Rx   d 8 04 00 00 00 00 00 00 00
 8.109385 1  434             Rx   d 8 00 00 00 00 60 FF F0 00
 8.122956 1  76              Rx   d 8 00 00 1F F7 FC 00 00 F0
 8.133623 1  3CA             Rx   d 8 04 00 00 00 00 00 00 00
 8.133691 1  156             Rx   d 8 BA 00 00 00 00 00 00 00
 8.143136 1  167             Rx   d 8 00 FF FF 00 00 02 15 00
 8.143269 1  76              Rx   d 8 00 00 1F F7 FC 00 00 F0
 8.153047 1  412             Rx   d 8 7D 00 80 80 00 00 00 00
 8.153195 1  42F             Rx   d 8 7D 02 05 4E 26 0B 00 00
 8.153558 1  167             Rx   d 8 00 FF FF 00 00 02 15 00
 8.163217 1  76              Rx   d 8 00 00 1F F7 FC 00 00 F0
 8.163262 1  20A             Rx   d 8 F1 F8 00 00 00 00 4E 20
 8.163644 1  167             Rx   d 8 00 FF FF 00 00 02 15 00
 8.163663 1  204             Rx   d 8 00 00 FF 00 00 00 00 00
 8.173902 1  167             Rx   d 8 00 FF FF 00 00 02 15 00
 8.193020 1  3CA             Rx   d 8 04 00 00 00 00 00 00 00
 8.205650 1  470             Rx   d 8 00 00 40 00 00 00 00 00
 8.213648 1  167             Rx   d 8 00 FF FF 00 00 02 15 00
 8.223141 1  167             Rx   d 8 00 FF FF 00 00 02 15 00
 8.233588 1  156             Rx   d 8 BA 00 00 00 00 00 00 00
 8.253067 1  3CA             Rx   d 8 04 00 00 00 00 00 00 00
 8.253232 1  412             Rx   d 8 7D 00 80 80 00 00 00 00
 8.253468 1  42C             Rx   d 8 30 30 C4 80 00 00 00 96
 8.253708 1  167             Rx   d 8 00 FF FF 00 00 02 15 00
 8.263087 1  167             Rx   d 8 00 FF FF 00 00 02 15 00
 8.283696 1  167             Rx   d 8 00 FF FF 00 00 02 15 00
 8.293632 1  167             Rx   d 8 00 FF FF 00 00 02 15 00
 8.313260 1  3CA             Rx   d 8 04 00 00 00 00 00 00 00
 8.333361 1  156             Rx   d 8 BA 00 00 00 00 00 00 00
 8.353106 1  412             Rx   d 8 7D 00 80 80 00 00 00 00
 8.363067 1  76              Rx   d 8 00 00 1F F7 FC 00 00 F0
 8.383097 1  76              Rx   d 8 00 00 1F F7 FC 00 00 F0
 8.401905 1  318             Rx   d 8 00 00 00 00 00 00 00 00
 8.414319 1  202             Rx   d 8 00 CC 00 00 00 00 00 00
 8.433150 1  3CA             Rx   d 8 04 00 00 00 00 00 00 00
 8.453605 1  412             Rx   d 8 7D 00 80 80 00 00 00 00
 8.473626 1  167             Rx   d 8 00 FF FF 00 00 02 15 00
 8.493139 1  3CA             Rx   d 8 04 00 00 00 00 00 00 00
 8.501484 1  287             Rx   d 8 00 00 00 00 00 00 00 00
 8.523650 1  167             Rx   d 8 00 FF FF 00 00 02 15 00
 8.536696 1  3B5             Rx   d 8 FF FD FF FD FF FD FF FD
 8.554096 1  479             Rx   d 8 00 00 00 00 00 00 00 00
 8.573584 1  167             Rx   d 8 00 FF FF 00 00 02 15 00
 8.593797 1  167             Rx   d 8 00 FF FF 00 00 02 15 00
 8.613305 1  3CA             Rx   d 8 04 00 00 00 00 00 00 00
 8.633393 1  156             Rx   d 8 BA 00 00 00 00 00 00 00
 8.643100 1  167             Rx   d 8 00 FF FF 00 00 02 15 00
 8.663305 1  167             Rx   d 8 00 FF FF 00 00 02 15 00
 8.674046 1  202             Rx   d 8 00 CC 00 00 00 00 00 00
 8.693727 1  167             Rx   d 8 00 FF FF 00 00 02 15 00
 8.704546 1  76              Rx   d 8 00 00 1F F7 FC 00 00 F0
 8.723406 1  167             Rx   d 8 00 FF FF 00 00 02 15 00
 8.735229 1  202             Rx   d 8 00 CC 00 00 00 00 00 00
 8.753334 1  412             Rx   d 8 7D 00 80 80 00 00 00 00
 8.771174 1  40A             Rx   d 8 C1 01 47 41 48 4A 48 45
 8.783344 1  167             Rx   d 8 00 FF FF 00 00 02 15 00
 8.801725 1  318             Rx   d 8 00 00 00 00 00 00 00 00
 8.813665 1  167             Rx   d 8 00 FF FF 00 00 02 15 00
 8.833441 1  156             Rx   d 8 BA 00 00 00 00 00 00 00
 8.843351 1  204             Rx   d 8 00 00 FF 00 00 00 00 00
 8.863248 1  167             Rx   d 8 00 FF FF 00 00 02 15 00
 8.874007 1  202             Rx   d 8 00 CC 00 00 00 00 00 00
 8.893725 1  167             Rx   d 8 00 FF FF 00 00 02 15 00
 8.904389 1  76              Rx   d 8 00 00 1F F7 FC 00 00 F0
 8.923406 1  167             Rx   d 8 00 FF FF 00 00 02 15 00
 8.933413 1  156             Rx   d 8 BA 00 00 00 00 00 00 00
 8.953552 1  412             Rx   d 8 7D 00 80 80 00 00 00 00
 8.967945 1  38D             Rx   d 8 20 00 00 00 00 00 0C F0
 8.983176 1  167             Rx   d 8 00 FF FF 00 00 02 15 00
 9.001745 1  318             Rx   d 8 00 00 00 00 00 00 00 00
 9.023129 1  167             Rx   d 8 00 FF FF 00 00 02 15 00
 9.053452 1  412             Rx   d 8 7D 00 80 80 00 00 00 00
 9.072121 1  591             Rx   d 8 91 00 FF FF FF FF FF FF
 9.093551 1  3CA             Rx   d 8 04 00 00 00 00 00 00 00
 9.104579 1  2FD             Rx   d 8 09 00 00 04 FC 00 00 00
 9.133399 1  156             Rx   d 8 BA 00 00 00 00 00 00 00
 9.137026 1  42D             Rx   d 8 00 03 FF 00 00 00 F0 00
 9.143476 1  167             Rx   d 8 00 FF FF 00 00 02 15 00
 9.143520 1  204             Rx   d 8 00 00 FF 00 00 00 00 00
 9.143714 1  76              Rx   d 8 00 00 1F F7 FC 00 00 F0
 9.153605 1  3CA             Rx   d 8 04 00 00 00 00 00 00 00
 9.153634 1  412             Rx   d 8 7D 00 80 80 00 00 00 00
 9.153902 1  167             Rx   d 8 00 FF FF 00 00 02 15 00
 9.154111 1  42F             Rx   d 8 7D 02 05 4E 26 0B 00 00
 9.154352 1  202             Rx   d 8 00 CC 00 00 00 00 00 00
 9.154583 1  204             Rx   d 8 00 00 FF 00 00 00 00 00
 9.154833 1  479             Rx   d 8 00 00 00 00 00 00 00 00
 9.173798 1  167             Rx   d 8 00 FF FF 00 00 02 15 00
 9.174074 1  202             Rx   d 8 00 CC 00 00 00 00 00 00
 9.183121 1  167             Rx   d 8 00 FF FF 00 00 02 15 00
 9.202034 1  318             Rx   d 8 00 00 00 00 00 00 00 00
 9.206214 1  42F             Rx   d 8 7D 02 05 4E 26 0B 00 00
 9.223139 1  167             Rx   d 8 00 FF FF 00 00 02 15 00
 9.243403 1  167             Rx   d 8 00 FF FF 00 00 02 15 00
 9.251362 1  84              Rx   d 8 00 00 00 01 00 08 0C 00
 9.273812 1  167             Rx   d 8 00 FF FF 00 00 02 15 00
 9.293593 1  167             Rx   d 8 00 FF FF 00 00 02 15 00
 9.303513 1  204             Rx   d 8 00 00 FF 00 00 00 00 00
 9.306304 1  470             Rx   d 8 00 00 40 00 00 00 00 00
 9.314360 1  202             Rx   d 8 00 CC 00 00 00 00 00 00
 9.323121 1  167             Rx   d 8 00 FF FF 00 00 02 15 00
 9.333383 1  156             Rx   d 8 BA 00 00 00 00 00 00 00
 9.354083 1  167             Rx   d 8 00 FF FF 00 00 02 15 00
 9.360999 1  40A             Rx   d 8 C1 10 40 84 20 08 80 00
 9.373641 1  167             Rx   d 8 00 FF FF 00 00 02 15 00
 9.383889 1  76              Rx   d 8 00 00 1F F7 FC 00 00 F0
 9.393611 1  167             Rx   d 8 00 FF FF 00 00 02 15 00
 9.404838 1  48              Rx   d 8 00 00 00 00 00 00 E0 00
 9.423395 1  167             Rx   d 8 00 FF FF 00 00 02 15 00
 9.434041 1  167             Rx   d 8 00 FF FF 00 00 02 15 00
 9.435770 1  204             Rx   d 8 00 00 FF 00 00 00 00 00
 9.453725 1  167             Rx   d 8 00 FF FF 00 00 02 15 00
 9.473604 1  167             Rx   d 8 00 FF FF 00 00 02 15 00
 9.493589 1  167             Rx   d 8 00 FF FF 00 00 02 15 00
 9.503587 1  204             Rx   d 8 00 00 FF 00 00 00 00 00
 9.513838 1  167             Rx   d 8 00 FF FF 00 00 02 15 00
 9.533318 1  156             Rx   d 8 BA 00 00 00 00 00 00 00
 9.543114 1  167             Rx   d 8 00 FF FF 00 00 02 15 00
 9.543288 1  204             Rx   d 8 00 00 FF 00 00 00 00 00
 9.543741 1  76              Rx   d 8 00 00 1F F7 FC 00 00 F0
 9.543972 1  20A             Rx   d 8 F1 F8 00 00 00 00 4E 20
 9.554156 1  167             Rx   d 8 00 FF FF 00 00 02 15 00
 9.573633 1  167             Rx   d 8 00 FF FF 00 00 02 15 00
 9.574349 1  204             Rx   d 8 00 00 FF 00 00 00 00 00
 9.593844 1  167             Rx   d 8 00 FF FF 00 00 02 15 00
 9.613593 1  167             Rx   d 8 00 FF FF 00 00 02 15 00
 9.633468 1  156             Rx   d 8 BA 00 00 00 00 00 00 00
 9.633647 1  3CA             Rx   d 8 04 00 00 00 00 00 00 00
 9.634867 1  17C             Rx   d 8 00 00 00 00 00 00 00 00
 9.643122 1  167             Rx   d 8 00 FF FF 00 00 02 15 00
 9.653965 1  167             Rx   d 8 00 FF FF 00 00 02 15 00
 9.673621 1  167             Rx   d 8 00 FF FF 00 00 02 15 00
 9.683918 1  76              Rx   d 8 00 00 1F F7 FC 00 00 F0
 9.701876 1  287             Rx   d 8 00 00 00 00 00 00 00 00
 9.703683 1  204             Rx   d 8 00 00 FF 00 00 00 00 00
 9.723160 1  167             Rx   d 8 00 FF FF 00 00 02 15 00
 9.733853 1  156             Rx   d 8 BA 00 00 00 00 00 00 00
 9.753616 1  167             Rx   d 8 00 FF FF 00 00 02 15 00
 9.764268 1  20A             Rx   d 8 F1 F8 00 00 00 00 4E 20
 9.773582 1  167             Rx   d 8 00 FF FF 00 00 02 15 00
 9.784125 1  20A             Rx   d 8 F1 F8 00 00 00 00 4E 20
 9.803511 1  167             Rx   d 8 00 FF FF 00 00 02 14 00
 9.805346 1  14C             Rx   d 8 08 00 00 01 00 00 00 00
 9.823382 1  167             Rx   d 8 00 FF FF 00 00 02 14 00
 9.833468 1  156             Rx   d 8 BA 00 00 00 00 00 00 00
 9.843127 1  167             Rx   d 8 00 FF FF 00 00 02 14 00
 9.854511 1  412             Rx   d 8 7D 00 80 80 00 00 00 00
 9.873611 1  167             Rx   d 8 00 FF FF 00 00 02 14 00
 9.893727 1  167             Rx   d 8 00 FF FF 00 00 02 14 00
 9.901939 1  287             Rx   d 8 00 00 00 00 00 00 00 00
 9.933547 1  156             Rx   d 8 BA 00 00 00 00 00 00 00
 9.943136 1  167             Rx   d 8 00 FF FF 00 00 02 14 00
 9.963431 1  167             Rx   d 8 00 FF FF 00 00 02 14 00
 9.983133 1  167             Rx   d 8 00 FF FF 00 00 02 14 00
 9.993582 1  59E             Rx   d 8 9E 00 FF FF FF FF FF FF
 10.010959 1  470             Rx   d 8 00 00 40 00 00 00 00 00
 10.033491 1  156             Rx   d 8 BA 00 00 00 00 00 00 00
 10.043499 1  167             Rx   d 8 00 FF FF 00 00 02 14 00
 10.043613 1  204             Rx   d 8 00 00 FF 00 00 00 00 00
 10.053594 1  167             Rx   d 8 00 FF FF 00 00 02 14 00
 10.064163 1  76              Rx   d 8 00 00 1F F7 FC 00 00 F0
 10.093622 1  167             Rx   d 8 00 FF FF 00 00 02 14 00
 10.101943 1  18B             Rx   d 8 00 00 00 1E 00 00 00 00
 10.123177 1  167             Rx   d 8 00 FF FF 00 00 02 14 00
 10.134279 1  178             Rx   d 8 00 00 02 00 02 54 C9 E2
 10.153587 1  167             Rx   d 8 00 FF FF 00 00 02 14 00
 10.173694 1  167             Rx   d 8 00 FF FF 00 00 02 14 00
 10.193653 1  167             Rx   d 8 00 FF FF 00 00 02 14 00
 10.204788 1  48              Rx   d 8 00 00 00 00 00 00 E0 00
 10.223146 1  167             Rx   d 8 00 FF FF 00 00 02 14 00
 10.234983 1  17C             Rx   d 8 00 00 00 00 00 00 00 00
 10.253615 1  167             Rx   d 8 00 FF FF 00 00 02 14 00
 10.273716 1  167             Rx   d 8 00 FF FF 00 00 02 14 00
 10.293583 1  167             Rx   d 8 00 FF FF 00 00 02 14 00
 10.301479 1  287             Rx   d 8 00 00 00 00 00 00 00 00
 10.323156 1  167             Rx   d 8 00 FF FF 00 00 02 14 00
 10.335726 1  204             Rx   d 8 00 00 FF 00 00 00 00 00
 10.353711 1  167             Rx   d 8 00 FF FF 00 00 02 14 00
 10.373579 1  167             Rx   d 8 00 FF FF 00 00 02 14 00
 10.393624 1  167             Rx   d 8 00 FF FF 00 00 02 14 00
 10.401561 1  318             Rx   d 8 00 00 00 00 00 00 00 00
 10.423244 1  167             Rx   d 8 00 FF FF 00 00 02 14 00
 10.436462 1  42D             Rx   d 8 00 03 FF 00 00 00 F0 00
 10.453881 1  167             Rx   d 8 00 FF FF 00 00 02 14 00
 10.473591 1  167             Rx   d 8 00 FF FF 00 00 02 14 00
 10.484359 1  76              Rx   d 8 00 00 1F F7 FC 00 00 F0
 10.502660 1  348             Rx   d 8 00 00 00 01 00 00 00 00
 10.523165 1  167             Rx   d 8 00 FF FF 00 00 02 14 00
 10.533371 1  156             Rx   d 8 BA 00 00 00 00 00 00 00
 10.553643 1  167             Rx   d 8 00 FF FF 00 00 02 14 00
 10.564082 1  76              Rx   d 8 00 00 1F F7 FC 00 00 F0
 10.583240 1  167             Rx   d 8 00 FF FF 00 00 02 14 00
 10.593697 1  167             Rx   d 8 00 FF FF 00 00 02 14 00
 10.613565 1  167             Rx   d 8 00 FF FF 00 00 02 14 00
 10.633402 1  156             Rx   d 8 BA 00 00 00 00 00 00 00
 10.653719 1  167             Rx   d 8 00 FF FF 00 00 02 14 00
 10.673635 1  167             Rx   d 8 00 FF FF 00 00 02 14 00
 10.683112 1  167             Rx   d 8 00 FF FF 00 00 02 14 00
 10.701907 1  287             Rx   d 8 00 00 00 00 00 00 00 00
 10.713587 1  167             Rx   d 8 00 FF FF 00 00 02 14 00
 10.733423 1  156             Rx   d 8 BA 00 00 00 00 00 00 00
 10.753728 1  167             Rx   d 8 00 FF FF 00 00 02 14 00
 10.773582 1  167             Rx   d 8 00 FF FF 00 00 02 14 00
 10.783326 1  171             Rx   d 8 F0 E0 00 00 00 00 00 00
 10.801765 1  318             Rx   d 8 00 00 00 00 00 00 00 00
 10.814233 1  202             Rx   d 8 00 CC 00 00 00 00 00 00
 10.833600 1  156             Rx   d 8 BA 00 00 00 00 00 00 00
 10.843117 1  167             Rx   d 8 00 FF FF 00 00 02 14 00
 10.863454 1  167             Rx   d 8 00 FF FF 00 00 02 14 00
 10.874517 1  202             Rx   d 8 00 CC 00 00 00 00 00 00
 10.893579 1  167             Rx   d 8 00 FF FF 00 00 02 14 00
 10.913841 1  167             Rx   d 8 00 FF FF 00 00 02 14 00
 10.933680 1  156             Rx   d 8 BA 00 00 00 00 00 00 00
 10.953621 1  167             Rx   d 8 00 FF FF 00 00 02 14 00
 10.963126 1  167             Rx   d 8 00 FF FF 00 00 02 14 00
 10.981496 1  3B4             Rx   d 8 34 21 11 FF 1E 1A 00 00
 11.001915 1  318             Rx   d 8 00 00 00 00 00 00 00 00
 11.023137 1  167             Rx   d 8 00 FF FF 00 00 02 14 00
 11.033386 1  156             Rx   d 8 BA 00 00 00 00 00 00 00
 11.053580 1  167             Rx   d 8 00 FF FF 00 00 02 14 00
 11.063096 1  167             Rx   d 8 00 FF FF 00 00 02 14 00
 11.083260 1  167             Rx   d 8 00 FF FF 00 00 02 14 00
 11.094016 1  202             Rx   d 8 00 CC 00 00 00 00 00 00
 11.113754 1  167             Rx   d 8 00 FF FF 00 00 02 14 00
 11.130284 1  40A             Rx   d 8 C1 01 47 41 48 4A 48 45
 11.153631 1  167             Rx   d 8 00 FF FF 00 00 02 14 00
 11.164794 1  3CA             Rx   d 8 04 00 00 00 00 00 00 00
 11.183141 1  167             Rx   d 8 00 FF FF 00 00 02 14 00
 11.194884 1  3CA             Rx   d 8 04 00 00 00 00 00 00 00
 11.213678 1  167             Rx   d 8 00 FF FF 00 00 02 14 00
 11.233356 1  156             Rx   d 8 BA 00 00 00 00 00 00 00
 11.243135 1  167             Rx   d 8 00 FF FF 00 00 02 14 00
 11.255142 1  412             Rx   d 8 7D 00 80 80 00 00 00 00
 11.273659 1  167             Rx   d 8 00 FF FF 00 00 02 14 00
 11.283249 1  167             Rx   d 8 00 FF FF 00 00 02 14 00
 11.301905 1  287             Rx   d 8 00 00 00 00 00 00 00 00
 11.313683 1  167             Rx   d 8 00 FF FF 00 00 02 14 00
 11.323249 1  167             Rx   d 8 00 FF FF 00 00 02 14 00
 11.343077 1  167             Rx   d 8 00 FF FF 00 00 02 14 00
 11.363130 1  167             Rx   d 8 00 FF FF 00 00 02 14 00
 11.375348 1  3CA             Rx   d 8 04 00 00 00 00 00 00 00
 11.393626 1  167             Rx   d 8 00 FF FF 00 00 02 14 00
 11.413631 1  167             Rx   d 8 00 FF FF 00 00 02 14 00
 11.433397 1  156             Rx   d 8 BA 00 00 00 00 00 00 00
 11.453621 1  167             Rx   d 8 00 FF FF 00 00 02 14 00
 11.464420 1  76              Rx   d 8 00 00 1F F7 FC 00 00 F0
 11.483146 1  167             Rx   d 8 00 FF FF 00 00 02 14 00
 11.493985 1  202             Rx   d 8 00 CC 00 00 00 00 00 00
 11.513568 1  167             Rx   d 8 00 FF FF 00 00 02 14 00
 11.533336 1  156             Rx   d 8 BA 00 00 00 00 00 00 00
 11.553740 1  167             Rx   d 8 00 FF FF 00 00 02 14 00
 11.564893 1  76              Rx   d 8 00 00 1F F7 FC 00 00 F0
 11.583268 1  167             Rx   d 8 00 FF FF 00 00 02 14 00
 11.594249 1  202             Rx   d 8 00 CC 00 00 00 00 00 00
 11.613545 1  167             Rx   d 8 00 FF FF 00 00 02 14 00
 11.624941 1  76              Rx   d 8 00 00 1F F7 FC 00 00 F0
 11.643350 1  204             Rx   d 8 00 00 FF 00 00 00 00 00
 11.663153 1  167             Rx   d 8 00 FF FF 00 00 02 14 00
 11.683092 1  167             Rx   d 8 00 FF FF 00 00 02 14 00
 11.701547 1  287             Rx   d 8 00 00 00 00 00 00 00 00
 11.713598 1  167             Rx   d 8 00 FF FF 00 00 02 14 00
 11.733398 1  156             Rx   d 8 BA 00 00 00 00 00 00 00
 11.743100 1  167             Rx   d 8 00 FF FF 00 00 02 14 00
 11.763359 1  167             Rx   d 8 00 FF FF 00 00 02 14 00
 11.783093 1  167             Rx   d 8 00 FF FF 00 00 02 14 00
 11.793636 1  167             Rx   d 8 00 FF FF 00 00 02 14 00
 11.813591 1  167             Rx   d 8 00 FF FF 00 00 02 14 00
 11.833500 1  156             Rx   d 8 BA 00 00 00 00 00 00 00
 11.843139 1  167             Rx   d 8 00 FF FF 00 00 02 14 00
 11.863224 1  167             Rx   d 8 00 FF FF 00 00 02 14 00
 11.883263 1  167             Rx   d 8 00 FF FF 00 00 02 14 00
 11.893609 1  167             Rx   d 8 00 FF FF 00 00 02 14 00
 11.906065 1  412             Rx   d 8 7D 00 80 80 00 00 00 00
 11.924661 1  76              Rx   d 8 00 00 1F F7 FC 00 00 F0
 11.943237 1  167             Rx   d 8 00 FF FF 00 00 02 14 00
 11.954227 1  202             Rx   d 8 00 CC 00 00 00 00 00 00
 11.973711 1  167             Rx   d 8 00 FF FF 00 00 02 14 00
 11.984763 1  76              Rx   d 8 00 00 1F F7 FC 00 00 F0
 12.001827 1  318             Rx   d 8 00 00 00 00 00 00 00 00
 12.023128 1  167             Rx   d 8 00 FF FF 00 00 02 14 00
 12.043766 1  167             Rx   d 8 00 FF FF 00 00 02 14 00
 12.043801 1  171             Rx   d 8 F0 E0 00 00 00 00 00 00
 12.043806 1  204             Rx   d 8 00 00 FF 00 00 00 00 00
 12.044848 1  76              Rx   d 8 00 00 1F F7 FC 00 00 F0
 12.053807 1  167             Rx   d 8 00 FF FF 00 00 02 14 00
 12.054226 1  202             Rx   d 8 00 CC 00 00 00 00 00 00
 12.054461 1  204             Rx   d 8 00 00 FF 00 00 00 00 00
 12.063381 1  204             Rx   d 8 00 00 FF 00 00 00 00 00
 12.083098 1  167             Rx   d 8 00 FF FF 00 00 02 14 00
 12.093640 1  167             Rx   d 8 00 FF FF 00 00 02 14 00
 12.095450 1  3CA             Rx   d 8 04 00 00 00 00 00 00 00
 12.107048 1  3C8             Rx   d 8 00 00 00 EC 00 00 00 00
 12.115280 1  40A             Rx   d 8 C1 00 57 46 30 4A 58 58
 12.123145 1  167             Rx   d 8 00 FF FF 00 00 02 14 00
 12.143456 1  167             Rx   d 8 00 FF FF 00 00 02 14 00
 12.163149 1  167             Rx   d 8 00 FF FF 00 00 02 14 00
 12.163381 1  171             Rx   d 8 F0 E0 00 00 00 00 00 00
 12.173781 1  167             Rx   d 8 00 FF FF 00 00 02 14 00
 12.174050 1  202             Rx   d 8 00 CC 00 00 00 00 00 00
 12.183453 1  167             Rx   d 8 00 FF FF 00 00 02 14 00
 12.183542 1  204             Rx   d 8 00 00 FF 00 00 00 00 00
 12.193587 1  167             Rx   d 8 00 FF FF 00 00 02 14 00
 12.205529 1  48              Rx   d 8 00 00 00 00 00 00 E0 00
 12.223533 1  204             Rx   d 8 00 00 FF 00 00 00 00 00
 12.225030 1  20A             Rx   d 8 F1 F8 00 00 00 00 4E 20
 12.233350 1  156             Rx   d 8 BA 00 00 00 00 00 00 00
 12.253815 1  167             Rx   d 8 00 FF FF 00 00 02 14 00
 12.273682 1  167             Rx   d 8 00 FF FF 00 00 02 14 00
 12.283130 1  167             Rx   d 8 00 FF FF 00 00 02 14 00
 12.301704 1  287             Rx   d 8 00 00 00 00 00 00 00 00
 12.323465 1  167             Rx   d 8 00 FF FF 00 00 02 14 00
 12.333736 1  166             Rx   d 8 76 00 00 FF FF FF 00 00
 12.353841 1  167             Rx   d 8 00 FF FF 00 00 02 14 00
 12.364775 1  76              Rx   d 8 00 00 1F F7 FC 00 00 F0
 12.383646 1  167             Rx   d 8 00 FF FF 00 00 02 14 00
 12.395436 1  3CA             Rx   d 8 04 00 00 00 00 00 00 00
 12.406535 1  412             Rx   d 8 7D 00 80 80 00 00 00 00
 12.414437 1  202             Rx   d 8 00 CC 00 00 00 00 00 00
 12.433368 1  156             Rx   d 8 BA 00 00 00 00 00 00 00
 12.433742 1  166             Rx   d 8 76 00 00 FF FF FF 00 00
 12.443060 1  167             Rx   d 8 00 FF FF 00 00 02 14 00
 12.454025 1  167             Rx   d 8 00 FF FF 00 00 02 14 00
 12.473579 1  167             Rx   d 8 00 FF FF 00 00 02 14 00
 12.483500 1  167             Rx   d 8 00 FF FF 00 00 02 14 00
 12.485373 1  3CA             Rx   d 8 04 00 00 00 00 00 00 00
 12.501487 1  287             Rx   d 8 00 00 00 00 00 00 00 00
 12.515604 1  3CA             Rx   d 8 04 00 00 00 00 00 00 00
 12.533304 1  156             Rx   d 8 BA 00 00 00 00 00 00 00
 12.553738 1  167             Rx   d 8 00 FF FF 00 00 02 14 00
 12.563145 1  167             Rx   d 8 00 FF FF 00 00 02 14 00
 12.583242 1  167             Rx   d 8 00 FF FF 00 00 02 14 00
 12.585624 1  76              Rx   d 8 00 00 1F F7 FC 00 00 F0
 12.601815 1  318             Rx   d 8 00 00 00 00 00 00 00 00
 12.614496 1  204             Rx   d 8 00 00 FF 00 00 00 00 00
 12.623237 1  167             Rx   d 8 00 FF FF 00 00 02 14 00
 12.643053 1  167             Rx   d 8 00 FF FF 00 00 02 14 00
 12.663177 1  167             Rx   d 8 00 FF FF 00 00 02 14 00
 12.683089 1  167             Rx   d 8 00 FF FF 00 00 02 14 00
 12.693648 1  167             Rx   d 8 00 FF FF 00 00 02 14 00
 12.713567 1  167             Rx   d 8 00 FF FF 00 00 02 14 00
 12.733401 1  156             Rx   d 8 BA 00 00 00 00 00 00 00
 12.736017 1  202             Rx   d 8 00 CC 00 00 00 00 00 00
 12.745245 1  76              Rx   d 8 00 00 1F F7 FC 00 00 F0
 12.745521 1  20A             Rx   d 8 F1 F8 00 00 00 00 4E 20
 12.753572 1  167             Rx   d 8 00 FF FF 00 00 02 14 00
 12.765442 1  76              Rx   d 8 00 00 1F F7 FC 00 00 F0
 12.783086 1  167             Rx   d 8 00 FF FF 00 00 02 14 00
 12.801980 1  318             Rx   d 8 00 00 00 00 00 00 00 00
 12.813550 1  167             Rx   d 8 00 FF FF 00 00 02 14 00
 12.833408 1  156             Rx   d 8 BA 00 00 00 00 00 00 00
 12.853561 1  167             Rx   d 8 00 FF FF 00 00 02 14 00
 12.873681 1  167             Rx   d 8 00 FF FF 00 00 02 14 00
 12.885109 1  76              Rx   d 8 00 00 1F F7 FC 00 00 F0
 12.902552 1  447             Rx   d 8 20 00 00 4B 00 00 00 00
 12.923085 1  167             Rx   d 8 00 FF FF 00 00 02 14 00
 12.947729 1  3B4             Rx   d 8 34 21 11 FF 1E 1A 00 00
 12.974093 1  167             Rx   d 8 00 FF FF 00 00 02 14 00
 12.985279 1  20A             Rx   d 8 F1 F8 00 00 00 00 4E 20
 13.003038 1  167             Rx   d 8 00 FF FF 00 00 02 14 00
 13.025000 1  76              Rx   d 8 00 00 1F F7 FC 00 00 F0
 13.043252 1  167             Rx   d 8 00 FF FF 00 00 02 14 00
 13.063074 1  167             Rx   d 8 00 FF FF 00 00 02 14 00
 13.083145 1  167             Rx   d 8 00 FF FF 00 00 02 14 00
 13.101685 1  18B             Rx   d 8 00 00 00 1E 00 00 00 00
 13.115866 1  3CA             Rx   d 8 04 00 00 00 00 00 00 00
 13.123739 1  167             Rx   d 8 00 FF FF 00 00 02 14 00
 13.123773 1  171             Rx   d 8 F0 E0 00 00 00 00 00 00
 13.123780 1  204             Rx   d 8 00 00 FF 00 00 00 00 00
 13.125229 1  76              Rx   d 8 00 00 1F F7 FC 00 00 F0
 13.125414 1  20A             Rx   d 8 F1 F8 00 00 00 00 4E 20
 13.133324 1  156             Rx   d 8 BA 00 00 00 00 00 00 00
 13.133725 1  166             Rx   d 8 76 00 00 FF FF FF 00 00
 13.133959 1  167             Rx   d 8 00 FF FF 00 00 02 14 00
 13.134212 1  178             Rx   d 8 00 00 02 00 02 54 CA 09
 13.134450 1  179             Rx   d 8 00 00 08 00 22 FF 00 00
 13.134707 1  17C             Rx   d 8 00 00 00 00 00 00 00 00
 13.135512 1  202             Rx   d 8 00 CC 00 00 00 00 00 00
 13.144646 1  331             Rx   d 8 C0 00 00 00 02 00 00 00
 13.163050 1  167             Rx   d 8 00 FF FF 00 00 02 14 00
 13.183278 1  167             Rx   d 8 00 FF FF 00 00 02 14 00
 13.201504 1  318             Rx   d 8 00 00 00 00 00 00 00 00
 13.223295 1  167             Rx   d 8 00 FF FF 00 00 02 14 00
 13.223337 1  204             Rx   d 8 00 00 FF 00 00 00 00 00
 13.225140 1  76              Rx   d 8 00 00 1F F7 FC 00 00 F0
 13.243211 1  167             Rx   d 8 00 FF FF 00 00 02 14 00
 13.263489 1  167             Rx   d 8 00 FF FF 00 00 02 14 00
 13.273588 1  167             Rx   d 8 00 FF FF 00 00 02 14 00
 13.293071 1  40A             Rx   d 8 C1 00 57 46 30 4A 58 58
 13.313626 1  167             Rx   d 8 00 FF FF 00 00 02 14 00
 13.325712 1  3CA             Rx   d 8 04 00 00 00 00 00 00 00
 13.343069 1  167             Rx   d 8 00 FF FF 00 00 02 14 00
 13.356540 1  42F             Rx   d 8 7D 02 05 4E 26 0B 00 00
 13.383102 1  167             Rx   d 8 00 FF FF 00 00 02 14 00
 13.393607 1  167             Rx   d 8 00 FF FF 00 00 02 14 00
 13.405967 1  48              Rx   d 8 00 00 00 00 00 00 E0 00
 13.423077 1  167             Rx   d 8 00 FF FF 00 00 02 14 00
 13.443071 1  167             Rx   d 8 00 FF FF 00 00 02 14 00
 13.450106 1  3B5             Rx   d 8 FF FD FF FD FF FD FF FD
 13.453574 1  167             Rx   d 8 00 FF FF 00 00 02 14 00
 13.453725 1  171             Rx   d 8 F0 E0 00 00 00 00 00 00
 13.454224 1  202             Rx   d 8 00 CC 00 00 00 00 00 00
 13.454455 1  204             Rx   d 8 00 00 FF 00 00 00 00 00
 13.456066 1  412             Rx   d 8 7D 00 80 80 00 00 00 00
 13.456275 1  42F             Rx   d 8 7D 02 05 4E 26 0B 00 00
 13.463145 1  167             Rx   d 8 00 FF FF 00 00 02 14 00
 13.463333 1  204             Rx   d 8 00 00 FF 00 00 00 00 00
 13.465487 1  76              Rx   d 8 00 00 1F F7 FC 00 00 F0
 13.465519 1  20A             Rx   d 8 F1 F8 00 00 00 00 4E 20
 13.474066 1  167             Rx   d 8 00 FF FF 00 00 02 14 00
 13.489592 1  3B2             Rx   d 8 14 80 C0 0C E6 00 03 3C
 13.506060 1  48              Rx   d 8 00 00 00 00 00 00 E0 00
 13.523110 1  167             Rx   d 8 00 FF FF 00 00 02 13 00
 13.543239 1  167             Rx   d 8 00 FF FF 00 00 02 13 00
 13.563076 1  167             Rx   d 8 00 FF FF 00 00 02 13 00
 13.583112 1  167             Rx   d 8 00 FF FF 00 00 02 13 00
 13.594196 1  204             Rx   d 8 00 00 FF 00 00 00 00 00
 13.613615 1  167             Rx   d 8 00 FF FF 00 00 02 13 00
 13.625336 1  76              Rx   d 8 00 00 1F F7 FC 00 00 F0
 13.643114 1  167             Rx   d 8 00 FF FF 00 00 02 13 00
 13.663048 1  167             Rx   d 8 00 FF FF 00 00 02 13 00
 13.683110 1  167             Rx   d 8 00 FF FF 00 00 02 13 00
 13.701889 1  287             Rx   d 8 00 00 00 00 00 00 00 00
 13.713608 1  167             Rx   d 8 00 FF FF 00 00 02 13 00
 13.733291 1  156             Rx   d 8 BA 00 00 00 00 00 00 00
 13.753581 1  167             Rx   d 8 00 FF FF 00 00 02 13 00
 13.773592 1  167             Rx   d 8 00 FF FF 00 00 02 13 00
 13.785848 1  76              Rx   d 8 00 00 1F F7 FC 00 00 F0
 13.802490 1  434             Rx   d 8 00 00 00 00 60 FF F0 00
 13.823090 1  167             Rx   d 8 00 FF FF 00 00 02 13 00
 13.843107 1  167             Rx   d 8 00 FF FF 00 00 02 13 00
 13.856034 1  412             Rx   d 8 7D 00 80 80 00 00 00 00
 13.873580 1  167             Rx   d 8 00 FF FF 00 00 02 13 00
 13.886239 1  447             Rx   d 8 20 00 00 4B 00 00 00 00
 13.903161 1  167             Rx   d 8 00 FF FF 00 00 02 13 00
 13.923214 1  167             Rx   d 8 00 FF FF 00 00 02 13 00
 13.934208 1  171             Rx   d 8 F0 E0 00 00 00 00 00 00
 13.953651 1  167             Rx   d 8 00 FF FF 00 00 02 13 00
 13.973521 1  167             Rx   d 8 00 FF FF 00 00 02 13 00
 13.983116 1  167             Rx   d 8 00 FF FF 00 00 02 13 00
 14.001552 1  318             Rx   d 8 00 00 00 00 00 00 00 00
 14.023271 1  167             Rx   d 8 00 FF FF 00 00 02 13 00
 14.035473 1  204             Rx   d 8 00 00 FF 00 00 00 00 00
 14.053692 1  167             Rx   d 8 00 FF FF 00 00 02 13 00
 14.071776 1  591             Rx   d 8 91 00 FF FF FF FF FF FF
 14.093590 1  167             Rx   d 8 00 FF FF 00 00 02 13 00
 14.107230 1  3E0             Rx   d 8 00 00 00 00 80 00 00 00
 14.125544 1  76              Rx   d 8 00 00 1F F7 FC 00 00 F0
 14.143348 1  171             Rx   d 8 F0 E0 00 00 00 00 00 00
 14.163205 1  167             Rx   d 8 00 FF FF 00 00 02 13 00
 14.183068 1  167             Rx   d 8 00 FF FF 00 00 02 13 00
 14.201689 1  318             Rx   d 8 00 00 00 00 00 00 00 00
 14.223092 1  167             Rx   d 8 00 FF FF 00 00 02 13 00
 14.233354 1  156             Rx   d 8 BA 00 00 00 00 00 00 00
 14.253533 1  167             Rx   d 8 00 FF FF 00 00 02 13 00
 14.273577 1  167             Rx   d 8 00 FF FF 00 00 02 13 00
 14.285567 1  76              Rx   d 8 00 00 1F F7 FC 00 00 F0
 14.306384 1  48              Rx   d 8 00 00 00 00 00 00 E0 00
 14.323087 1  167             Rx   d 8 00 FF FF 00 00 02 13 00
 14.343081 1  167             Rx   d 8 00 FF FF 00 00 02 13 00
 14.356705 1  412             Rx   d 8 7D 00 80 80 00 00 00 00
 14.373878 1  167             Rx   d 8 00 FF FF 00 00 02 13 00
 14.393833 1  167             Rx   d 8 00 FF FF 00 00 02 13 00
 14.413545 1  167             Rx   d 8 00 FF FF 00 00 02 13 00
 14.432949 1  3B5             Rx   d 8 FF FD FF FD FF FD FF FD
 14.445735 1  76              Rx   d 8 00 00 1F F7 FC 00 00 F0
 14.463120 1  167             Rx   d 8 00 FF FF 00 00 02 13 00
 14.483087 1  167             Rx   d 8 00 FF FF 00 00 02 13 00
 14.501659 1  287             Rx   d 8 00 00 00 00 00 00 00 00
 14.523249 1  167             Rx   d 8 00 FF FF 00 00 02 13 00
 14.534433 1  178             Rx   d 8 00 00 02 00 02 54 CA 17
 14.553584 1  167             Rx   d 8 00 FF FF 00 00 02 13 00
 14.565804 1  76              Rx   d 8 00 00 1F F7 FC 00 00 F0
 14.583066 1  167             Rx   d 8 00 FF FF 00 00 02 13 00
 14.601757 1  318             Rx   d 8 00 00 00 00 00 00 00 00
 14.623101 1  167             Rx   d 8 00 FF FF 00 00 02 13 00
 14.635439 1  204             Rx   d 8 00 00 FF 00 00 00 00 00
 14.653662 1  167             Rx   d 8 00 FF FF 00 00 02 13 00
 14.673575 1  167             Rx   d 8 00 FF FF 00 00 02 13 00
 14.693544 1  167             Rx   d 8 00 FF FF 00 00 02 13 00
 14.706490 1  48              Rx   d 8 00 00 00 00 00 00 E0 00
 14.725774 1  76              Rx   d 8 00 00 1F F7 FC 00 00 F0
 14.743110 1  167             Rx   d 8 00 FF FF 00 00 02 13 00
 14.763060 1  167             Rx   d 8 00 FF FF 00 00 02 13 00
 14.783239 1  167             Rx   d 8 00 FF FF 00 00 02 13 00
 14.793595 1  167             Rx   d 8 00 FF FF 00 00 02 13 00
 14.806808 1  76              Rx   d 8 00 00 1F F7 FC 00 00 F0
 14.825934 1  76              Rx   d 8 00 00 1F F7 FC 00 00 F0
 14.843024 1  167             Rx   d 8 00 FF FF 00 00 02 13 00
 14.863107 1  167             Rx   d 8 00 FF FF 00 00 02 13 00
 14.883278 1  167             Rx   d 8 00 FF FF 00 00 02 13 00
 14.901966 1  287             Rx   d 8 00 00 00 00 00 00 00 00
 14.913534 1  167             Rx   d 8 00 FF FF 00 00 02 13 00
 14.933282 1  156             Rx   d 8 BA 00 00 00 00 00 00 00
 14.953713 1  167             Rx   d 8 00 FF FF 00 00 02 13 00
 14.973581 1  167             Rx   d 8 00 FF FF 00 00 02 13 00
 14.986393 1  76              Rx   d 8 00 00 1F F7 FC 00 00 F0
 15.001678 1  318             Rx   d 8 00 00 00 00 00 00 00 00
 15.023104 1  167             Rx   d 8 00 FF FF 00 00 02 13 00
 15.033370 1  156             Rx   d 8 BA 00 00 00 00 00 00 00
 15.053579 1  167             Rx   d 8 00 FF FF 00 00 02 13 00
 15.071807 1  591             Rx   d 8 91 00 FF FF FF FF FF FF
 15.085919 1  76              Rx   d 8 00 00 1F F7 FC 00 00 F0
 15.104182 1  30A             Rx   d 8 85 00 00 00 00 00 00 00
 15.123103 1  167             Rx   d 8 00 FF FF 00 00 02 13 00
 15.143067 1  167             Rx   d 8 00 FF FF 00 00 02 13 00
 15.156745 1  412             Rx   d 8 7D 00 80 80 00 00 00 00
 15.173585 1  167             Rx   d 8 00 FF FF 00 00 02 13 00
 15.193717 1  167             Rx   d 8 00 FF FF 00 00 02 13 00
 15.206794 1  48              Rx   d 8 00 00 00 00 00 00 E0 00
 15.223075 1  167             Rx   d 8 00 FF FF 00 00 02 13 00
 15.234761 1  17C             Rx   d 8 00 00 00 00 00 00 00 00
 15.253563 1  167             Rx   d 8 00 FF FF 00 00 02 13 00
 15.263115 1  167             Rx   d 8 00 FF FF 00 00 02 13 00
 15.273601 1  167             Rx   d 8 00 FF FF 00 00 02 13 00
 15.293527 1  167             Rx   d 8 00 FF FF 00 00 02 13 00
 15.308484 1  433             Rx   d 8 C0 00 00 00 00 90 00 00
 15.325914 1  76              Rx   d 8 00 00 1F F7 FC 00 00 F0
 15.346144 1  76              Rx   d 8 00 00 1F F7 FC 00 00 F0
 15.363068 1  167             Rx   d 8 00 FF FF 00 00 02 13 00
 15.383067 1  167             Rx   d 8 00 FF FF 00 00 02 13 00
 15.396616 1  3CA             Rx   d 8 04 00 00 00 00 00 00 00
 15.416040 1  3B5             Rx   d 8 FF FD FF FD FF FD FF FD
 15.433263 1  156             Rx   d 8 BA 00 00 00 00 00 00 00
 15.453538 1  167             Rx   d 8 00 FF FF 00 00 02 13 00
 15.473713 1  167             Rx   d 8 00 FF FF 00 00 02 13 00
 15.486100 1  76              Rx   d 8 00 00 1F F7 FC 00 00 F0
 15.502672 1  348             Rx   d 8 00 00 00 01 00 00 00 00
 15.516719 1  3CA             Rx   d 8 04 00 00 00 00 00 00 00
 15.533261 1  156             Rx   d 8 BA 00 00 00 00 00 00 00
 15.553826 1  167             Rx   d 8 00 FF FF 00 00 02 13 00
 15.563282 1  204             Rx   d 8 00 00 FF 00 00 00 00 00
 15.583102 1  167             Rx   d 8 00 FF FF 00 00 02 13 00
 15.601590 1  318             Rx   d 8 00 00 00 00 00 00 00 00
 15.623195 1  167             Rx   d 8 00 FF FF 00 00 02 13 00
 15.634700 1  17C             Rx   d 8 00 00 00 00 00 00 00 00
 15.653570 1  167             Rx   d 8 00 FF FF 00 00 02 13 00
 15.673548 1  167             Rx   d 8 00 FF FF 00 00 02 13 00
 15.693553 1  167             Rx   d 8 00 FF FF 00 00 02 13 00
 15.706969 1  48              Rx   d 8 00 00 00 00 00 00 E0 00
 15.726174 1  76              Rx   d 8 00 00 1F F7 FC 00 00 F0
 15.743027 1  167             Rx   d 8 00 FF FF 00 00 02 13 00
 15.763055 1  167             Rx   d 8 00 FF FF 00 00 02 13 00
 15.783218 1  167             Rx   d 8 00 FF FF 00 00 02 13 00
 15.794424 1  204             Rx   d 8 00 00 FF 00 00 00 00 00
 15.813562 1  167             Rx   d 8 00 FF FF 00 00 02 13 00
 15.833275 1  156             Rx   d 8 BA 00 00 00 00 00 00 00
 15.849088 1  38D             Rx   d 8 20 00 00 00 00 00 0C F0
 15.866207 1  76              Rx   d 8 00 00 1F F7 FC 00 00 F0
 15.883081 1  167             Rx   d 8 00 FF FF 00 00 02 13 00
 15.896558 1  3B4             Rx   d 8 34 21 11 FF 1E 1A 00 00
 15.913495 1  167             Rx   d 8 00 FF FF 00 00 02 13 00
 15.933289 1  156             Rx   d 8 BA 00 00 00 00 00 00 00
 15.953722 1  167             Rx   d 8 00 FF FF 00 00 02 13 00
 15.966417 1  76              Rx   d 8 00 00 1F F7 FC 00 00 F0
 15.986422 1  76              Rx   d 8 00 00 1F F7 FC 00 00 F0
 16.001806 1  318             Rx   d 8 00 00 00 00 00 00 00 00
 16.023102 1  167             Rx   d 8 00 FF FF 00 00 02 13 00
 16.045722 1  40A             Rx   d 8 C1 02 32 38 38 33 36 00
 16.063096 1  167             Rx   d 8 00 FF FF 00 00 02 13 00
 16.083054 1  167             Rx   d 8 00 FF FF 00 00 02 13 00
 16.102011 1  18B             Rx   d 8 00 00 00 1E 00 00 00 00
 16.116896 1  3CA             Rx   d 8 04 00 00 00 00 00 00 00
 16.123112 1  167             Rx   d 8 00 FF FF 00 00 02 13 00
 16.126954 1  76              Rx   d 8 00 00 1F F7 FC 00 00 F0
 16.133299 1  156             Rx   d 8 BA 00 00 00 00 00 00 00
 16.153567 1  167             Rx   d 8 00 FF FF 00 00 02 13 00
 16.153704 1  171             Rx   d 8 F0 E0 00 00 00 00 00 00
 16.154152 1  202             Rx   d 8 00 CC 00 00 00 00 00 00
 16.154395 1  204             Rx   d 8 00 00 FF 00 00 00 00 00
 16.157229 1  42F             Rx   d 8 7D 02 05 4E 26 0B 00 00
 16.173753 1  167             Rx   d 8 00 FF FF 00 00 02 13 00
 16.183014 1  167             Rx   d 8 00 FF FF 00 00 02 13 00
 16.193990 1  202             Rx   d 8 00 CC 00 00 00 00 00 00
 16.208097 1  48              Rx   d 8 00 00 00 00 00 00 E0 00
 16.223059 1  167             Rx   d 8 00 FF FF 00 00 02 13 00
 16.223226 1  204             Rx   d 8 00 00 FF 00 00 00 00 00
 16.226291 1  76              Rx   d 8 00 00 1F F7 FC 00 00 F0
 16.233460 1  156             Rx   d 8 BA 00 00 00 00 00 00 00
 16.235640 1  202             Rx   d 8 00 CC 00 00 00 00 00 00
 16.242481 1  40A             Rx   d 8 C1 04 01 8A 07 54 85 41
 16.256942 1  412             Rx   d 8 7D 00 80 80 00 00 00 00
 16.273718 1  167             Rx   d 8 00 FF FF 00 00 02 13 00
 16.283036 1  167             Rx   d 8 00 FF FF 00 00 02 13 00
 16.301880 1  287             Rx   d 8 00 00 00 00 00 00 00 00
 16.323186 1  167             Rx   d 8 00 FF FF 00 00 02 13 00
 16.340514 1  3B8             Rx   d 8 FF FF FF FF 00 00 00 00
 16.353525 1  167             Rx   d 8 00 FF FF 00 00 02 13 00
 16.373626 1  167             Rx   d 8 00 FF FF 00 00 02 13 00
 16.383439 1  167             Rx   d 8 00 FF FF 00 00 02 13 00
 16.383488 1  204             Rx   d 8 00 00 FF 00 00 00 00 00
 16.394211 1  202             Rx   d 8 00 CC 00 00 00 00 00 00
 16.407458 1  48              Rx   d 8 00 00 00 00 00 00 E0 00
 16.426482 1  76              Rx   d 8 00 00 1F F7 FC 00 00 F0
 16.438687 1  3B2             Rx   d 8 14 80 C0 0C E6 00 03 3C
 16.457070 1  412             Rx   d 8 7D 00 80 80 00 00 00 00
 16.466616 1  20A             Rx   d 8 F1 F8 00 00 00 00 4E 20
 16.483356 1  167             Rx   d 8 00 FF FF 00 00 02 13 00
 16.501652 1  287             Rx   d 8 00 00 00 00 00 00 00 00
 16.507271 1  48              Rx   d 8 00 00 00 00 00 00 E0 00
 16.523265 1  204             Rx   d 8 00 00 FF 00 00 00 00 00
 16.535209 1  202             Rx   d 8 00 CC 00 00 00 00 00 00
 16.553609 1  167             Rx   d 8 00 FF FF 00 00 02 13 00
 16.573490 1  167             Rx   d 8 00 FF FF 00 00 02 13 00
 16.593575 1  167             Rx   d 8 00 FF FF 00 00 02 13 00
 16.607267 1  48              Rx   d 8 00 00 00 00 00 00 E0 00
 16.626675 1  76              Rx   d 8 00 00 1F F7 FC 00 00 F0
 16.637636 1  42D             Rx   d 8 00 03 FF 00 00 00 F0 00
 16.657160 1  3CA             Rx   d 8 04 00 00 00 00 00 00 00
 16.673521 1  167             Rx   d 8 00 FF FF 00 00 02 13 00
 16.693857 1  167             Rx   d 8 00 FF FF 00 00 02 13 00
 16.708015 1  412             Rx   d 8 7D 00 80 80 00 00 00 00
 16.726663 1  76              Rx   d 8 00 00 1F F7 FC 00 00 F0
 16.743221 1  204             Rx   d 8 00 00 FF 00 00 00 00 00
 16.757689 1  412             Rx   d 8 7D 00 80 80 00 00 00 00
 16.774205 1  204             Rx   d 8 00 00 FF 00 00 00 00 00
 16.793613 1  167             Rx   d 8 00 FF FF 00 00 02 13 00
 16.813492 1  167             Rx   d 8 00 FF FF 00 00 02 13 00
 16.831831 1  38D             Rx   d 8 20 00 00 00 00 00 0C F0
 16.846646 1  76              Rx   d 8 00 00 1F F7 FC 00 00 F0
 16.863071 1  167             Rx   d 8 00 FF FF 00 00 02 13 00
 16.882978 1  167             Rx   d 8 00 FF FF 00 00 02 13 00
 16.893591 1  167             Rx   d 8 00 FF FF 00 00 02 13 00
 16.913548 1  167             Rx   d 8 00 FF FF 00 00 02 13 00
 16.929711 1  3B2             Rx   d 8 14 80 C0 0C E6 00 03 3C
 16.953631 1  167             Rx   d 8 00 FF FF 00 00 02 13 00
 16.966785 1  76              Rx   d 8 00 00 1F F7 FC 00 00 F0
 16.983069 1  167             Rx   d 8 00 FF FF 00 00 02 13 00
 16.996221 1  59E             Rx   d 8 9E 00 FF FF FF FF FF FF
 17.013937 1  202             Rx   d 8 00 CC 00 00 00 00 00 00
 17.033400 1  156             Rx   d 8 BA 00 00 00 00 00 00 00
 17.053496 1  167             Rx   d 8 00 FF FF 00 00 02 13 00
 17.071704 1  591             Rx   d 8 91 00 FF FF FF FF FF FF
 17.083017 1  167             Rx   d 8 00 FF FF 00 00 02 13 00
 17.101578 1  18B             Rx   d 8 00 00 00 1E 00 00 00 00
 17.123035 1  167             Rx   d 8 00 FF FF 00 00 02 13 00
 17.133492 1  156             Rx   d 8 BA 00 00 00 00 00 00 00
 17.133961 1  166             Rx   d 8 76 00 00 FF FF FF 00 00
 17.133980 1  167             Rx   d 8 00 FF FF 00 00 02 13 00
 17.134888 1  178             Rx   d 8 00 00 02 00 02 54 CA 29
 17.137899 1  3CA             Rx   d 8 04 00 00 00 00 00 00 00
 17.143542 1  167             Rx   d 8 00 FF FF 00 00 02 13 00
 17.143594 1  171             Rx   d 8 F0 E0 00 00 00 00 00 00
 17.153647 1  167             Rx   d 8 00 FF FF 00 00 02 13 00
 17.153987 1  202             Rx   d 8 00 CC 00 00 00 00 00 00
 17.163003 1  167             Rx   d 8 00 FF FF 00 00 02 13 00
 17.173561 1  167             Rx   d 8 00 FF FF 00 00 02 13 00
 17.173709 1  171             Rx   d 8 F0 E0 00 00 00 00 00 00
 17.183054 1  167             Rx   d 8 00 FF FF 00 00 02 13 00
 17.197401 1  3CA             Rx   d 8 04 00 00 00 00 00 00 00
 17.202549 1  430             Rx   d 8 40 00 40 9B 08 00 64 00
 17.213510 1  167             Rx   d 8 00 FF FF 00 00 02 13 00
 17.223189 1  167             Rx   d 8 00 FF FF 00 00 02 13 00
 17.233490 1  156             Rx   d 8 BA 00 00 00 00 00 00 00
 17.243540 1  167             Rx   d 8 00 FF FF 00 00 02 13 00
 17.246941 1  76              Rx   d 8 00 00 1F F7 FC 00 00 F0
 17.262993 1  167             Rx   d 8 00 FF FF 00 00 02 13 00
 17.283032 1  167             Rx   d 8 00 FF FF 00 00 02 13 00
 17.301865 1  287             Rx   d 8 00 00 00 00 00 00 00 00
 17.323165 1  167             Rx   d 8 00 FF FF 00 00 02 13 00
 17.343688 1  167             Rx   d 8 00 FF FF 00 00 02 13 00
 17.353631 1  167             Rx   d 8 00 FF FF 00 00 02 13 00
 17.373603 1  167             Rx   d 8 00 FF FF 00 00 02 13 00
 17.387226 1  76              Rx   d 8 00 00 1F F7 FC 00 00 F0
 17.407867 1  48              Rx   d 8 00 00 00 00 00 00 E0 00
 17.421893 1  3B2             Rx   d 8 14 80 C0 0C E6 00 03 3C
 17.435870 1  421             Rx   d 8 04 00 11 00 00 00 FF 00
 17.457457 1  412             Rx   d 8 7D 00 80 80 00 00 00 00
 17.473545 1  167             Rx   d 8 00 FF FF 00 00 02 13 00
 17.493492 1  167             Rx   d 8 00 FF FF 00 00 02 13 00
 17.502542 1  348             Rx   d 8 00 00 00 01 00 00 00 00
 17.523428 1  167             Rx   d 8 00 FF FF 00 00 02 13 00
 17.536133 1  421             Rx   d 8 04 00 11 00 00 00 FF 00
 17.557968 1  3CA             Rx   d 8 04 00 00 00 00 00 00 00
 17.573524 1  167             Rx   d 8 00 FF FF 00 00 02 13 00
 17.586981 1  76              Rx   d 8 00 00 1F F7 FC 00 00 F0
 17.607653 1  48              Rx   d 8 00 00 00 00 00 00 E0 00
 17.623091 1  167             Rx   d 8 00 FF FF 00 00 02 13 00
 17.643018 1  167             Rx   d 8 00 FF FF 00 00 02 13 00
 17.663052 1  167             Rx   d 8 00 FF FF 00 00 02 13 00
 17.677512 1  3CA             Rx   d 8 04 00 00 00 00 00 00 00
 17.701483 1  287             Rx   d 8 00 00 00 00 00 00 00 00
 17.708436 1  3CA             Rx   d 8 04 00 00 00 00 00 00 00
 17.726986 1  76              Rx   d 8 00 00 1F F7 FC 00 00 F0
 17.747080 1  76              Rx   d 8 00 00 1F F7 FC 00 00 F0
 17.757885 1  412             Rx   d 8 7D 00 80 80 00 00 00 00
 17.783039 1  167             Rx   d 8 00 FF FF 00 00 02 13 00
 17.794437 1  204             Rx   d 8 00 00 FF 00 00 00 00 00
 17.813512 1  167             Rx   d 8 00 FF FF 00 00 02 13 00
 17.836855 1  42D             Rx   d 8 00 03 FF 00 00 00 F0 00
 17.854557 1  204             Rx   d 8 00 00 FF 00 00 00 00 00
 17.873456 1  167             Rx   d 8 00 FF FF 00 00 02 13 00
 17.893772 1  167             Rx   d 8 00 FF FF 00 00 02 13 00
 17.907792 1  48              Rx   d 8 00 00 00 00 00 00 E0 00
 17.923506 1  204             Rx   d 8 00 00 FF 00 00 00 00 00
 17.943022 1  167             Rx   d 8 00 FF FF 00 00 02 13 00
 17.963272 1  167             Rx   d 8 00 FF FF 00 00 02 13 00
 17.973639 1  167             Rx   d 8 00 FF FF 00 00 02 13 00
 17.993526 1  167             Rx   d 8 00 FF FF 00 00 02 13 00
 18.002587 1  430             Rx   d 8 40 00 40 9B 08 00 64 00
 18.023072 1  167             Rx   d 8 00 FF FF 00 00 02 13 00
 18.043238 1  167             Rx   d 8 00 FF FF 00 00 02 13 00
 18.067263 1  76              Rx   d 8 00 00 1F F7 FC 00 00 F0
 18.087080 1  76              Rx   d 8 00 00 1F F7 FC 00 00 F0
 18.103933 1  2FD             Rx   d 8 09 00 00 04 FC 00 00 00
 18.123197 1  167             Rx   d 8 00 FF FF 00 00 02 13 00
 18.133924 1  167             Rx   d 8 00 FF FF 00 00 02 13 00
 18.147586 1  76              Rx   d 8 00 00 1F F7 FC 00 00 F0
 18.167439 1  20A             Rx   d 8 F1 F8 00 00 00 00 4E 20
 18.187199 1  76              Rx   d 8 00 00 1F F7 FC 00 00 F0
 18.201551 1  318             Rx   d 8 00 00 00 00 00 00 00 00
 18.217822 1  3CA             Rx   d 8 04 00 00 00 00 00 00 00
