date Wed Mar 12 02:16:20.248 AM 2025
base hex  timestamps absolute
internal events logged
Begin Triggerblock Wed Mar 12 02:16:20.251 AM 2025
 0.000000 Start of measurement
 0.000000 1  47              Rx   d 8 64 22 BC F4 3B 98 00 00
 0.000048 1  165             Rx   d 8 20 81 00 00 00 00 00 00
 0.000298 1  167             Rx   d 8 00 FF FF 00 00 02 12 00
 0.000559 1  171             Rx   d 8 F0 E0 00 00 00 00 00 00
 0.000781 1  200             Rx   d 8 00 00 80 26 80 26 F0 00
 0.001012 1  202             Rx   d 8 00 CC 00 00 00 00 00 00
 0.001274 1  204             Rx   d 8 00 00 FF 00 00 00 00 00
 0.001517 1  230             Rx   d 8 F0 1C 00 00 00 00 00 00
 0.001731 1  42F             Rx   d 8 7D 02 05 4E 20 FF 00 00
 0.009855 1  167             Rx   d 8 00 FF FF 00 00 02 12 00
 0.010006 1  204             Rx   d 8 00 00 FF 00 00 00 00 00
 0.014447 1  41              Rx   d 8 00 00 00 00 00 00 00 00
 0.019824 1  47              Rx   d 8 64 22 BC F4 3B 98 00 00
 0.019992 1  165             Rx   d 8 20 81 00 00 00 00 00 00
 0.020229 1  167             Rx   d 8 00 FF FF 00 00 02 12 00
 0.020468 1  200             Rx   d 8 00 00 80 26 80 26 F0 00
 0.020719 1  202             Rx   d 8 00 CC 00 00 00 00 00 00
 0.020967 1  204             Rx   d 8 00 00 FF 00 00 00 00 00
 0.021243 1  230             Rx   d 8 F0 1C 00 00 00 00 00 00
 0.030030 1  167             Rx   d 8 00 FF FF 00 00 02 12 00
 0.030063 1  171             Rx   d 8 F0 E0 00 00 00 00 00 00
 0.030302 1  204             Rx   d 8 00 00 FF 00 00 00 00 00
 0.030528 1  42F             Rx   d 8 7D 02 05 4E 20 FF 00 00
 0.030768 1  43D             Rx   d 8 14 00 21 00 00 00 00 00
 0.031021 1  43E             Rx   d 8 00 00 00 00 00 00 00 00
 0.034914 1  41              Rx   d 8 00 00 00 00 00 00 00 00
 0.035103 1  242             Rx   d 8 FF FF 3F FF B6 00 03 01
 0.035237 1  40A             Rx   d 8 C1 00 57 46 30 4A 58 58
 0.035532 1  42C             Rx   d 8 80 02 00 00 00 00 00 00
 0.039915 1  47              Rx   d 8 64 22 BC F4 3B 98 00 00
 0.040104 1  165             Rx   d 8 20 81 00 00 00 00 00 00
 0.040267 1  167             Rx   d 8 00 FF FF 00 00 02 12 00
 0.040513 1  200             Rx   d 8 00 00 80 26 80 26 F0 00
 0.040761 1  202             Rx   d 8 00 CC 00 00 00 00 00 00
 0.041011 1  204             Rx   d 8 00 00 FF 00 00 00 00 00
 0.041251 1  230             Rx   d 8 F0 1C 00 00 00 00 00 00
 0.050018 1  167             Rx   d 8 00 FF FF 00 00 02 12 00
 0.050056 1  204             Rx   d 8 00 00 FF 00 00 00 00 00
 0.053723 1  23A             Rx   d 8 FF FF FF FF F0 00 00 00
 0.053920 1  430             Rx   d 8 00 00 00 00 FE 00 00 00
 0.054145 1  41              Rx   d 8 00 00 00 00 00 00 00 00
 0.054389 1  434             Rx   d 8 00 00 00 00 0F FF 00 10
 0.054646 1  435             Rx   d 8 00 00 00 00 00 00 00 00
 0.059882 1  47              Rx   d 8 64 22 BC F4 3B 98 00 00
 0.060124 1  165             Rx   d 8 20 81 00 00 00 00 00 00
 0.060266 1  167             Rx   d 8 00 FF FF 00 00 02 12 00
 0.060524 1  171             Rx   d 8 F0 E0 00 00 00 00 00 00
 0.060759 1  200             Rx   d 8 00 00 80 26 80 26 F0 00
 0.061009 1  202             Rx   d 8 00 CC 00 00 00 00 00 00
 0.061261 1  204             Rx   d 8 00 00 FF 00 00 00 00 00
 0.061515 1  230             Rx   d 8 F0 1C 00 00 00 00 00 00
 0.061738 1  42F             Rx   d 8 7D 02 05 4E 20 FF 00 00
 0.070133 1  167             Rx   d 8 00 FF FF 00 00 02 12 00
 0.070203 1  204             Rx   d 8 00 00 FF 00 00 00 00 00
 0.073972 1  41              Rx   d 8 00 00 00 00 00 00 00 00
 0.074150 1  242             Rx   d 8 FF FF 3F FF B6 00 03 01
 0.080025 1  47              Rx   d 8 64 22 BC F4 3B 98 00 00
 0.080073 1  156             Rx   d 8 BA 00 00 00 00 00 00 00
 0.080313 1  165             Rx   d 8 20 81 00 00 00 00 00 00
 0.080536 1  166             Rx   d 8 76 00 00 FF FF FF 00 00
 0.080779 1  167             Rx   d 8 00 FF FF 00 00 02 12 00
 0.081020 1  178             Rx   d 8 00 00 02 00 02 54 C6 34
 0.081267 1  179             Rx   d 8 00 00 08 00 22 FF 00 00
 0.081516 1  17C             Rx   d 8 00 00 00 00 00 00 00 00
 0.081753 1  200             Rx   d 8 00 00 80 26 80 26 F0 00
 0.082035 1  202             Rx   d 8 00 CC 00 00 00 00 00 00
 0.082255 1  204             Rx   d 8 00 00 FF 00 00 00 00 00
 0.082508 1  230             Rx   d 8 F0 1C 00 00 00 00 00 00
 0.082744 1  421             Rx   d 8 04 00 11 00 00 00 FF 00
 0.083003 1  424             Rx   d 8 00 00 00 03 00 00 00 00
 0.083240 1  42C             Rx   d 8 80 02 00 00 00 00 00 00
 0.083496 1  42D             Rx   d 8 00 03 FF 00 00 00 F0 00
 0.083747 1  43D             Rx   d 8 14 00 21 00 00 00 00 00
 0.083990 1  43E             Rx   d 8 00 00 00 00 00 00 00 00
 0.090092 1  167             Rx   d 8 00 FF FF 00 00 02 12 00
 0.090144 1  171             Rx   d 8 F0 E0 00 00 00 00 00 00
 0.090371 1  204             Rx   d 8 00 00 FF 00 00 00 00 00
 0.090534 1  42F             Rx   d 8 7D 02 05 4E 20 FF 00 00
 0.093692 1  41              Rx   d 8 00 00 00 00 00 00 00 00
 0.100350 1  47              Rx   d 8 64 22 BC F4 3B 98 00 00
 0.100405 1  165             Rx   d 8 20 81 00 00 00 00 00 00
 0.100416 1  167             Rx   d 8 00 FF FF 00 00 02 12 00
 0.100846 1  200             Rx   d 8 00 00 80 26 80 26 F0 00
 0.100856 1  202             Rx   d 8 00 CC 00 00 00 00 00 00
 0.101097 1  204             Rx   d 8 00 00 FF 00 00 00 00 00
 0.101329 1  230             Rx   d 8 F0 1C 00 00 00 00 00 00
 0.102876 1  84              Rx   d 8 00 00 00 01 00 12 0C 00
 0.110215 1  167             Rx   d 8 00 FF FF 00 00 02 12 00
 0.110268 1  204             Rx   d 8 00 00 FF 00 00 00 00 00
 0.113284 1  41              Rx   d 8 00 00 00 00 00 00 00 00
 0.113490 1  242             Rx   d 8 FF FF 3F FF B6 00 03 01
 0.119864 1  47              Rx   d 8 64 22 BC F4 3B 98 00 00
 0.120066 1  165             Rx   d 8 20 81 00 00 00 00 00 00
 0.120252 1  167             Rx   d 8 00 FF FF 00 00 02 12 00
 0.120494 1  171             Rx   d 8 F0 E0 00 00 00 00 00 00
 0.120735 1  200             Rx   d 8 00 00 80 26 80 26 F0 00
 0.120974 1  202             Rx   d 8 00 CC 00 00 00 00 00 00
 0.121236 1  204             Rx   d 8 00 00 FF 00 00 00 00 00
 0.121484 1  230             Rx   d 8 F0 1C 00 00 00 00 00 00
 0.121720 1  42F             Rx   d 8 7D 02 05 4E 20 FF 00 00
 0.129848 1  167             Rx   d 8 00 FF FF 00 00 02 12 00
 0.130026 1  204             Rx   d 8 00 00 FF 00 00 00 00 00
 0.130268 1  43D             Rx   d 8 14 00 21 00 00 00 00 00
 0.130527 1  43E             Rx   d 8 00 00 00 00 00 00 00 00
 0.132897 1  41              Rx   d 8 00 00 00 00 00 00 00 00
 0.133115 1  3B6             Rx   d 8 0A 00 00 00 00 00 00 00
 0.133350 1  3B7             Rx   d 8 00 00 00 00 00 00 00 00
 0.133600 1  3B8             Rx   d 8 FF FF FF FF 00 00 00 00
 0.133842 1  42C             Rx   d 8 80 02 00 00 00 00 00 00
 0.139886 1  47              Rx   d 8 64 22 BC F4 3B 98 00 00
 0.140052 1  165             Rx   d 8 20 81 00 00 00 00 00 00
 0.140251 1  167             Rx   d 8 00 FF FF 00 00 02 12 00
 0.140496 1  200             Rx   d 8 00 00 80 26 80 26 F0 00
 0.140734 1  202             Rx   d 8 00 CC 00 00 00 00 00 00
 0.140997 1  204             Rx   d 8 00 00 FF 00 00 00 00 00
 0.141235 1  230             Rx   d 8 F0 1C 00 00 00 00 00 00
 0.149804 1  167             Rx   d 8 00 FF FF 00 00 02 12 00
 0.150003 1  171             Rx   d 8 F0 E0 00 00 00 00 00 00
 0.150244 1  204             Rx   d 8 00 00 FF 00 00 00 00 00
 0.150486 1  42F             Rx   d 8 7D 02 05 4E 20 FF 00 00
 0.152441 1  41              Rx   d 8 00 00 00 00 00 00 00 00
 0.152669 1  242             Rx   d 8 FF FF 3F FF B6 00 03 01
 0.154007 1  23A             Rx   d 8 FF FF FF FF F0 00 00 00
 0.154271 1  430             Rx   d 8 00 00 00 00 FE 00 00 00
 0.154521 1  434             Rx   d 8 00 00 00 00 0F FF 00 10
 0.154764 1  435             Rx   d 8 00 00 00 00 00 00 00 00
 0.159824 1  47              Rx   d 8 64 22 BC F4 3B 98 00 00
 0.160002 1  165             Rx   d 8 20 81 00 00 00 00 00 00
 0.160239 1  167             Rx   d 8 00 FF FF 00 00 02 12 00
 0.160480 1  200             Rx   d 8 00 00 80 26 80 26 F0 00
 0.160726 1  202             Rx   d 8 00 CC 00 00 00 00 00 00
 0.160978 1  204             Rx   d 8 00 00 FF 00 00 00 00 00
 0.161222 1  230             Rx   d 8 F0 1C 00 00 00 00 00 00
 0.169869 1  167             Rx   d 8 00 FF FF 00 00 02 12 00
 0.170016 1  204             Rx   d 8 00 00 FF 00 00 00 00 00
 0.171733 1  41              Rx   d 8 00 00 00 00 00 00 00 00
 0.179956 1  47              Rx   d 8 64 22 BC F4 3B 98 00 00
 0.180244 1  156             Rx   d 8 BA 00 00 00 00 00 00 00
 0.180261 1  165             Rx   d 8 20 81 00 00 00 00 00 00
 0.180530 1  166             Rx   d 8 76 00 00 FF FF FF 00 00
 0.180777 1  167             Rx   d 8 00 FF FF 00 00 02 12 00
 0.181010 1  171             Rx   d 8 F0 E0 00 00 00 00 00 00
 0.181254 1  178             Rx   d 8 00 00 02 00 02 54 C6 35
 0.181488 1  179             Rx   d 8 00 00 08 00 22 FF 00 00
 0.181707 1  17C             Rx   d 8 00 00 00 00 00 00 00 00
 0.181966 1  200             Rx   d 8 00 00 80 26 80 26 F0 00
 0.182199 1  202             Rx   d 8 00 CC 00 00 00 00 00 00
 0.182438 1  204             Rx   d 8 00 00 FF 00 00 00 00 00
 0.182684 1  230             Rx   d 8 F0 1C 00 00 00 00 00 00
 0.182928 1  421             Rx   d 8 04 00 11 00 00 00 FF 00
 0.183176 1  424             Rx   d 8 00 00 00 03 00 00 00 00
 0.183429 1  42C             Rx   d 8 80 02 00 00 00 00 00 00
 0.183680 1  42D             Rx   d 8 00 03 FF 00 00 00 F0 00
 0.183911 1  42F             Rx   d 8 7D 02 05 4E 20 FF 00 00
 0.184159 1  43D             Rx   d 8 14 00 21 00 00 00 00 00
 0.184410 1  43E             Rx   d 8 00 00 00 00 00 00 00 00
 0.189797 1  167             Rx   d 8 00 FF FF 00 00 02 12 00
 0.190023 1  204             Rx   d 8 00 00 FF 00 00 00 00 00
 0.192055 1  41              Rx   d 8 00 00 00 00 00 00 00 00
 0.192272 1  242             Rx   d 8 FF FF 3F FF B6 00 03 01
 0.192517 1  3B5             Rx   d 8 FF FD FF FD FF FD FF FD
 0.199879 1  47              Rx   d 8 64 22 BC F4 3B 98 00 00
 0.200038 1  165             Rx   d 8 20 81 00 00 00 00 00 00
 0.200253 1  167             Rx   d 8 00 FF FF 00 00 02 12 00
 0.200516 1  200             Rx   d 8 00 00 80 26 80 26 F0 00
 0.200883 1  202             Rx   d 8 00 CC 00 00 00 00 00 00
 0.201347 1  204             Rx   d 8 00 00 FF 00 00 00 00 00
 0.201367 1  230             Rx   d 8 F0 1C 00 00 00 00 00 00
 0.210025 1  167             Rx   d 8 00 FF FF 00 00 02 12 00
 0.210067 1  171             Rx   d 8 F0 E0 00 00 00 00 00 00
 0.210661 1  204             Rx   d 8 00 00 FF 00 00 00 00 00
 0.210721 1  42F             Rx   d 8 7D 02 05 4E 20 FF 00 00
 0.211358 1  41              Rx   d 8 00 00 00 00 00 00 00 00
 0.220375 1  47              Rx   d 8 64 22 BC F4 3B 98 00 00
 0.220437 1  165             Rx   d 8 20 81 00 00 00 00 00 00
 0.220446 1  167             Rx   d 8 00 FF FF 00 00 02 12 00
 0.220795 1  200             Rx   d 8 00 00 80 26 80 26 F0 00
 0.220815 1  202             Rx   d 8 00 CC 00 00 00 00 00 00
 0.221046 1  204             Rx   d 8 00 00 FF 00 00 00 00 00
 0.221269 1  230             Rx   d 8 F0 1C 00 00 00 00 00 00
 0.221539 1  331             Rx   d 8 C0 00 48 61 02 00 00 00
 0.230071 1  167             Rx   d 8 00 FF FF 00 00 02 12 00
 0.230106 1  204             Rx   d 8 00 00 FF 00 00 00 00 00
 0.230308 1  43D             Rx   d 8 14 00 21 00 00 00 00 00
 0.230597 1  43E             Rx   d 8 00 00 00 00 00 00 00 00
 0.231656 1  41              Rx   d 8 00 00 00 00 00 00 00 00
 0.231698 1  242             Rx   d 8 FF FF 3F FF B6 00 03 01
 0.232112 1  3B3             Rx   d 8 44 8C C0 0C E6 00 03 3E
 0.232130 1  40A             Rx   d 8 C1 01 47 41 48 4A 48 45
 0.232455 1  42C             Rx   d 8 80 02 00 00 00 00 00 00
 0.239920 1  47              Rx   d 8 64 22 BC F4 3B 98 00 00
 0.240131 1  165             Rx   d 8 20 81 00 00 00 00 00 00
 0.240247 1  167             Rx   d 8 00 FF FF 00 00 02 12 00
 0.240500 1  171             Rx   d 8 F0 E0 00 00 00 00 00 00
 0.240738 1  200             Rx   d 8 00 00 80 26 80 26 F0 00
 0.240983 1  202             Rx   d 8 00 CC 00 00 00 00 00 00
 0.241240 1  204             Rx   d 8 00 00 FF 00 00 00 00 00
 0.241528 1  230             Rx   d 8 F0 1C 00 00 00 00 00 00
 0.241753 1  42F             Rx   d 8 7D 02 05 4E 20 FF 00 00
 0.250022 1  167             Rx   d 8 00 FF FF 00 00 02 12 00
 0.250057 1  204             Rx   d 8 00 00 FF 00 00 00 00 00
 0.250355 1  41              Rx   d 8 00 00 00 00 00 00 00 00
 0.253782 1  23A             Rx   d 8 FF FF FF FF F0 00 00 00
 0.253951 1  430             Rx   d 8 00 00 00 00 FE 00 00 00
 0.254176 1  434             Rx   d 8 00 00 00 00 0F FF 00 10
 0.254415 1  435             Rx   d 8 00 00 00 00 00 00 00 00
 0.260086 1  47              Rx   d 8 64 22 BC F4 3B 98 00 00
 0.260128 1  165             Rx   d 8 20 81 00 00 00 00 00 00
 0.260510 1  167             Rx   d 8 00 FF FF 00 00 02 12 00
 0.260529 1  200             Rx   d 8 00 00 80 26 80 26 F0 00
 0.260810 1  202             Rx   d 8 00 CC 00 00 00 00 00 00
 0.261049 1  204             Rx   d 8 00 00 FF 00 00 00 00 00
 0.261328 1  230             Rx   d 8 F0 1C 00 00 00 00 00 00
 0.270060 1  167             Rx   d 8 00 FF FF 00 00 02 12 00
 0.270115 1  171             Rx   d 8 F0 E0 00 00 00 00 00 00
 0.270583 1  204             Rx   d 8 00 00 FF 00 00 00 00 00
 0.270613 1  41              Rx   d 8 00 00 00 00 00 00 00 00
 0.270914 1  242             Rx   d 8 FF FF 3F FF B6 00 03 01
 0.271209 1  42F             Rx   d 8 7D 02 05 4E 20 FF 00 00
 0.279504 1  42C             Rx   d 8 80 02 00 00 00 00 00 00
 0.279752 1  47              Rx   d 8 64 22 BC F4 3B 98 00 00
 0.280010 1  156             Rx   d 8 BA 00 00 00 00 00 00 00
 0.280243 1  165             Rx   d 8 20 81 00 00 00 00 00 00
 0.280486 1  166             Rx   d 8 76 00 00 FF FF FF 00 00
 0.280736 1  167             Rx   d 8 00 FF FF 00 00 02 12 00
 0.280974 1  178             Rx   d 8 00 00 02 00 02 54 C6 35
 0.281237 1  179             Rx   d 8 00 00 08 00 22 FF 00 00
 0.281500 1  17C             Rx   d 8 00 00 00 00 00 00 00 00
 0.281728 1  200             Rx   d 8 00 00 80 26 80 26 F0 00
 0.281976 1  202             Rx   d 8 00 CC 00 00 00 00 00 00
 0.282233 1  204             Rx   d 8 00 00 FF 00 00 00 00 00
 0.282458 1  230             Rx   d 8 F0 1C 00 00 00 00 00 00
 0.282703 1  421             Rx   d 8 04 00 11 00 00 00 FF 00
 0.282962 1  424             Rx   d 8 00 00 00 03 00 00 00 00
 0.283204 1  42D             Rx   d 8 00 03 FF 00 00 00 F0 00
 0.283472 1  43D             Rx   d 8 14 00 21 00 00 00 00 00
 0.283739 1  43E             Rx   d 8 00 00 00 00 00 00 00 00
 0.289860 1  167             Rx   d 8 00 FF FF 00 00 02 12 00
 0.290025 1  204             Rx   d 8 00 00 FF 00 00 00 00 00
 0.290287 1  41              Rx   d 8 00 00 00 00 00 00 00 00
 0.300025 1  47              Rx   d 8 64 22 BC F4 3B 98 00 00
 0.300065 1  165             Rx   d 8 20 81 00 00 00 00 00 00
 0.300584 1  167             Rx   d 8 00 FF FF 00 00 02 12 00
 0.300618 1  171             Rx   d 8 F0 E0 00 00 00 00 00 00
 0.300851 1  200             Rx   d 8 00 00 80 26 80 26 F0 00
 0.301070 1  202             Rx   d 8 00 CC 00 00 00 00 00 00
 0.301332 1  204             Rx   d 8 00 00 FF 00 00 00 00 00
 0.301581 1  230             Rx   d 8 F0 1C 00 00 00 00 00 00
 0.301778 1  42F             Rx   d 8 7D 02 05 4E 20 FF 00 00
 0.310114 1  41              Rx   d 8 00 00 00 00 00 00 00 00
 0.310174 1  167             Rx   d 8 00 FF FF 00 00 02 12 00
 0.310608 1  204             Rx   d 8 00 00 FF 00 00 00 00 00
 0.310679 1  242             Rx   d 8 FF FF 3F FF B6 00 03 01
 0.319850 1  47              Rx   d 8 64 22 BC F4 3B 98 00 00
 0.320009 1  165             Rx   d 8 20 81 00 00 00 00 00 00
 0.320277 1  167             Rx   d 8 00 FF FF 00 00 02 12 00
 0.320516 1  200             Rx   d 8 00 00 80 26 80 26 F0 00
 0.320741 1  202             Rx   d 8 00 CC 00 00 00 00 00 00
 0.320984 1  204             Rx   d 8 00 00 FF 00 00 00 00 00
 0.321239 1  230             Rx   d 8 F0 1C 00 00 00 00 00 00
 0.329579 1  41              Rx   d 8 00 00 00 00 00 00 00 00
 0.329752 1  42C             Rx   d 8 80 02 00 00 00 00 00 00
 0.329907 1  167             Rx   d 8 00 FF FF 00 00 02 12 00
 0.330141 1  171             Rx   d 8 F0 E0 00 00 00 00 00 00
 0.330392 1  204             Rx   d 8 00 00 FF 00 00 00 00 00
 0.330670 1  42F             Rx   d 8 7D 02 05 4E 20 FF 00 00
 0.330959 1  43D             Rx   d 8 14 00 21 00 00 00 00 00
 0.331163 1  43E             Rx   d 8 00 00 00 00 00 00 00 00
 0.340017 1  47              Rx   d 8 64 22 BC F4 3B 98 00 00
 0.340062 1  165             Rx   d 8 20 81 00 00 00 00 00 00
 0.340319 1  167             Rx   d 8 00 FF FF 00 00 02 12 00
 0.340618 1  200             Rx   d 8 00 00 80 26 80 26 F0 00
 0.341154 1  202             Rx   d 8 00 CC 00 00 00 00 00 00
 0.341234 1  204             Rx   d 8 00 00 FF 00 00 00 00 00
 0.341562 1  230             Rx   d 8 F0 1C 00 00 00 00 00 00
 0.349445 1  41              Rx   d 8 00 00 00 00 00 00 00 00
 0.349497 1  242             Rx   d 8 FF FF 3F FF B6 00 03 01
 0.349867 1  167             Rx   d 8 00 FF FF 00 00 02 12 00
 0.350040 1  204             Rx   d 8 00 00 FF 00 00 00 00 00
 0.353961 1  23A             Rx   d 8 FF FF FF FF F0 00 00 00
 0.354223 1  430             Rx   d 8 00 00 00 00 FE 00 00 00
 0.354469 1  434             Rx   d 8 00 00 00 00 0F FF 00 10
 0.354715 1  435             Rx   d 8 00 00 00 00 00 00 00 00
 0.361018 1  202             Rx   d 8 00 CC 00 00 00 00 00 00
 0.368330 1  41              Rx   d 8 00 00 00 00 00 00 00 00
 0.388684 1  41              Rx   d 8 00 00 00 00 00 00 00 00
 0.399864 1  47              Rx   d 8 64 22 BC F4 3B 98 00 00
 0.400070 1  165             Rx   d 8 20 81 00 00 00 00 00 00
 0.400276 1  167             Rx   d 8 00 FF FF 00 00 02 12 00
 0.401264 1  230             Rx   d 8 F0 1C 00 00 00 00 00 00
 0.410084 1  167             Rx   d 8 00 FF FF 00 00 02 12 00
 0.410124 1  204             Rx   d 8 00 00 FF 00 00 00 00 00
 0.420055 1  47              Rx   d 8 64 22 BC F4 3B 98 00 00
 0.420103 1  165             Rx   d 8 20 81 00 00 00 00 00 00
 0.420331 1  167             Rx   d 8 00 FF FF 00 00 02 12 00
 0.422156 1  42F             Rx   d 8 7D 02 05 4E 20 FF 00 00
 0.428079 1  41              Rx   d 8 00 00 00 00 00 00 00 00
 0.439811 1  47              Rx   d 8 64 22 BC F4 3B 98 00 00
 0.446954 1  41              Rx   d 8 00 00 00 00 00 00 00 00
 0.454387 1  434             Rx   d 8 00 00 00 00 0F FF 00 10
 0.476080 1  42C             Rx   d 8 80 02 00 00 00 00 00 00
 0.486501 1  41              Rx   d 8 00 00 00 00 00 00 00 00
 0.500047 1  47              Rx   d 8 64 22 BC F4 3B 98 00 00
 0.510049 1  167             Rx   d 8 00 FF FF 00 00 02 12 00
 0.529880 1  167             Rx   d 8 00 FF FF 00 00 02 12 00
 0.540065 1  47              Rx   d 8 64 22 BC F4 3B 98 00 00
 0.553820 1  23A             Rx   d 8 FF FF FF FF F0 00 00 00
 0.569862 1  167             Rx   d 8 00 FF FF 00 00 02 12 00
 0.581372 1  178             Rx   d 8 00 00 02 00 02 54 C6 36
 0.599828 1  47              Rx   d 8 64 22 BC F4 3B 98 00 00
 0.619905 1  47              Rx   d 8 64 22 BC F4 3B 98 00 00
 0.626579 1  3EB             Rx   d 8 00 04 04 00 00 00 00 00
 0.650079 1  167             Rx   d 8 00 FF FF 00 00 02 12 00
 0.654480 1  23A             Rx   d 8 FF FF FF FF F0 00 00 00
 0.669783 1  167             Rx   d 8 00 FF FF 00 00 02 12 00
 0.682456 1  230             Rx   d 8 F0 1C 00 00 00 00 00 00
 0.690087 1  167             Rx   d 8 00 FF FF 00 00 02 12 00
 0.700333 1  47              Rx   d 8 64 22 BC F4 3B 98 00 00
 0.700377 1  165             Rx   d 8 20 81 00 00 00 00 00 00
 0.700383 1  167             Rx   d 8 00 FF FF 00 00 02 12 00
 0.700617 1  200             Rx   d 8 00 00 80 26 80 26 F0 00
 0.700806 1  202             Rx   d 8 00 CC 00 00 00 00 00 00
 0.701058 1  204             Rx   d 8 00 00 FF 00 00 00 00 00
 0.709877 1  167             Rx   d 8 00 FF FF 00 00 02 12 00
 0.710035 1  204             Rx   d 8 00 00 FF 00 00 00 00 00
 0.720006 1  47              Rx   d 8 64 22 BC F4 3B 98 00 00
 0.720037 1  165             Rx   d 8 20 81 00 00 00 00 00 00
 0.720331 1  167             Rx   d 8 00 FF FF 00 00 02 12 00
 0.720528 1  171             Rx   d 8 F0 E0 00 00 00 00 00 00
 0.720751 1  200             Rx   d 8 00 00 80 26 80 26 F0 00
 0.721030 1  202             Rx   d 8 00 CC 00 00 00 00 00 00
 0.721271 1  204             Rx   d 8 00 00 FF 00 00 00 00 00
 0.721513 1  230             Rx   d 8 F0 1C 00 00 00 00 00 00
 0.721737 1  42F             Rx   d 8 7D 02 05 4E 20 FF 00 00
 0.722615 1  41              Rx   d 8 00 00 00 00 00 00 00 00
 0.722789 1  3B3             Rx   d 8 44 8C C0 0C E6 00 03 3E
 0.723028 1  3C3             Rx   d 8 5C 80 10 C1 01 00 01 00
 0.730116 1  167             Rx   d 8 00 FF FF 00 00 02 12 00
 0.740150 1  47              Rx   d 8 64 22 BC F4 3B 98 00 00
 0.740210 1  165             Rx   d 8 20 81 00 00 00 00 00 00
 0.741416 1  230             Rx   d 8 F0 1C 00 00 00 00 00 00
 0.749904 1  167             Rx   d 8 00 FF FF 00 00 02 12 00
 0.750129 1  171             Rx   d 8 F0 E0 00 00 00 00 00 00
 0.750284 1  204             Rx   d 8 00 00 FF 00 00 00 00 00
 0.753987 1  23A             Rx   d 8 FF FF FF FF F0 00 00 00
 0.759867 1  47              Rx   d 8 64 22 BC F4 3B 98 00 00
 0.760066 1  165             Rx   d 8 20 81 00 00 00 00 00 00
 0.760500 1  200             Rx   d 8 00 00 80 26 80 26 F0 00
 0.770097 1  167             Rx   d 8 00 FF FF 00 00 02 12 00
 0.770143 1  204             Rx   d 8 00 00 FF 00 00 00 00 00
 0.780154 1  47              Rx   d 8 64 22 BC F4 3B 98 00 00
 0.799884 1  47              Rx   d 8 64 22 BC F4 3B 98 00 00
 0.800056 1  165             Rx   d 8 20 81 00 00 00 00 00 00
 0.819847 1  47              Rx   d 8 64 22 BC F4 3B 98 00 00
 0.829849 1  167             Rx   d 8 00 FF FF 00 00 02 12 00
 0.841728 1  230             Rx   d 8 F0 1C 00 00 00 00 00 00
 0.860242 1  167             Rx   d 8 00 FF FF 00 00 02 12 00
 0.879476 1  41              Rx   d 8 00 00 00 00 00 00 00 00
 0.899487 1  41              Rx   d 8 00 00 00 00 00 00 00 00
 0.919355 1  41              Rx   d 8 00 00 00 00 00 00 00 00
 0.929869 1  167             Rx   d 8 00 FF FF 00 00 02 12 00
 0.949879 1  167             Rx   d 8 00 FF FF 00 00 02 12 00
 0.961004 1  202             Rx   d 8 00 CC 00 00 00 00 00 00
 0.979787 1  47              Rx   d 8 64 22 BC F4 3B 98 00 00
 0.990006 1  167             Rx   d 8 00 FF FF 00 00 02 12 00
 0.999838 1  47              Rx   d 8 64 22 BC F4 3B 98 00 00
 1.017723 1  41              Rx   d 8 00 00 00 00 00 00 00 00
 1.036801 1  41              Rx   d 8 00 00 00 00 00 00 00 00
 1.054155 1  23A             Rx   d 8 FF FF FF FF F0 00 00 00
 1.076232 1  41              Rx   d 8 00 00 00 00 00 00 00 00
 1.096380 1  41              Rx   d 8 00 00 00 00 00 00 00 00
 1.116065 1  41              Rx   d 8 00 00 00 00 00 00 00 00
 1.129828 1  167             Rx   d 8 00 FF FF 00 00 02 12 00
 1.150056 1  167             Rx   d 8 00 FF FF 00 00 02 12 00
 1.169856 1  167             Rx   d 8 00 FF FF 00 00 02 12 00
 1.189934 1  167             Rx   d 8 00 FF FF 00 00 02 12 00
 1.209855 1  167             Rx   d 8 00 FF FF 00 00 02 12 00
 1.223220 1  331             Rx   d 8 C0 00 48 62 02 00 00 00
 1.240481 1  200             Rx   d 8 00 00 80 26 80 26 F0 00
 1.259904 1  47              Rx   d 8 64 22 BC F4 3B 98 00 00
 1.279831 1  47              Rx   d 8 64 22 BC F4 3B 98 00 00
 1.300337 1  47              Rx   d 8 64 22 BC F4 3B 98 00 00
 1.319894 1  47              Rx   d 8 64 22 BC F4 3B 98 00 00
 1.330142 1  167             Rx   d 8 00 FF FF 00 00 02 12 00
 1.330185 1  204             Rx   d 8 00 00 FF 00 00 00 00 00
 1.330381 1  43D             Rx   d 8 14 00 21 00 00 00 00 00
 1.330523 1  43E             Rx   d 8 00 00 00 00 00 00 00 00
 1.332186 1  41              Rx   d 8 00 00 00 00 00 00 00 00
 1.332448 1  242             Rx   d 8 FF FF 3F FF B6 00 03 01
 1.340344 1  47              Rx   d 8 64 22 BC F4 3B 98 00 00
 1.349870 1  167             Rx   d 8 00 FF FF 00 00 02 12 00
 1.370077 1  167             Rx   d 8 00 FF FF 00 00 02 12 00
 1.379979 1  47              Rx   d 8 64 22 BC F4 3B 98 00 00
 1.400724 1  202             Rx   d 8 00 CC 00 00 00 00 00 00
 1.419860 1  47              Rx   d 8 64 22 BC F4 3B 98 00 00
 1.439859 1  47              Rx   d 8 64 22 BC F4 3B 98 00 00
 1.449890 1  167             Rx   d 8 00 FF FF 00 00 02 12 00
 1.469271 1  41              Rx   d 8 00 00 00 00 00 00 00 00
 1.489873 1  41              Rx   d 8 00 00 00 00 00 00 00 00
 1.509129 1  41              Rx   d 8 00 00 00 00 00 00 00 00
 1.528996 1  41              Rx   d 8 00 00 00 00 00 00 00 00
 1.547933 1  41              Rx   d 8 00 00 00 00 00 00 00 00
 1.568646 1  41              Rx   d 8 00 00 00 00 00 00 00 00
 1.580733 1  167             Rx   d 8 00 FF FF 00 00 02 12 00
 1.599976 1  47              Rx   d 8 64 22 BC F4 3B 98 00 00
 1.619834 1  47              Rx   d 8 64 22 BC F4 3B 98 00 00
 1.640009 1  47              Rx   d 8 64 22 BC F4 3B 98 00 00
 1.654378 1  23A             Rx   d 8 FF FF FF FF F0 00 00 00
 1.669922 1  167             Rx   d 8 00 FF FF 00 00 02 12 00
 1.686189 1  242             Rx   d 8 FF FF 3F FF B6 00 03 01
 1.705947 1  41              Rx   d 8 00 00 00 00 00 00 00 00
 1.719871 1  47              Rx   d 8 64 22 BC F4 3B 98 00 00
 1.739988 1  47              Rx   d 8 64 22 BC F4 3B 98 00 00
 1.750019 1  167             Rx   d 8 00 FF FF 00 00 02 12 00
 1.759849 1  47              Rx   d 8 64 22 BC F4 3B 98 00 00
 1.779976 1  47              Rx   d 8 64 22 BC F4 3B 98 00 00
 1.799854 1  47              Rx   d 8 64 22 BC F4 3B 98 00 00
 1.819895 1  47              Rx   d 8 64 22 BC F4 3B 98 00 00
 1.830301 1  204             Rx   d 8 00 00 FF 00 00 00 00 00
 1.849856 1  167             Rx   d 8 00 FF FF 00 00 02 12 00
 1.869990 1  167             Rx   d 8 00 FF FF 00 00 02 12 00
 1.883501 1  424             Rx   d 8 00 00 00 03 00 00 00 00
 1.899981 1  47              Rx   d 8 64 22 BC F4 3B 98 00 00
 1.909860 1  167             Rx   d 8 00 FF FF 00 00 02 12 00
 1.930021 1  167             Rx   d 8 00 FF FF 00 00 02 12 00
 1.949886 1  167             Rx   d 8 00 FF FF 00 00 02 12 00
 1.961486 1  230             Rx   d 8 F0 1C 00 00 00 00 00 00
 1.979964 1  47              Rx   d 8 64 22 BC F4 3B 98 00 00
 1.999841 1  47              Rx   d 8 64 22 BC F4 3B 98 00 00
 2.019735 1  41              Rx   d 8 00 00 00 00 00 00 00 00
 2.040048 1  41              Rx   d 8 00 00 00 00 00 00 00 00
 2.054831 1  23A             Rx   d 8 FF FF FF FF F0 00 00 00
 2.069857 1  167             Rx   d 8 00 FF FF 00 00 02 12 00
 2.089998 1  167             Rx   d 8 00 FF FF 00 00 02 12 00
 2.109871 1  167             Rx   d 8 00 FF FF 00 00 02 12 00
 2.130009 1  167             Rx   d 8 00 FF FF 00 00 02 12 00
 2.140782 1  202             Rx   d 8 00 CC 00 00 00 00 00 00
 2.154501 1  23A             Rx   d 8 FF FF FF FF F0 00 00 00
 2.176950 1  41              Rx   d 8 00 00 00 00 00 00 00 00
 2.189861 1  167             Rx   d 8 00 FF FF 00 00 02 12 00
 2.209861 1  167             Rx   d 8 00 FF FF 00 00 02 12 00
 2.225973 1  331             Rx   d 8 C0 00 48 63 02 00 00 00
 2.245700 1  42C             Rx   d 8 80 02 00 00 00 00 00 00
 2.259848 1  47              Rx   d 8 64 22 BC F4 3B 98 00 00
 2.279958 1  47              Rx   d 8 64 22 BC F4 3B 98 00 00
 2.295718 1  41              Rx   d 8 00 00 00 00 00 00 00 00
 2.315186 1  41              Rx   d 8 00 00 00 00 00 00 00 00
 2.334337 1  41              Rx   d 8 00 00 00 00 00 00 00 00
 2.349894 1  167             Rx   d 8 00 FF FF 00 00 02 12 00
 2.369856 1  167             Rx   d 8 00 FF FF 00 00 02 12 00
 2.389998 1  167             Rx   d 8 00 FF FF 00 00 02 12 00
 2.409878 1  167             Rx   d 8 00 FF FF 00 00 02 12 00
 2.421261 1  230             Rx   d 8 F0 1C 00 00 00 00 00 00
 2.439799 1  47              Rx   d 8 64 22 BC F4 3B 98 00 00
 2.459999 1  47              Rx   d 8 64 22 BC F4 3B 98 00 00
 2.479809 1  47              Rx   d 8 64 22 BC F4 3B 98 00 00
 2.499994 1  47              Rx   d 8 64 22 BC F4 3B 98 00 00
 2.519860 1  47              Rx   d 8 64 22 BC F4 3B 98 00 00
 2.530038 1  167             Rx   d 8 00 FF FF 00 00 02 12 00
 2.549878 1  167             Rx   d 8 00 FF FF 00 00 02 12 00
 2.560287 1  167             Rx   d 8 00 FF FF 00 00 02 12 00
 2.579820 1  47              Rx   d 8 64 22 BC F4 3B 98 00 00
 2.599961 1  47              Rx   d 8 64 22 BC F4 3B 98 00 00
 2.619864 1  47              Rx   d 8 64 22 BC F4 3B 98 00 00
 2.638984 1  3B4             Rx   d 8 34 21 11 FF 1E 1A 00 00
 2.654688 1  23A             Rx   d 8 FF FF FF FF F0 00 00 00
 2.669103 1  41              Rx   d 8 00 00 00 00 00 00 00 00
 2.689139 1  41              Rx   d 8 00 00 00 00 00 00 00 00
 2.708275 1  41              Rx   d 8 00 00 00 00 00 00 00 00
 2.720984 1  204             Rx   d 8 00 00 FF 00 00 00 00 00
 2.739769 1  47              Rx   d 8 64 22 BC F4 3B 98 00 00
 2.759878 1  47              Rx   d 8 64 22 BC F4 3B 98 00 00
 2.769756 1  167             Rx   d 8 00 FF FF 00 00 02 12 00
 2.787548 1  41              Rx   d 8 00 00 00 00 00 00 00 00
 2.806174 1  41              Rx   d 8 00 00 00 00 00 00 00 00
 2.826403 1  41              Rx   d 8 00 00 00 00 00 00 00 00
 2.843915 1  59E             Rx   d 8 9E 00 FF FF FF FF FF FF
 2.859822 1  47              Rx   d 8 64 22 BC F4 3B 98 00 00
 2.879831 1  47              Rx   d 8 64 22 BC F4 3B 98 00 00
 2.900025 1  47              Rx   d 8 64 22 BC F4 3B 98 00 00
 2.909987 1  167             Rx   d 8 00 FF FF 00 00 02 12 00
 2.929861 1  167             Rx   d 8 00 FF FF 00 00 02 12 00
 2.944443 1  41              Rx   d 8 00 00 00 00 00 00 00 00
 2.959790 1  47              Rx   d 8 64 22 BC F4 3B 98 00 00
 2.979986 1  47              Rx   d 8 64 22 BC F4 3B 98 00 00
 2.989983 1  167             Rx   d 8 00 FF FF 00 00 02 12 00
 3.009881 1  167             Rx   d 8 00 FF FF 00 00 02 12 00
 3.019890 1  47              Rx   d 8 64 22 BC F4 3B 98 00 00
 3.039811 1  47              Rx   d 8 64 22 BC F4 3B 98 00 00
 3.054984 1  23A             Rx   d 8 FF FF FF FF F0 00 00 00
 3.079850 1  47              Rx   d 8 64 22 BC F4 3B 98 00 00
 3.089986 1  167             Rx   d 8 00 FF FF 00 00 02 12 00
 3.109857 1  167             Rx   d 8 00 FF FF 00 00 02 12 00
 3.119828 1  47              Rx   d 8 64 22 BC F4 3B 98 00 00
 3.139845 1  47              Rx   d 8 64 22 BC F4 3B 98 00 00
 3.155113 1  430             Rx   d 8 00 00 00 00 FE 00 00 00
 3.179865 1  47              Rx   d 8 64 22 BC F4 3B 98 00 00
 3.199306 1  41              Rx   d 8 00 00 00 00 00 00 00 00
 3.210037 1  167             Rx   d 8 00 FF FF 00 00 02 12 00
 3.219312 1  41              Rx   d 8 00 00 00 00 00 00 00 00
 3.238745 1  41              Rx   d 8 00 00 00 00 00 00 00 00
 3.249963 1  167             Rx   d 8 00 FF FF 00 00 02 12 00
 3.269872 1  167             Rx   d 8 00 FF FF 00 00 02 12 00
 3.283207 1  42D             Rx   d 8 00 03 FF 00 00 00 F0 00
 3.297977 1  41              Rx   d 8 00 00 00 00 00 00 00 00
 3.309987 1  167             Rx   d 8 00 FF FF 00 00 02 12 00
 3.326985 1  3B6             Rx   d 8 0A 00 00 00 00 00 00 00
 3.350002 1  167             Rx   d 8 00 FF FF 00 00 02 12 00
 3.369863 1  167             Rx   d 8 00 FF FF 00 00 02 12 00
 3.379783 1  47              Rx   d 8 64 22 BC F4 3B 98 00 00
 3.399876 1  47              Rx   d 8 64 22 BC F4 3B 98 00 00
 3.415985 1  41              Rx   d 8 00 00 00 00 00 00 00 00
 3.435314 1  41              Rx   d 8 00 00 00 00 00 00 00 00
 3.455056 1  23A             Rx   d 8 FF FF FF FF F0 00 00 00
 3.469981 1  167             Rx   d 8 00 FF FF 00 00 02 12 00
 3.489841 1  167             Rx   d 8 00 FF FF 00 00 02 12 00
 3.509990 1  167             Rx   d 8 00 FF FF 00 00 02 12 00
 3.523464 1  42C             Rx   d 8 80 02 00 00 00 00 00 00
 3.540020 1  47              Rx   d 8 64 22 BC F4 3B 98 00 00
 3.570042 1  167             Rx   d 8 00 FF FF 00 00 02 12 00
 3.579966 1  47              Rx   d 8 64 22 BC F4 3B 98 00 00
 3.599817 1  47              Rx   d 8 64 22 BC F4 3B 98 00 00
 3.620036 1  47              Rx   d 8 64 22 BC F4 3B 98 00 00
 3.631958 1  41              Rx   d 8 00 00 00 00 00 00 00 00
 3.649972 1  167             Rx   d 8 00 FF FF 00 00 02 12 00
 3.669862 1  167             Rx   d 8 00 FF FF 00 00 02 12 00
 3.690018 1  167             Rx   d 8 00 FF FF 00 00 02 12 00
 3.709849 1  167             Rx   d 8 00 FF FF 00 00 02 12 00
 3.721226 1  204             Rx   d 8 00 00 FF 00 00 00 00 00
 3.740045 1  165             Rx   d 8 20 81 00 00 00 00 00 00
 3.759971 1  47              Rx   d 8 64 22 BC F4 3B 98 00 00
 3.779830 1  47              Rx   d 8 64 22 BC F4 3B 98 00 00
 3.800002 1  47              Rx   d 8 64 22 BC F4 3B 98 00 00
 3.809380 1  41              Rx   d 8 00 00 00 00 00 00 00 00
 3.828496 1  41              Rx   d 8 00 00 00 00 00 00 00 00
 3.844401 1  59E             Rx   d 8 9E 00 FF FF FF FF FF FF
 3.860464 1  200             Rx   d 8 00 00 80 26 80 26 F0 00
 3.879870 1  47              Rx   d 8 64 22 BC F4 3B 98 00 00
 3.899831 1  47              Rx   d 8 64 22 BC F4 3B 98 00 00
 3.916687 1  42C             Rx   d 8 80 02 00 00 00 00 00 00
 3.939841 1  47              Rx   d 8 64 22 BC F4 3B 98 00 00
 3.949978 1  167             Rx   d 8 00 FF FF 00 00 02 12 00
 3.969808 1  167             Rx   d 8 00 FF FF 00 00 02 12 00
 3.986067 1  41              Rx   d 8 00 00 00 00 00 00 00 00
 4.005860 1  41              Rx   d 8 00 00 00 00 00 00 00 00
 4.021707 1  42F             Rx   d 8 7D 02 05 4E 20 FF 00 00
 4.039838 1  47              Rx   d 8 64 22 BC F4 3B 98 00 00
 4.055357 1  23A             Rx   d 8 FF FF FF FF F0 00 00 00
 4.065115 1  41              Rx   d 8 00 00 00 00 00 00 00 00
 4.083167 1  424             Rx   d 8 00 00 00 03 00 00 00 00
 4.100951 1  204             Rx   d 8 00 00 FF 00 00 00 00 00
 4.119789 1  47              Rx   d 8 64 22 BC F4 3B 98 00 00
 4.139962 1  47              Rx   d 8 64 22 BC F4 3B 98 00 00
 4.155176 1  23A             Rx   d 8 FF FF FF FF F0 00 00 00
 4.170010 1  167             Rx   d 8 00 FF FF 00 00 02 12 00
 4.189854 1  167             Rx   d 8 00 FF FF 00 00 02 12 00
 4.210046 1  167             Rx   d 8 00 FF FF 00 00 02 12 00
 4.220985 1  204             Rx   d 8 00 00 FF 00 00 00 00 00
 4.239815 1  47              Rx   d 8 64 22 BC F4 3B 98 00 00
 4.259845 1  47              Rx   d 8 64 22 BC F4 3B 98 00 00
 4.279841 1  47              Rx   d 8 64 22 BC F4 3B 98 00 00
 4.299818 1  47              Rx   d 8 64 22 BC F4 3B 98 00 00
 4.309875 1  167             Rx   d 8 00 FF FF 00 00 02 12 00
 4.329885 1  167             Rx   d 8 00 FF FF 00 00 02 12 00
 4.349844 1  167             Rx   d 8 00 FF FF 00 00 02 12 00
 4.369980 1  167             Rx   d 8 00 FF FF 00 00 02 12 00
 4.382436 1  204             Rx   d 8 00 00 FF 00 00 00 00 00
 4.400104 1  165             Rx   d 8 20 81 00 00 00 00 00 00
 4.419755 1  47              Rx   d 8 64 22 BC F4 3B 98 00 00
 4.438509 1  41              Rx   d 8 00 00 00 00 00 00 00 00
 4.455319 1  23A             Rx   d 8 FF FF FF FF F0 00 00 00
 4.477739 1  41              Rx   d 8 00 00 00 00 00 00 00 00
 4.489832 1  167             Rx   d 8 00 FF FF 00 00 02 12 00
 4.506693 1  42C             Rx   d 8 80 02 00 00 00 00 00 00
 4.517267 1  41              Rx   d 8 00 00 00 00 00 00 00 00
 4.536274 1  41              Rx   d 8 00 00 00 00 00 00 00 00
 4.550082 1  167             Rx   d 8 00 FF FF 00 00 02 12 00
 4.569796 1  167             Rx   d 8 00 FF FF 00 00 02 12 00
 4.580550 1  165             Rx   d 8 20 81 00 00 00 00 00 00
 4.583226 1  42D             Rx   d 8 00 03 FF 00 00 00 F0 00
 4.589996 1  167             Rx   d 8 00 FF FF 00 00 02 12 00
 4.590035 1  171             Rx   d 8 F0 E0 00 00 00 00 00 00
 4.590362 1  204             Rx   d 8 00 00 FF 00 00 00 00 00
 4.599817 1  47              Rx   d 8 64 22 BC F4 3B 98 00 00
 4.614817 1  41              Rx   d 8 00 00 00 00 00 00 00 00
 4.619992 1  47              Rx   d 8 64 22 BC F4 3B 98 00 00
 4.620023 1  165             Rx   d 8 20 81 00 00 00 00 00 00
 4.630106 1  167             Rx   d 8 00 FF FF 00 00 02 12 00
 4.640225 1  167             Rx   d 8 00 FF FF 00 00 02 12 00
 4.659990 1  47              Rx   d 8 64 22 BC F4 3B 98 00 00
 4.670064 1  204             Rx   d 8 00 00 FF 00 00 00 00 00
 4.674256 1  41              Rx   d 8 00 00 00 00 00 00 00 00
 4.683185 1  424             Rx   d 8 00 00 00 03 00 00 00 00
 4.694099 1  41              Rx   d 8 00 00 00 00 00 00 00 00
 4.699990 1  47              Rx   d 8 64 22 BC F4 3B 98 00 00
 4.700032 1  165             Rx   d 8 20 81 00 00 00 00 00 00
 4.713566 1  41              Rx   d 8 00 00 00 00 00 00 00 00
 4.732882 1  41              Rx   d 8 00 00 00 00 00 00 00 00
 4.749810 1  167             Rx   d 8 00 FF FF 00 00 02 12 00
 4.770020 1  167             Rx   d 8 00 FF FF 00 00 02 12 00
 4.780143 1  47              Rx   d 8 64 22 BC F4 3B 98 00 00
 4.783560 1  421             Rx   d 8 04 00 11 00 00 00 FF 00
 4.792564 1  41              Rx   d 8 00 00 00 00 00 00 00 00
 4.792718 1  242             Rx   d 8 FF FF 3F FF B6 00 03 01
 4.810072 1  167             Rx   d 8 00 FF FF 00 00 02 12 00
 4.820136 1  47              Rx   d 8 64 22 BC F4 3B 98 00 00
 4.820197 1  165             Rx   d 8 20 81 00 00 00 00 00 00
 4.839824 1  47              Rx   d 8 64 22 BC F4 3B 98 00 00
 4.850091 1  167             Rx   d 8 00 FF FF 00 00 02 12 00
 4.869835 1  167             Rx   d 8 00 FF FF 00 00 02 12 00
 4.890345 1  167             Rx   d 8 00 FF FF 00 00 02 12 00
 4.899661 1  42C             Rx   d 8 80 02 00 00 00 00 00 00
 4.929874 1  41              Rx   d 8 00 00 00 00 00 00 00 00
 4.949841 1  167             Rx   d 8 00 FF FF 00 00 02 12 00
 4.969339 1  41              Rx   d 8 00 00 00 00 00 00 00 00
 4.982660 1  230             Rx   d 8 F0 1C 00 00 00 00 00 00
 4.998023 1  42C             Rx   d 8 80 02 00 00 00 00 00 00
 5.028343 1  41              Rx   d 8 00 00 00 00 00 00 00 00
 5.048125 1  41              Rx   d 8 00 00 00 00 00 00 00 00
 5.067865 1  41              Rx   d 8 00 00 00 00 00 00 00 00
 5.079977 1  47              Rx   d 8 64 22 BC F4 3B 98 00 00
 5.096610 1  42C             Rx   d 8 80 02 00 00 00 00 00 00
 5.107107 1  41              Rx   d 8 00 00 00 00 00 00 00 00
 5.110122 1  167             Rx   d 8 00 FF FF 00 00 02 12 00
 5.129834 1  167             Rx   d 8 00 FF FF 00 00 02 12 00
 5.139809 1  47              Rx   d 8 64 22 BC F4 3B 98 00 00
 5.159734 1  47              Rx   d 8 64 22 BC F4 3B 98 00 00
 5.165681 1  41              Rx   d 8 00 00 00 00 00 00 00 00
 5.169800 1  167             Rx   d 8 00 FF FF 00 00 02 12 00
 5.169977 1  204             Rx   d 8 00 00 FF 00 00 00 00 00
 5.179830 1  47              Rx   d 8 64 22 BC F4 3B 98 00 00
 5.180079 1  156             Rx   d 8 BA 00 00 00 00 00 00 00
 5.180217 1  165             Rx   d 8 20 81 00 00 00 00 00 00
 5.180462 1  166             Rx   d 8 76 00 00 FF FF FF 00 00
 5.180696 1  167             Rx   d 8 00 FF FF 00 00 02 12 00
 5.180927 1  178             Rx   d 8 00 00 02 00 02 54 C6 44
 5.181164 1  179             Rx   d 8 00 00 08 00 22 FF 00 00
 5.189855 1  167             Rx   d 8 00 FF FF 00 00 02 12 00
 5.204601 1  41              Rx   d 8 00 00 00 00 00 00 00 00
 5.225032 1  41              Rx   d 8 00 00 00 00 00 00 00 00
 5.244612 1  41              Rx   d 8 00 00 00 00 00 00 00 00
 5.260026 1  47              Rx   d 8 64 22 BC F4 3B 98 00 00
 5.260067 1  165             Rx   d 8 20 81 00 00 00 00 00 00
 5.270216 1  167             Rx   d 8 00 FF FF 00 00 02 12 00
 5.281726 1  17C             Rx   d 8 00 00 00 00 00 00 00 00
 5.300022 1  47              Rx   d 8 64 22 BC F4 3B 98 00 00
 5.300062 1  165             Rx   d 8 20 81 00 00 00 00 00 00
 5.319859 1  47              Rx   d 8 64 22 BC F4 3B 98 00 00
 5.329873 1  167             Rx   d 8 00 FF FF 00 00 02 12 00
 5.343056 1  41              Rx   d 8 00 00 00 00 00 00 00 00
 5.362022 1  41              Rx   d 8 00 00 00 00 00 00 00 00
 5.379818 1  47              Rx   d 8 64 22 BC F4 3B 98 00 00
 5.400099 1  47              Rx   d 8 64 22 BC F4 3B 98 00 00
 5.419829 1  47              Rx   d 8 64 22 BC F4 3B 98 00 00
 5.430367 1  167             Rx   d 8 00 FF FF 00 00 02 12 00
 5.430448 1  171             Rx   d 8 F0 E0 00 00 00 00 00 00
 5.430460 1  204             Rx   d 8 00 00 FF 00 00 00 00 00
 5.431194 1  42F             Rx   d 8 7D 02 05 4E 20 FF 00 00
 5.431223 1  43D             Rx   d 8 14 00 21 00 00 00 00 00
 5.449813 1  167             Rx   d 8 00 FF FF 00 00 02 12 00
 5.455538 1  23A             Rx   d 8 FF FF FF FF F0 00 00 00
 5.470010 1  167             Rx   d 8 00 FF FF 00 00 02 12 00
 5.480180 1  156             Rx   d 8 BA 00 00 00 00 00 00 00
 5.499826 1  47              Rx   d 8 64 22 BC F4 3B 98 00 00
 5.519146 1  41              Rx   d 8 00 00 00 00 00 00 00 00
 5.529809 1  167             Rx   d 8 00 FF FF 00 00 02 12 00
 5.549855 1  167             Rx   d 8 00 FF FF 00 00 02 12 00
 5.569858 1  167             Rx   d 8 00 FF FF 00 00 02 12 00
 5.581987 1  200             Rx   d 8 00 00 80 26 80 26 F0 00
 5.599709 1  47              Rx   d 8 64 22 BC F4 3B 98 00 00
 5.618067 1  41              Rx   d 8 00 00 00 00 00 00 00 00
 5.637607 1  41              Rx   d 8 00 00 00 00 00 00 00 00
 5.655654 1  23A             Rx   d 8 FF FF FF FF F0 00 00 00
 5.676342 1  41              Rx   d 8 00 00 00 00 00 00 00 00
 5.686224 1  42C             Rx   d 8 80 02 00 00 00 00 00 00
 5.709845 1  167             Rx   d 8 00 FF FF 00 00 02 12 00
 5.730114 1  167             Rx   d 8 00 FF FF 00 00 02 12 00
 5.730180 1  171             Rx   d 8 F0 E0 00 00 00 00 00 00
 5.730587 1  204             Rx   d 8 00 00 FF 00 00 00 00 00
 5.730602 1  42F             Rx   d 8 7D 02 05 4E 20 FF 00 00
 5.730758 1  43D             Rx   d 8 14 00 21 00 00 00 00 00
 5.731009 1  43E             Rx   d 8 00 00 00 00 00 00 00 00
 5.736380 1  41              Rx   d 8 00 00 00 00 00 00 00 00
 5.736420 1  242             Rx   d 8 FF FF 3F FF B6 00 03 01
 5.749803 1  167             Rx   d 8 00 FF FF 00 00 02 12 00
 5.770023 1  167             Rx   d 8 00 FF FF 00 00 02 12 00
 5.781172 1  179             Rx   d 8 00 00 08 00 22 FF 00 00
 5.799785 1  47              Rx   d 8 64 22 BC F4 3B 98 00 00
 5.819813 1  47              Rx   d 8 64 22 BC F4 3B 98 00 00
 5.834284 1  41              Rx   d 8 00 00 00 00 00 00 00 00
 5.854203 1  41              Rx   d 8 00 00 00 00 00 00 00 00
 5.869812 1  167             Rx   d 8 00 FF FF 00 00 02 12 00
 5.890126 1  167             Rx   d 8 00 FF FF 00 00 02 12 00
 5.899745 1  47              Rx   d 8 64 22 BC F4 3B 98 00 00
 5.919991 1  47              Rx   d 8 64 22 BC F4 3B 98 00 00
 5.939766 1  47              Rx   d 8 64 22 BC F4 3B 98 00 00
 5.949817 1  167             Rx   d 8 00 FF FF 00 00 02 12 00
 5.969810 1  167             Rx   d 8 00 FF FF 00 00 02 12 00
 5.979774 1  47              Rx   d 8 64 22 BC F4 3B 98 00 00
 5.999844 1  47              Rx   d 8 64 22 BC F4 3B 98 00 00
 6.009812 1  167             Rx   d 8 00 FF FF 00 00 02 12 00
 6.029994 1  167             Rx   d 8 00 FF FF 00 00 02 12 00
 6.049797 1  167             Rx   d 8 00 FF FF 00 00 02 12 00
 6.059804 1  47              Rx   d 8 64 22 BC F4 3B 98 00 00
 6.079589 1  42C             Rx   d 8 80 02 00 00 00 00 00 00
 6.098921 1  84              Rx   d 8 00 00 00 01 00 18 0C 00
 6.119802 1  47              Rx   d 8 64 22 BC F4 3B 98 00 00
 6.129459 1  41              Rx   d 8 00 00 00 00 00 00 00 00
 6.148452 1  41              Rx   d 8 00 00 00 00 00 00 00 00
 6.160472 1  200             Rx   d 8 00 00 80 26 80 26 F0 00
 6.179860 1  47              Rx   d 8 64 22 BC F4 3B 98 00 00
 6.199807 1  47              Rx   d 8 64 22 BC F4 3B 98 00 00
 6.199969 1  165             Rx   d 8 20 81 00 00 00 00 00 00
 6.200200 1  167             Rx   d 8 00 FF FF 00 00 02 12 00
 6.200453 1  200             Rx   d 8 00 00 80 26 80 26 F0 00
 6.200706 1  202             Rx   d 8 00 CC 00 00 00 00 00 00
 6.200939 1  204             Rx   d 8 00 00 FF 00 00 00 00 00
 6.201187 1  230             Rx   d 8 F0 1C 00 00 00 00 00 00
 6.207766 1  41              Rx   d 8 00 00 00 00 00 00 00 00
 6.207932 1  242             Rx   d 8 FF FF 3F FF B6 00 03 01
 6.209797 1  167             Rx   d 8 00 FF FF 00 00 02 12 00
 6.209990 1  171             Rx   d 8 F0 E0 00 00 00 00 00 00
 6.219995 1  47              Rx   d 8 64 22 BC F4 3B 98 00 00
 6.230094 1  167             Rx   d 8 00 FF FF 00 00 02 12 00
 6.241426 1  230             Rx   d 8 F0 1C 00 00 00 00 00 00
 6.256075 1  23A             Rx   d 8 FF FF FF FF F0 00 00 00
 6.275760 1  3B6             Rx   d 8 0A 00 00 00 00 00 00 00
 6.299948 1  47              Rx   d 8 64 22 BC F4 3B 98 00 00
 6.319802 1  47              Rx   d 8 64 22 BC F4 3B 98 00 00
 6.330008 1  167             Rx   d 8 00 FF FF 00 00 02 12 00
 6.349789 1  167             Rx   d 8 00 FF FF 00 00 02 12 00
 6.359771 1  47              Rx   d 8 64 22 BC F4 3B 98 00 00
 6.380240 1  47              Rx   d 8 64 22 BC F4 3B 98 00 00
 6.399801 1  47              Rx   d 8 64 22 BC F4 3B 98 00 00
 6.410283 1  167             Rx   d 8 00 FF FF 00 00 02 12 00
 6.419804 1  47              Rx   d 8 64 22 BC F4 3B 98 00 00
 6.439844 1  47              Rx   d 8 64 22 BC F4 3B 98 00 00
 6.455938 1  23A             Rx   d 8 FF FF FF FF F0 00 00 00
 6.469797 1  167             Rx   d 8 00 FF FF 00 00 02 12 00
 6.490121 1  167             Rx   d 8 00 FF FF 00 00 02 12 00
 6.508390 1  581             Rx   d 8 81 00 FF FF FF FF FF FF
 6.519971 1  47              Rx   d 8 64 22 BC F4 3B 98 00 00
 6.539774 1  47              Rx   d 8 64 22 BC F4 3B 98 00 00
 6.555961 1  23A             Rx   d 8 FF FF FF FF F0 00 00 00
 6.579824 1  47              Rx   d 8 64 22 BC F4 3B 98 00 00
 6.599939 1  47              Rx   d 8 64 22 BC F4 3B 98 00 00
 6.619815 1  47              Rx   d 8 64 22 BC F4 3B 98 00 00
 6.630078 1  167             Rx   d 8 00 FF FF 00 00 02 12 00
 6.649776 1  167             Rx   d 8 00 FF FF 00 00 02 12 00
 6.669370 1  42C             Rx   d 8 80 02 00 00 00 00 00 00
 6.679615 1  41              Rx   d 8 00 00 00 00 00 00 00 00
 6.698729 1  41              Rx   d 8 00 00 00 00 00 00 00 00
 6.709857 1  167             Rx   d 8 00 FF FF 00 00 02 12 00
 6.729800 1  167             Rx   d 8 00 FF FF 00 00 02 12 00
 6.750102 1  167             Rx   d 8 00 FF FF 00 00 02 12 00
 6.767904 1  331             Rx   d 8 C0 00 48 67 02 00 00 00
 6.790021 1  167             Rx   d 8 00 FF FF 00 00 02 12 00
 6.799810 1  47              Rx   d 8 64 22 BC F4 3B 98 00 00
 6.800000 1  165             Rx   d 8 20 81 00 00 00 00 00 00
 6.800456 1  200             Rx   d 8 00 00 80 26 80 26 F0 00
 6.809832 1  167             Rx   d 8 00 FF FF 00 00 02 12 00
 6.810041 1  171             Rx   d 8 F0 E0 00 00 00 00 00 00
 6.810225 1  204             Rx   d 8 00 00 FF 00 00 00 00 00
 6.810487 1  42F             Rx   d 8 7D 02 05 4E 20 FF 00 00
 6.817355 1  41              Rx   d 8 00 00 00 00 00 00 00 00
 6.817395 1  42C             Rx   d 8 80 02 00 00 00 00 00 00
 6.820027 1  47              Rx   d 8 64 22 BC F4 3B 98 00 00
 6.820059 1  165             Rx   d 8 20 81 00 00 00 00 00 00
 6.820245 1  167             Rx   d 8 00 FF FF 00 00 02 12 00
 6.820482 1  200             Rx   d 8 00 00 80 26 80 26 F0 00
 6.829808 1  167             Rx   d 8 00 FF FF 00 00 02 12 00
 6.849834 1  167             Rx   d 8 00 FF FF 00 00 02 12 00
 6.866536 1  42C             Rx   d 8 80 02 00 00 00 00 00 00
 6.881462 1  17C             Rx   d 8 00 00 00 00 00 00 00 00
 6.883164 1  42D             Rx   d 8 00 03 FF 00 00 00 F0 00
 6.889817 1  167             Rx   d 8 00 FF FF 00 00 02 12 00
 6.890019 1  204             Rx   d 8 00 00 FF 00 00 00 00 00
 6.896041 1  41              Rx   d 8 00 00 00 00 00 00 00 00
 6.900360 1  47              Rx   d 8 64 22 BC F4 3B 98 00 00
 6.900442 1  165             Rx   d 8 20 81 00 00 00 00 00 00
 6.900456 1  167             Rx   d 8 00 FF FF 00 00 02 12 00
 6.900809 1  171             Rx   d 8 F0 E0 00 00 00 00 00 00
 6.900828 1  200             Rx   d 8 00 00 80 26 80 26 F0 00
 6.901028 1  202             Rx   d 8 00 CC 00 00 00 00 00 00
 6.909811 1  167             Rx   d 8 00 FF FF 00 00 02 12 00
 6.934854 1  41              Rx   d 8 00 00 00 00 00 00 00 00
 6.949800 1  167             Rx   d 8 00 FF FF 00 00 02 11 00
 6.964091 1  42C             Rx   d 8 80 02 00 00 00 00 00 00
 6.983893 1  595             Rx   d 8 95 00 FF FF FF FF FF FF
 7.009967 1  167             Rx   d 8 00 FF FF 00 00 02 11 00
 7.020003 1  47              Rx   d 8 64 22 BC F4 3B 98 00 00
 7.033479 1  41              Rx   d 8 00 00 00 00 00 00 00 00
 7.052792 1  41              Rx   d 8 00 00 00 00 00 00 00 00
 7.069813 1  167             Rx   d 8 00 FF FF 00 00 02 11 00
 7.089820 1  167             Rx   d 8 00 FF FF 00 00 02 11 00
 7.109810 1  167             Rx   d 8 00 FF FF 00 00 02 11 00
 7.129960 1  167             Rx   d 8 00 FF FF 00 00 02 11 00
 7.149834 1  167             Rx   d 8 00 FF FF 00 00 02 11 00
 7.159951 1  47              Rx   d 8 64 22 BC F4 3B 98 00 00
 7.179771 1  47              Rx   d 8 64 22 BC F4 3B 98 00 00
 7.200688 1  47              Rx   d 8 64 22 BC F4 3B 98 00 00
 7.219813 1  47              Rx   d 8 64 22 BC F4 3B 98 00 00
 7.229836 1  167             Rx   d 8 00 FF FF 00 00 02 11 00
 7.249295 1  41              Rx   d 8 00 00 00 00 00 00 00 00
 7.269767 1  41              Rx   d 8 00 00 00 00 00 00 00 00
 7.289023 1  41              Rx   d 8 00 00 00 00 00 00 00 00
 7.309126 1  41              Rx   d 8 00 00 00 00 00 00 00 00
 7.320695 1  200             Rx   d 8 00 00 80 26 80 26 F0 00
 7.339796 1  47              Rx   d 8 64 22 BC F4 3B 98 00 00
 7.359780 1  47              Rx   d 8 64 22 BC F4 3B 98 00 00
 7.369750 1  167             Rx   d 8 00 FF FF 00 00 02 11 00
 7.399789 1  47              Rx   d 8 64 22 BC F4 3B 98 00 00
 7.409746 1  167             Rx   d 8 00 FF FF 00 00 02 11 00
 7.430100 1  167             Rx   d 8 00 FF FF 00 00 02 11 00
 7.445900 1  41              Rx   d 8 00 00 00 00 00 00 00 00
 7.466546 1  41              Rx   d 8 00 00 00 00 00 00 00 00
 7.482893 1  424             Rx   d 8 00 00 00 03 00 00 00 00
 7.506689 1  41              Rx   d 8 00 00 00 00 00 00 00 00
 7.506753 1  242             Rx   d 8 FF FF 3F FF B6 00 03 01
 7.506763 1  38D             Rx   d 8 20 00 00 00 00 00 00 F0
 7.508199 1  42C             Rx   d 8 80 02 00 00 00 00 00 00
 7.519817 1  47              Rx   d 8 64 22 BC F4 3B 98 00 00
 7.520427 1  200             Rx   d 8 00 00 80 26 80 26 F0 00
 7.539968 1  47              Rx   d 8 64 22 BC F4 3B 98 00 00
 7.549930 1  167             Rx   d 8 00 FF FF 00 00 02 11 00
 7.564069 1  41              Rx   d 8 00 00 00 00 00 00 00 00
 7.582766 1  421             Rx   d 8 04 00 11 00 00 00 FF 00
 7.590481 1  204             Rx   d 8 00 00 FF 00 00 00 00 00
 7.599817 1  47              Rx   d 8 64 22 BC F4 3B 98 00 00
 7.599990 1  165             Rx   d 8 20 81 00 00 00 00 00 00
 7.600229 1  167             Rx   d 8 00 FF FF 00 00 02 11 00
 7.600446 1  200             Rx   d 8 00 00 80 26 80 26 F0 00
 7.620218 1  47              Rx   d 8 64 22 BC F4 3B 98 00 00
 7.639795 1  47              Rx   d 8 64 22 BC F4 3B 98 00 00
 7.656936 1  23A             Rx   d 8 FF FF FF FF F0 00 00 00
 7.661078 1  204             Rx   d 8 00 00 FF 00 00 00 00 00
 7.679798 1  47              Rx   d 8 64 22 BC F4 3B 98 00 00
 7.689979 1  167             Rx   d 8 00 FF FF 00 00 02 11 00
 7.709799 1  167             Rx   d 8 00 FF FF 00 00 02 11 00
 7.719782 1  47              Rx   d 8 64 22 BC F4 3B 98 00 00
 7.740298 1  47              Rx   d 8 64 22 BC F4 3B 98 00 00
 7.749758 1  167             Rx   d 8 00 FF FF 00 00 02 11 00
 7.756388 1  23A             Rx   d 8 FF FF FF FF F0 00 00 00
 7.760942 1  202             Rx   d 8 00 CC 00 00 00 00 00 00
 7.780030 1  47              Rx   d 8 64 22 BC F4 3B 98 00 00
 7.781206 1  178             Rx   d 8 00 00 02 00 02 54 C6 49
 7.799770 1  47              Rx   d 8 64 22 BC F4 3B 98 00 00
 7.819740 1  41              Rx   d 8 00 00 00 00 00 00 00 00
 7.829787 1  167             Rx   d 8 00 FF FF 00 00 02 11 00
 7.841075 1  204             Rx   d 8 00 00 FF 00 00 00 00 00
 7.856451 1  23A             Rx   d 8 FF FF FF FF F0 00 00 00
 7.878641 1  41              Rx   d 8 00 00 00 00 00 00 00 00
 7.880071 1  47              Rx   d 8 64 22 BC F4 3B 98 00 00
 7.880993 1  178             Rx   d 8 00 00 02 00 02 54 C6 49
 7.883456 1  42D             Rx   d 8 00 03 FF 00 00 00 F0 00
 7.898724 1  41              Rx   d 8 00 00 00 00 00 00 00 00
 7.898917 1  242             Rx   d 8 FF FF 3F FF B6 00 03 01
 7.899130 1  40A             Rx   d 8 C1 10 40 84 20 08 80 00
 7.899384 1  42C             Rx   d 8 80 02 00 00 00 00 00 00
 7.909830 1  167             Rx   d 8 00 FF FF 00 00 02 11 00
 7.917892 1  41              Rx   d 8 00 00 00 00 00 00 00 00
 7.937730 1  41              Rx   d 8 00 00 00 00 00 00 00 00
 7.956661 1  23A             Rx   d 8 FF FF FF FF F0 00 00 00
 7.977051 1  41              Rx   d 8 00 00 00 00 00 00 00 00
 7.997816 1  41              Rx   d 8 00 00 00 00 00 00 00 00
 8.016346 1  41              Rx   d 8 00 00 00 00 00 00 00 00
 8.029993 1  167             Rx   d 8 00 FF FF 00 00 02 11 00
 8.045386 1  42C             Rx   d 8 80 02 00 00 00 00 00 00
 8.060475 1  200             Rx   d 8 00 00 80 26 80 26 F0 00
 8.080093 1  47              Rx   d 8 64 22 BC F4 3B 98 00 00
 8.096683 1  42C             Rx   d 8 80 02 00 00 00 00 00 00
 8.119805 1  47              Rx   d 8 64 22 BC F4 3B 98 00 00
 8.129791 1  167             Rx   d 8 00 FF FF 00 00 02 11 00
 8.149953 1  167             Rx   d 8 00 FF FF 00 00 02 11 00
 8.169790 1  167             Rx   d 8 00 FF FF 00 00 02 11 00
 8.183425 1  43D             Rx   d 8 14 00 21 00 00 00 00 00
 8.209809 1  167             Rx   d 8 00 FF FF 00 00 02 11 00
 8.220759 1  200             Rx   d 8 00 00 80 26 80 26 F0 00
 8.239711 1  47              Rx   d 8 64 22 BC F4 3B 98 00 00
 8.257101 1  23A             Rx   d 8 FF FF FF FF F0 00 00 00
 8.279759 1  47              Rx   d 8 64 22 BC F4 3B 98 00 00
 8.300048 1  47              Rx   d 8 64 22 BC F4 3B 98 00 00
 8.319824 1  47              Rx   d 8 64 22 BC F4 3B 98 00 00
 8.339828 1  47              Rx   d 8 64 22 BC F4 3B 98 00 00
 8.356649 1  23A             Rx   d 8 FF FF FF FF F0 00 00 00
 8.370170 1  167             Rx   d 8 00 FF FF 00 00 02 11 00
 8.389699 1  167             Rx   d 8 00 FF FF 00 00 02 11 00
 8.409904 1  41              Rx   d 8 00 00 00 00 00 00 00 00
 8.428882 1  41              Rx   d 8 00 00 00 00 00 00 00 00
 8.449716 1  41              Rx   d 8 00 00 00 00 00 00 00 00
 8.468575 1  41              Rx   d 8 00 00 00 00 00 00 00 00
 8.483144 1  42D             Rx   d 8 00 03 FF 00 00 00 F0 00
 8.507633 1  41              Rx   d 8 00 00 00 00 00 00 00 00
 8.509784 1  167             Rx   d 8 00 FF FF 00 00 02 11 00
 8.509998 1  204             Rx   d 8 00 00 FF 00 00 00 00 00
 8.519961 1  47              Rx   d 8 64 22 BC F4 3B 98 00 00
 8.520002 1  165             Rx   d 8 20 81 00 00 00 00 00 00
 8.520225 1  167             Rx   d 8 00 FF FF 00 00 02 11 00
 8.527879 1  41              Rx   d 8 00 00 00 00 00 00 00 00
 8.536757 1  3B4             Rx   d 8 34 21 11 FF 1E 1A 00 00
 8.556879 1  23A             Rx   d 8 FF FF FF FF F0 00 00 00
 8.579782 1  47              Rx   d 8 64 22 BC F4 3B 98 00 00
 8.589785 1  167             Rx   d 8 00 FF FF 00 00 02 11 00
 8.606656 1  41              Rx   d 8 00 00 00 00 00 00 00 00
 8.606778 1  242             Rx   d 8 FF FF 3F FF B6 00 03 01
 8.610284 1  167             Rx   d 8 00 FF FF 00 00 02 11 00
 8.610346 1  171             Rx   d 8 F0 E0 00 00 00 00 00 00
 8.610353 1  204             Rx   d 8 00 00 FF 00 00 00 00 00
 8.619782 1  47              Rx   d 8 64 22 BC F4 3B 98 00 00
 8.629813 1  167             Rx   d 8 00 FF FF 00 00 02 11 00
 8.635209 1  42C             Rx   d 8 80 02 00 00 00 00 00 00
 8.649795 1  167             Rx   d 8 00 FF FF 00 00 02 11 00
 8.659800 1  47              Rx   d 8 64 22 BC F4 3B 98 00 00
 8.660193 1  167             Rx   d 8 00 FF FF 00 00 02 11 00
 8.679797 1  47              Rx   d 8 64 22 BC F4 3B 98 00 00
 8.689744 1  167             Rx   d 8 00 FF FF 00 00 02 11 00
 8.699951 1  47              Rx   d 8 64 22 BC F4 3B 98 00 00
 8.699991 1  165             Rx   d 8 20 81 00 00 00 00 00 00
 8.710175 1  167             Rx   d 8 00 FF FF 00 00 02 11 00
 8.710233 1  204             Rx   d 8 00 00 FF 00 00 00 00 00
 8.724184 1  41              Rx   d 8 00 00 00 00 00 00 00 00
 8.739951 1  47              Rx   d 8 64 22 BC F4 3B 98 00 00
 8.740012 1  165             Rx   d 8 20 81 00 00 00 00 00 00
 8.740235 1  167             Rx   d 8 00 FF FF 00 00 02 11 00
 8.740489 1  200             Rx   d 8 00 00 80 26 80 26 F0 00
 8.740707 1  202             Rx   d 8 00 CC 00 00 00 00 00 00
 8.740953 1  204             Rx   d 8 00 00 FF 00 00 00 00 00
 8.757121 1  23A             Rx   d 8 FF FF FF FF F0 00 00 00
 8.779786 1  47              Rx   d 8 64 22 BC F4 3B 98 00 00
 8.790573 1  167             Rx   d 8 00 FF FF 00 00 02 11 00
 8.809812 1  167             Rx   d 8 00 FF FF 00 00 02 11 00
 8.829980 1  167             Rx   d 8 00 FF FF 00 00 02 11 00
 8.842124 1  41              Rx   d 8 00 00 00 00 00 00 00 00
 8.859782 1  47              Rx   d 8 64 22 BC F4 3B 98 00 00
 8.879765 1  47              Rx   d 8 64 22 BC F4 3B 98 00 00
 8.899964 1  47              Rx   d 8 64 22 BC F4 3B 98 00 00
 8.919774 1  47              Rx   d 8 64 22 BC F4 3B 98 00 00
 8.940097 1  47              Rx   d 8 64 22 BC F4 3B 98 00 00
 8.956820 1  23A             Rx   d 8 FF FF FF FF F0 00 00 00
 8.979931 1  41              Rx   d 8 00 00 00 00 00 00 00 00
 8.999393 1  41              Rx   d 8 00 00 00 00 00 00 00 00
 9.018639 1  41              Rx   d 8 00 00 00 00 00 00 00 00
 9.029702 1  167             Rx   d 8 00 FF FF 00 00 02 11 00
 9.049965 1  167             Rx   d 8 00 FF FF 00 00 02 11 00
 9.069774 1  167             Rx   d 8 00 FF FF 00 00 02 11 00
 9.090595 1  167             Rx   d 8 00 FF FF 00 00 02 11 00
 9.106962 1  84              Rx   d 8 00 00 00 01 00 1B 0C 00
 9.126750 1  42C             Rx   d 8 80 02 00 00 00 00 00 00
 9.136657 1  41              Rx   d 8 00 00 00 00 00 00 00 00
 9.156638 1  41              Rx   d 8 00 00 00 00 00 00 00 00
 9.176386 1  41              Rx   d 8 00 00 00 00 00 00 00 00
 9.196442 1  41              Rx   d 8 00 00 00 00 00 00 00 00
 9.209810 1  167             Rx   d 8 00 FF FF 00 00 02 11 00
 9.229769 1  167             Rx   d 8 00 FF FF 00 00 02 11 00
 9.249795 1  167             Rx   d 8 00 FF FF 00 00 02 11 00
 9.270008 1  167             Rx   d 8 00 FF FF 00 00 02 11 00
 9.289772 1  167             Rx   d 8 00 FF FF 00 00 02 11 00
 9.299782 1  47              Rx   d 8 64 22 BC F4 3B 98 00 00
 9.309997 1  167             Rx   d 8 00 FF FF 00 00 02 11 00
 9.310037 1  204             Rx   d 8 00 00 FF 00 00 00 00 00
 9.314270 1  41              Rx   d 8 00 00 00 00 00 00 00 00
 9.314311 1  242             Rx   d 8 FF FF 3F FF B6 00 03 01
 9.319947 1  47              Rx   d 8 64 22 BC F4 3B 98 00 00
 9.319976 1  165             Rx   d 8 20 81 00 00 00 00 00 00
 9.320291 1  167             Rx   d 8 00 FF FF 00 00 02 11 00
 9.329713 1  167             Rx   d 8 00 FF FF 00 00 02 11 00
 9.350170 1  167             Rx   d 8 00 FF FF 00 00 02 11 00
 9.369804 1  167             Rx   d 8 00 FF FF 00 00 02 11 00
 9.383493 1  43D             Rx   d 8 14 00 21 00 00 00 00 00
 9.409771 1  167             Rx   d 8 00 FF FF 00 00 02 11 00
 9.419916 1  47              Rx   d 8 64 22 BC F4 3B 98 00 00
 9.439765 1  47              Rx   d 8 64 22 BC F4 3B 98 00 00
 9.457256 1  23A             Rx   d 8 FF FF FF FF F0 00 00 00
 9.479724 1  47              Rx   d 8 64 22 BC F4 3B 98 00 00
 9.491033 1  41              Rx   d 8 00 00 00 00 00 00 00 00
 9.500090 1  47              Rx   d 8 64 22 BC F4 3B 98 00 00
 9.500136 1  165             Rx   d 8 20 81 00 00 00 00 00 00
 9.500485 1  167             Rx   d 8 00 FF FF 00 00 02 11 00
 9.500504 1  200             Rx   d 8 00 00 80 26 80 26 F0 00
 9.501010 1  202             Rx   d 8 00 CC 00 00 00 00 00 00
 9.501060 1  204             Rx   d 8 00 00 FF 00 00 00 00 00
 9.519660 1  3B4             Rx   d 8 34 21 11 FF 1E 1A 00 00
 9.540330 1  47              Rx   d 8 64 22 BC F4 3B 98 00 00
 9.557054 1  23A             Rx   d 8 FF FF FF FF F0 00 00 00
 9.571473 1  42C             Rx   d 8 80 02 00 00 00 00 00 00
 9.589589 1  41              Rx   d 8 00 00 00 00 00 00 00 00
 9.608607 1  41              Rx   d 8 00 00 00 00 00 00 00 00
 9.618080 1  42C             Rx   d 8 80 02 00 00 00 00 00 00
 9.628618 1  41              Rx   d 8 00 00 00 00 00 00 00 00
 9.628788 1  242             Rx   d 8 FF FF 3F FF B6 00 03 01
 9.629735 1  167             Rx   d 8 00 FF FF 00 00 02 11 00
 9.629961 1  171             Rx   d 8 F0 E0 00 00 00 00 00 00
 9.630198 1  204             Rx   d 8 00 00 FF 00 00 00 00 00
 9.630424 1  42F             Rx   d 8 7D 02 05 4E 20 FF 00 00
 9.630669 1  43D             Rx   d 8 14 00 21 00 00 00 00 00
 9.630937 1  43E             Rx   d 8 00 00 00 00 00 00 00 00
 9.639768 1  47              Rx   d 8 64 22 BC F4 3B 98 00 00
 9.639930 1  165             Rx   d 8 20 81 00 00 00 00 00 00
 9.649808 1  167             Rx   d 8 00 FF FF 00 00 02 11 00
 9.668309 1  41              Rx   d 8 00 00 00 00 00 00 00 00
 9.687649 1  41              Rx   d 8 00 00 00 00 00 00 00 00
 9.700054 1  47              Rx   d 8 64 22 BC F4 3B 98 00 00
 9.716291 1  331             Rx   d 8 C0 00 48 6A 02 00 00 00
 9.726580 1  41              Rx   d 8 00 00 00 00 00 00 00 00
 9.730075 1  167             Rx   d 8 00 FF FF 00 00 02 11 00
 9.730137 1  204             Rx   d 8 00 00 FF 00 00 00 00 00
 9.730744 1  43D             Rx   d 8 14 00 21 00 00 00 00 00
 9.730797 1  43E             Rx   d 8 00 00 00 00 00 00 00 00
 9.746504 1  41              Rx   d 8 00 00 00 00 00 00 00 00
 9.766604 1  41              Rx   d 8 00 00 00 00 00 00 00 00
 9.782124 1  202             Rx   d 8 00 CC 00 00 00 00 00 00
 9.799905 1  47              Rx   d 8 64 22 BC F4 3B 98 00 00
 9.819718 1  47              Rx   d 8 64 22 BC F4 3B 98 00 00
 9.840013 1  47              Rx   d 8 64 22 BC F4 3B 98 00 00
 9.857223 1  23A             Rx   d 8 FF FF FF FF F0 00 00 00
 9.879952 1  47              Rx   d 8 64 22 BC F4 3B 98 00 00
 9.883212 1  42D             Rx   d 8 00 03 FF 00 00 00 F0 00
 9.901412 1  230             Rx   d 8 F0 1C 00 00 00 00 00 00
 9.919824 1  47              Rx   d 8 64 22 BC F4 3B 98 00 00
 9.939775 1  47              Rx   d 8 64 22 BC F4 3B 98 00 00
 9.949813 1  167             Rx   d 8 00 FF FF 00 00 02 11 00
 9.970052 1  167             Rx   d 8 00 FF FF 00 00 02 11 00
 9.984097 1  43E             Rx   d 8 00 00 00 00 00 00 00 00
 9.999963 1  47              Rx   d 8 64 22 BC F4 3B 98 00 00
 10.019829 1  47              Rx   d 8 64 22 BC F4 3B 98 00 00
 10.020046 1  165             Rx   d 8 20 81 00 00 00 00 00 00
 10.020173 1  167             Rx   d 8 00 FF FF 00 00 02 11 00
 10.021974 1  242             Rx   d 8 FF FF 3F FF B6 00 03 01
 10.029810 1  167             Rx   d 8 00 FF FF 00 00 02 11 00
 10.030034 1  204             Rx   d 8 00 00 FF 00 00 00 00 00
 10.030217 1  43D             Rx   d 8 14 00 21 00 00 00 00 00
 10.030464 1  43E             Rx   d 8 00 00 00 00 00 00 00 00
 10.040022 1  47              Rx   d 8 64 22 BC F4 3B 98 00 00
 10.040070 1  165             Rx   d 8 20 81 00 00 00 00 00 00
 10.040392 1  167             Rx   d 8 00 FF FF 00 00 02 11 00
 10.040412 1  200             Rx   d 8 00 00 80 26 80 26 F0 00
 10.040804 1  202             Rx   d 8 00 CC 00 00 00 00 00 00
 10.057753 1  434             Rx   d 8 00 00 00 00 0F FF 00 10
 10.080050 1  47              Rx   d 8 64 22 BC F4 3B 98 00 00
 10.099829 1  47              Rx   d 8 64 22 BC F4 3B 98 00 00
 10.120076 1  41              Rx   d 8 00 00 00 00 00 00 00 00
 10.120144 1  47              Rx   d 8 64 22 BC F4 3B 98 00 00
 10.120152 1  165             Rx   d 8 20 81 00 00 00 00 00 00
 10.120803 1  167             Rx   d 8 00 FF FF 00 00 02 11 00
 10.120841 1  200             Rx   d 8 00 00 80 26 80 26 F0 00
 10.130260 1  167             Rx   d 8 00 FF FF 00 00 02 11 00
 10.157506 1  23A             Rx   d 8 FF FF FF FF F0 00 00 00
 10.159345 1  41              Rx   d 8 00 00 00 00 00 00 00 00
 10.170269 1  167             Rx   d 8 00 FF FF 00 00 02 11 00
 10.170322 1  171             Rx   d 8 F0 E0 00 00 00 00 00 00
 10.170335 1  204             Rx   d 8 00 00 FF 00 00 00 00 00
 10.179227 1  41              Rx   d 8 00 00 00 00 00 00 00 00
 10.179263 1  242             Rx   d 8 FF FF 3F FF B6 00 03 01
 10.180465 1  166             Rx   d 8 76 00 00 FF FF FF 00 00
 10.198181 1  41              Rx   d 8 00 00 00 00 00 00 00 00
 10.207914 1  3B6             Rx   d 8 0A 00 00 00 00 00 00 00
 10.208109 1  3B7             Rx   d 8 00 00 00 00 00 00 00 00
 10.208395 1  42C             Rx   d 8 80 02 00 00 00 00 00 00
 10.209675 1  167             Rx   d 8 00 FF FF 00 00 02 11 00
 10.218330 1  41              Rx   d 8 00 00 00 00 00 00 00 00
 10.218505 1  242             Rx   d 8 FF FF 3F FF B6 00 03 01
 10.219792 1  47              Rx   d 8 64 22 BC F4 3B 98 00 00
 10.220006 1  165             Rx   d 8 20 81 00 00 00 00 00 00
 10.220186 1  167             Rx   d 8 00 FF FF 00 00 02 11 00
 10.220472 1  200             Rx   d 8 00 00 80 26 80 26 F0 00
 10.220679 1  202             Rx   d 8 00 CC 00 00 00 00 00 00
 10.227567 1  331             Rx   d 8 C0 00 48 6B 02 00 00 00
 10.250018 1  167             Rx   d 8 00 FF FF 00 00 02 11 00
 10.257697 1  23A             Rx   d 8 FF FF FF FF F0 00 00 00
 10.260832 1  47              Rx   d 8 64 22 BC F4 3B 98 00 00
 10.270178 1  167             Rx   d 8 00 FF FF 00 00 02 11 00
 10.279827 1  47              Rx   d 8 64 22 BC F4 3B 98 00 00
 10.290107 1  167             Rx   d 8 00 FF FF 00 00 02 11 00
 10.290159 1  171             Rx   d 8 F0 E0 00 00 00 00 00 00
 10.297276 1  41              Rx   d 8 00 00 00 00 00 00 00 00
 10.306616 1  42C             Rx   d 8 80 02 00 00 00 00 00 00
 10.310049 1  167             Rx   d 8 00 FF FF 00 00 02 11 00
 10.316338 1  41              Rx   d 8 00 00 00 00 00 00 00 00
 10.330009 1  167             Rx   d 8 00 FF FF 00 00 02 11 00
 10.330052 1  204             Rx   d 8 00 00 FF 00 00 00 00 00
 10.330313 1  43D             Rx   d 8 14 00 21 00 00 00 00 00
 10.330528 1  43E             Rx   d 8 00 00 00 00 00 00 00 00
 10.339962 1  47              Rx   d 8 64 22 BC F4 3B 98 00 00
 10.349816 1  167             Rx   d 8 00 FF FF 00 00 02 11 00
 10.350022 1  171             Rx   d 8 F0 E0 00 00 00 00 00 00
 10.350241 1  204             Rx   d 8 00 00 FF 00 00 00 00 00
 10.350451 1  42F             Rx   d 8 7D 02 05 4E 20 FF 00 00
 10.356259 1  41              Rx   d 8 00 00 00 00 00 00 00 00
 10.357776 1  23A             Rx   d 8 FF FF FF FF F0 00 00 00
 10.359820 1  47              Rx   d 8 64 22 BC F4 3B 98 00 00
 10.370083 1  167             Rx   d 8 00 FF FF 00 00 02 11 00
 10.370121 1  204             Rx   d 8 00 00 FF 00 00 00 00 00
 10.379814 1  47              Rx   d 8 64 22 BC F4 3B 98 00 00
 10.379994 1  156             Rx   d 8 BA 00 00 00 00 00 00 00
 10.380239 1  165             Rx   d 8 20 81 00 00 00 00 00 00
 10.380440 1  166             Rx   d 8 76 00 00 FF FF FF 00 00
 10.389829 1  167             Rx   d 8 00 FF FF 00 00 02 11 00
 10.390075 1  204             Rx   d 8 00 00 FF 00 00 00 00 00
 10.395374 1  41              Rx   d 8 00 00 00 00 00 00 00 00
 10.399982 1  47              Rx   d 8 64 22 BC F4 3B 98 00 00
 10.400022 1  165             Rx   d 8 20 81 00 00 00 00 00 00
 10.401045 1  204             Rx   d 8 00 00 FF 00 00 00 00 00
 10.415117 1  41              Rx   d 8 00 00 00 00 00 00 00 00
 10.420013 1  165             Rx   d 8 20 81 00 00 00 00 00 00
 10.429967 1  167             Rx   d 8 00 FF FF 00 00 02 11 00
 10.430022 1  204             Rx   d 8 00 00 FF 00 00 00 00 00
 10.430284 1  43D             Rx   d 8 14 00 21 00 00 00 00 00
 10.434544 1  41              Rx   d 8 00 00 00 00 00 00 00 00
 10.439931 1  47              Rx   d 8 64 22 BC F4 3B 98 00 00
 10.440459 1  167             Rx   d 8 00 FF FF 00 00 02 11 00
 10.449771 1  167             Rx   d 8 00 FF FF 00 00 02 11 00
 10.470012 1  167             Rx   d 8 00 FF FF 00 00 02 11 00
 10.489755 1  167             Rx   d 8 00 FF FF 00 00 02 11 00
 10.502707 1  3B4             Rx   d 8 34 21 11 FF 1E 1A 00 00
 10.509843 1  167             Rx   d 8 00 FF FF 00 00 02 11 00
 10.510114 1  204             Rx   d 8 00 00 FF 00 00 00 00 00
 10.513265 1  41              Rx   d 8 00 00 00 00 00 00 00 00
 10.513339 1  3B5             Rx   d 8 FF FD FF FD FF FD FF FD
 10.520082 1  47              Rx   d 8 64 22 BC F4 3B 98 00 00
 10.529755 1  167             Rx   d 8 00 FF FF 00 00 02 11 00
 10.539726 1  47              Rx   d 8 64 22 BC F4 3B 98 00 00
 10.558031 1  23A             Rx   d 8 FF FF FF FF F0 00 00 00
 10.579790 1  47              Rx   d 8 64 22 BC F4 3B 98 00 00
 10.592278 1  41              Rx   d 8 00 00 00 00 00 00 00 00
 10.599750 1  47              Rx   d 8 64 22 BC F4 3B 98 00 00
 10.599920 1  165             Rx   d 8 20 81 00 00 00 00 00 00
 10.600170 1  167             Rx   d 8 00 FF FF 00 00 02 11 00
 10.600402 1  200             Rx   d 8 00 00 80 26 80 26 F0 00
 10.600656 1  202             Rx   d 8 00 CC 00 00 00 00 00 00
 10.600894 1  204             Rx   d 8 00 00 FF 00 00 00 00 00
 10.601140 1  230             Rx   d 8 F0 1C 00 00 00 00 00 00
 10.609775 1  167             Rx   d 8 00 FF FF 00 00 02 11 00
 10.621666 1  42F             Rx   d 8 7D 02 05 4E 20 FF 00 00
 10.639767 1  47              Rx   d 8 64 22 BC F4 3B 98 00 00
 10.649807 1  167             Rx   d 8 00 FF FF 00 00 02 11 00
 10.659826 1  47              Rx   d 8 64 22 BC F4 3B 98 00 00
 10.679750 1  47              Rx   d 8 64 22 BC F4 3B 98 00 00
 10.683366 1  42D             Rx   d 8 00 03 FF 00 00 00 F0 00
 10.689993 1  204             Rx   d 8 00 00 FF 00 00 00 00 00
 10.709486 1  41              Rx   d 8 00 00 00 00 00 00 00 00
 10.720165 1  167             Rx   d 8 00 FF FF 00 00 02 11 00
 10.739956 1  47              Rx   d 8 64 22 BC F4 3B 98 00 00
 10.749322 1  41              Rx   d 8 00 00 00 00 00 00 00 00
 10.757611 1  23A             Rx   d 8 FF FF FF FF F0 00 00 00
 10.769804 1  167             Rx   d 8 00 FF FF 00 00 02 11 00
 10.783217 1  424             Rx   d 8 00 00 00 03 00 00 00 00
 10.797680 1  42C             Rx   d 8 80 02 00 00 00 00 00 00
 10.799738 1  47              Rx   d 8 64 22 BC F4 3B 98 00 00
 10.808337 1  41              Rx   d 8 00 00 00 00 00 00 00 00
 10.820022 1  47              Rx   d 8 64 22 BC F4 3B 98 00 00
 10.829746 1  167             Rx   d 8 00 FF FF 00 00 02 11 00
 10.829997 1  171             Rx   d 8 F0 E0 00 00 00 00 00 00
 10.839770 1  47              Rx   d 8 64 22 BC F4 3B 98 00 00
 10.849982 1  167             Rx   d 8 00 FF FF 00 00 02 11 00
 10.867143 1  41              Rx   d 8 00 00 00 00 00 00 00 00
 10.879805 1  47              Rx   d 8 64 22 BC F4 3B 98 00 00
 10.880018 1  156             Rx   d 8 BA 00 00 00 00 00 00 00
 10.880182 1  165             Rx   d 8 20 81 00 00 00 00 00 00
 10.880409 1  166             Rx   d 8 76 00 00 FF FF FF 00 00
 10.880655 1  167             Rx   d 8 00 FF FF 00 00 02 11 00
 10.896317 1  42C             Rx   d 8 80 02 00 00 00 00 00 00
 10.909739 1  167             Rx   d 8 00 FF FF 00 00 02 11 00
 10.929801 1  167             Rx   d 8 00 FF FF 00 00 02 11 00
 10.946587 1  3B8             Rx   d 8 FF FF FF FF 00 00 00 00
 10.965788 1  41              Rx   d 8 00 00 00 00 00 00 00 00
 10.983355 1  42D             Rx   d 8 00 03 FF 00 00 00 F0 00
 11.004820 1  41              Rx   d 8 00 00 00 00 00 00 00 00
 11.020410 1  200             Rx   d 8 00 00 80 26 80 26 F0 00
 11.039817 1  47              Rx   d 8 64 22 BC F4 3B 98 00 00
 11.057649 1  23A             Rx   d 8 FF FF FF FF F0 00 00 00
 11.080027 1  47              Rx   d 8 64 22 BC F4 3B 98 00 00
 11.099784 1  47              Rx   d 8 64 22 BC F4 3B 98 00 00
 11.120080 1  47              Rx   d 8 64 22 BC F4 3B 98 00 00
 11.139736 1  47              Rx   d 8 64 22 BC F4 3B 98 00 00
 11.157928 1  430             Rx   d 8 00 00 00 00 FE 00 00 00
 11.179903 1  47              Rx   d 8 64 22 BC F4 3B 98 00 00
 11.199784 1  47              Rx   d 8 64 22 BC F4 3B 98 00 00
 11.219908 1  47              Rx   d 8 64 22 BC F4 3B 98 00 00
 11.229915 1  167             Rx   d 8 00 FF FF 00 00 02 11 00
 11.249788 1  167             Rx   d 8 00 FF FF 00 00 02 11 00
 11.269913 1  167             Rx   d 8 00 FF FF 00 00 02 11 00
 11.279797 1  47              Rx   d 8 64 22 BC F4 3B 98 00 00
 11.299327 1  41              Rx   d 8 00 00 00 00 00 00 00 00
 11.309787 1  167             Rx   d 8 00 FF FF 00 00 02 11 00
 11.330032 1  204             Rx   d 8 00 00 FF 00 00 00 00 00
 11.349809 1  167             Rx   d 8 00 FF FF 00 00 02 11 00
 11.357722 1  23A             Rx   d 8 FF FF FF FF F0 00 00 00
 11.377886 1  41              Rx   d 8 00 00 00 00 00 00 00 00
 11.387986 1  42C             Rx   d 8 80 02 00 00 00 00 00 00
 11.409963 1  167             Rx   d 8 00 FF FF 00 00 02 11 00
 11.423316 1  581             Rx   d 8 81 00 FF FF FF FF FF FF
 11.440288 1  167             Rx   d 8 00 FF FF 00 00 02 11 00
 11.458461 1  435             Rx   d 8 00 00 00 00 00 00 00 00
 11.476525 1  41              Rx   d 8 00 00 00 00 00 00 00 00
 11.489897 1  167             Rx   d 8 00 FF FF 00 00 02 11 00
 11.509779 1  167             Rx   d 8 00 FF FF 00 00 02 11 00
 11.529938 1  167             Rx   d 8 00 FF FF 00 00 02 11 00
 11.539710 1  47              Rx   d 8 64 22 BC F4 3B 98 00 00
 11.555287 1  41              Rx   d 8 00 00 00 00 00 00 00 00
 11.574404 1  41              Rx   d 8 00 00 00 00 00 00 00 00
 11.594894 1  41              Rx   d 8 00 00 00 00 00 00 00 00
 11.609789 1  167             Rx   d 8 00 FF FF 00 00 02 11 00
 11.629828 1  167             Rx   d 8 00 FF FF 00 00 02 11 00
 11.639992 1  47              Rx   d 8 64 22 BC F4 3B 98 00 00
 11.657856 1  23A             Rx   d 8 FF FF FF FF F0 00 00 00
 11.679888 1  47              Rx   d 8 64 22 BC F4 3B 98 00 00
 11.692941 1  41              Rx   d 8 00 00 00 00 00 00 00 00
 11.709928 1  167             Rx   d 8 00 FF FF 00 00 02 11 00
 11.729785 1  167             Rx   d 8 00 FF FF 00 00 02 11 00
 11.741144 1  230             Rx   d 8 F0 1C 00 00 00 00 00 00
 11.759904 1  165             Rx   d 8 20 81 00 00 00 00 00 00
 11.779896 1  47              Rx   d 8 64 22 BC F4 3B 98 00 00
 11.799743 1  47              Rx   d 8 64 22 BC F4 3B 98 00 00
 11.819943 1  47              Rx   d 8 64 22 BC F4 3B 98 00 00
 11.829899 1  167             Rx   d 8 00 FF FF 00 00 02 11 00
 11.847516 1  59E             Rx   d 8 9E 00 FF FF FF FF FF FF
 11.861365 1  230             Rx   d 8 F0 1C 00 00 00 00 00 00
 11.879671 1  47              Rx   d 8 64 22 BC F4 3B 98 00 00
 11.899872 1  47              Rx   d 8 64 22 BC F4 3B 98 00 00
 11.919775 1  47              Rx   d 8 64 22 BC F4 3B 98 00 00
 11.939909 1  47              Rx   d 8 64 22 BC F4 3B 98 00 00
 11.948475 1  41              Rx   d 8 00 00 00 00 00 00 00 00
 11.968094 1  41              Rx   d 8 00 00 00 00 00 00 00 00
 11.982598 1  421             Rx   d 8 04 00 11 00 00 00 FF 00
 11.999780 1  47              Rx   d 8 64 22 BC F4 3B 98 00 00
 12.019758 1  47              Rx   d 8 64 22 BC F4 3B 98 00 00
 12.029995 1  171             Rx   d 8 F0 E0 00 00 00 00 00 00
 12.049885 1  167             Rx   d 8 00 FF FF 00 00 02 11 00
 12.066542 1  41              Rx   d 8 00 00 00 00 00 00 00 00
 12.083211 1  42D             Rx   d 8 00 03 FF 00 00 00 F0 00
 12.099798 1  47              Rx   d 8 64 22 BC F4 3B 98 00 00
 12.119914 1  47              Rx   d 8 64 22 BC F4 3B 98 00 00
 12.139733 1  47              Rx   d 8 64 22 BC F4 3B 98 00 00
 12.149801 1  167             Rx   d 8 00 FF FF 00 00 02 11 00
 12.164635 1  41              Rx   d 8 00 00 00 00 00 00 00 00
 12.179959 1  156             Rx   d 8 BA 00 00 00 00 00 00 00
 12.199888 1  47              Rx   d 8 64 22 BC F4 3B 98 00 00
 12.219765 1  47              Rx   d 8 64 22 BC F4 3B 98 00 00
 12.233045 1  331             Rx   d 8 C0 00 48 6D 02 00 00 00
 12.258090 1  23A             Rx   d 8 FF FF FF FF F0 00 00 00
 12.269883 1  167             Rx   d 8 00 FF FF 00 00 02 11 00
 12.289728 1  167             Rx   d 8 00 FF FF 00 00 02 11 00
 12.300188 1  167             Rx   d 8 00 FF FF 00 00 02 11 00
 12.319746 1  47              Rx   d 8 64 22 BC F4 3B 98 00 00
 12.339907 1  47              Rx   d 8 64 22 BC F4 3B 98 00 00
 12.358107 1  23A             Rx   d 8 FF FF FF FF F0 00 00 00
 12.379945 1  47              Rx   d 8 64 22 BC F4 3B 98 00 00
 12.399768 1  47              Rx   d 8 64 22 BC F4 3B 98 00 00
 12.409744 1  167             Rx   d 8 00 FF FF 00 00 02 11 00
 12.429785 1  167             Rx   d 8 00 FF FF 00 00 02 11 00
 12.449945 1  167             Rx   d 8 00 FF FF 00 00 02 11 00
 12.458246 1  23A             Rx   d 8 FF FF FF FF F0 00 00 00
 12.478746 1  41              Rx   d 8 00 00 00 00 00 00 00 00
 12.499008 1  41              Rx   d 8 00 00 00 00 00 00 00 00
 12.509766 1  167             Rx   d 8 00 FF FF 00 00 02 11 00
 12.529917 1  167             Rx   d 8 00 FF FF 00 00 02 11 00
 12.538301 1  41              Rx   d 8 00 00 00 00 00 00 00 00
 12.557352 1  41              Rx   d 8 00 00 00 00 00 00 00 00
 12.577533 1  41              Rx   d 8 00 00 00 00 00 00 00 00
 12.589754 1  167             Rx   d 8 00 FF FF 00 00 02 11 00
 12.609889 1  167             Rx   d 8 00 FF FF 00 00 02 11 00
 12.629781 1  167             Rx   d 8 00 FF FF 00 00 02 11 00
 12.649947 1  167             Rx   d 8 00 FF FF 00 00 02 11 00
 12.665557 1  331             Rx   d 8 C0 00 48 6D 02 00 00 00
 12.675374 1  41              Rx   d 8 00 00 00 00 00 00 00 00
 12.695683 1  41              Rx   d 8 00 00 00 00 00 00 00 00
 12.709939 1  167             Rx   d 8 00 FF FF 00 00 02 11 00
 12.729759 1  167             Rx   d 8 00 FF FF 00 00 02 11 00
 12.740191 1  167             Rx   d 8 00 FF FF 00 00 02 11 00
 12.754164 1  41              Rx   d 8 00 00 00 00 00 00 00 00
 12.774172 1  41              Rx   d 8 00 00 00 00 00 00 00 00
 12.789894 1  167             Rx   d 8 00 FF FF 00 00 02 11 00
 12.809737 1  167             Rx   d 8 00 FF FF 00 00 02 11 00
 12.829967 1  167             Rx   d 8 00 FF FF 00 00 02 11 00
 12.839744 1  47              Rx   d 8 64 22 BC F4 3B 98 00 00
 12.858648 1  23A             Rx   d 8 FF FF FF FF F0 00 00 00
 12.869887 1  167             Rx   d 8 00 FF FF 00 00 02 11 00
 12.889772 1  167             Rx   d 8 00 FF FF 00 00 02 11 00
 12.909885 1  167             Rx   d 8 00 FF FF 00 00 02 11 00
 12.929754 1  167             Rx   d 8 00 FF FF 00 00 02 11 00
 12.939917 1  47              Rx   d 8 64 22 BC F4 3B 98 00 00
 12.958393 1  23A             Rx   d 8 FF FF FF FF F0 00 00 00
 12.969782 1  167             Rx   d 8 00 FF FF 00 00 02 11 00
 12.983410 1  43D             Rx   d 8 14 00 21 00 00 00 00 00
 13.000914 1  204             Rx   d 8 00 00 FF 00 00 00 00 00
 13.019905 1  47              Rx   d 8 64 22 BC F4 3B 98 00 00
 13.029355 1  41              Rx   d 8 00 00 00 00 00 00 00 00
 13.049640 1  41              Rx   d 8 00 00 00 00 00 00 00 00
 13.068990 1  41              Rx   d 8 00 00 00 00 00 00 00 00
 13.079738 1  47              Rx   d 8 64 22 BC F4 3B 98 00 00
 13.097965 1  84              Rx   d 8 00 00 00 01 00 1F 0C 00
 13.119787 1  47              Rx   d 8 64 22 BC F4 3B 98 00 00
 13.139774 1  47              Rx   d 8 64 22 BC F4 3B 98 00 00
 13.156899 1  3B6             Rx   d 8 0A 00 00 00 00 00 00 00
 13.169751 1  167             Rx   d 8 00 FF FF 00 00 02 11 00
 13.186934 1  41              Rx   d 8 00 00 00 00 00 00 00 00
 13.207223 1  41              Rx   d 8 00 00 00 00 00 00 00 00
 13.225982 1  41              Rx   d 8 00 00 00 00 00 00 00 00
 13.241118 1  230             Rx   d 8 F0 1C 00 00 00 00 00 00
 13.259242 1  434             Rx   d 8 00 00 00 00 0F FF 00 10
 13.279880 1  47              Rx   d 8 64 22 BC F4 3B 98 00 00
 13.299752 1  47              Rx   d 8 64 22 BC F4 3B 98 00 00
 13.319912 1  47              Rx   d 8 64 22 BC F4 3B 98 00 00
 13.339763 1  47              Rx   d 8 64 22 BC F4 3B 98 00 00
 13.343960 1  41              Rx   d 8 00 00 00 00 00 00 00 00
 13.358916 1  23A             Rx   d 8 FF FF FF FF F0 00 00 00
 13.379909 1  47              Rx   d 8 64 22 BC F4 3B 98 00 00
 13.389514 1  581             Rx   d 8 81 00 FF FF FF FF FF FF
 13.404228 1  3B1             Rx   d 8 00 00 00 00 00 00 00 00
 13.422457 1  41              Rx   d 8 00 00 00 00 00 00 00 00
 13.440375 1  171             Rx   d 8 F0 E0 00 00 00 00 00 00
 13.458653 1  23A             Rx   d 8 FF FF FF FF F0 00 00 00
 13.479727 1  47              Rx   d 8 64 22 BC F4 3B 98 00 00
 13.499921 1  47              Rx   d 8 64 22 BC F4 3B 98 00 00
 13.509887 1  167             Rx   d 8 00 FF FF 00 00 02 11 00
 13.529775 1  167             Rx   d 8 00 FF FF 00 00 02 11 00
 13.549796 1  167             Rx   d 8 00 FF FF 00 00 02 11 00
 13.561648 1  230             Rx   d 8 F0 1C 00 00 00 00 00 00
 13.579751 1  41              Rx   d 8 00 00 00 00 00 00 00 00
 13.599735 1  47              Rx   d 8 64 22 BC F4 3B 98 00 00
 13.619144 1  41              Rx   d 8 00 00 00 00 00 00 00 00
 13.639277 1  41              Rx   d 8 00 00 00 00 00 00 00 00
 13.648546 1  331             Rx   d 8 C0 00 48 6E 02 00 00 00
 13.669813 1  167             Rx   d 8 00 FF FF 00 00 02 11 00
 13.682115 1  202             Rx   d 8 00 CC 00 00 00 00 00 00
 13.698318 1  41              Rx   d 8 00 00 00 00 00 00 00 00
 13.717770 1  41              Rx   d 8 00 00 00 00 00 00 00 00
 13.729902 1  167             Rx   d 8 00 FF FF 00 00 02 11 00
 13.746759 1  42C             Rx   d 8 80 02 00 00 00 00 00 00
 13.769886 1  167             Rx   d 8 00 FF FF 00 00 02 11 00
 13.779680 1  47              Rx   d 8 64 22 BC F4 3B 98 00 00
 13.797016 1  41              Rx   d 8 00 00 00 00 00 00 00 00
 13.815532 1  41              Rx   d 8 00 00 00 00 00 00 00 00
 13.836047 1  41              Rx   d 8 00 00 00 00 00 00 00 00
 13.854914 1  41              Rx   d 8 00 00 00 00 00 00 00 00
 13.869899 1  167             Rx   d 8 00 FF FF 00 00 02 11 00
 13.889732 1  167             Rx   d 8 00 FF FF 00 00 02 11 00
 13.909938 1  167             Rx   d 8 00 FF FF 00 00 02 11 00
 13.929701 1  167             Rx   d 8 00 FF FF 00 00 02 11 00
 13.959052 1  23A             Rx   d 8 FF FF FF FF F0 00 00 00
 13.979883 1  47              Rx   d 8 64 22 BC F4 3B 98 00 00
 13.993813 1  41              Rx   d 8 00 00 00 00 00 00 00 00
 14.012364 1  41              Rx   d 8 00 00 00 00 00 00 00 00
 14.029897 1  167             Rx   d 8 00 FF FF 00 00 02 11 00
 14.049757 1  167             Rx   d 8 00 FF FF 00 00 02 11 00
 14.069902 1  167             Rx   d 8 00 FF FF 00 00 02 11 00
 14.081904 1  202             Rx   d 8 00 CC 00 00 00 00 00 00
 14.099885 1  47              Rx   d 8 64 22 BC F4 3B 98 00 00
 14.119705 1  47              Rx   d 8 64 22 BC F4 3B 98 00 00
 14.139871 1  47              Rx   d 8 64 22 BC F4 3B 98 00 00
 14.158868 1  23A             Rx   d 8 FF FF FF FF F0 00 00 00
 14.169890 1  167             Rx   d 8 00 FF FF 00 00 02 11 00
 14.189714 1  167             Rx   d 8 00 FF FF 00 00 02 11 00
 14.199743 1  47              Rx   d 8 64 22 BC F4 3B 98 00 00
 14.219757 1  47              Rx   d 8 64 22 BC F4 3B 98 00 00
 14.238240 1  42C             Rx   d 8 80 02 00 00 00 00 00 00
 14.248405 1  41              Rx   d 8 00 00 00 00 00 00 00 00
 14.268490 1  41              Rx   d 8 00 00 00 00 00 00 00 00
 14.280641 1  167             Rx   d 8 00 FF FF 00 00 02 11 00
 14.299734 1  47              Rx   d 8 64 22 BC F4 3B 98 00 00
 14.319872 1  47              Rx   d 8 64 22 BC F4 3B 98 00 00
 14.336530 1  42C             Rx   d 8 80 02 00 00 00 00 00 00
 14.359132 1  23A             Rx   d 8 FF FF FF FF F0 00 00 00
 14.372344 1  581             Rx   d 8 81 00 FF FF FF FF FF FF
 14.388440 1  3E3             Rx   d 8 00 00 00 00 80 00 00 00
 14.409788 1  167             Rx   d 8 00 FF FF 00 00 02 11 00
 14.425663 1  41              Rx   d 8 00 00 00 00 00 00 00 00
 14.444906 1  41              Rx   d 8 00 00 00 00 00 00 00 00
 14.459678 1  47              Rx   d 8 64 22 BC F4 3B 98 00 00
 14.479780 1  47              Rx   d 8 64 22 BC F4 3B 98 00 00
 14.499727 1  47              Rx   d 8 64 22 BC F4 3B 98 00 00
 14.519862 1  47              Rx   d 8 64 22 BC F4 3B 98 00 00
 14.529669 1  167             Rx   d 8 00 FF FF 00 00 02 11 00
 14.549906 1  167             Rx   d 8 00 FF FF 00 00 02 11 00
 14.559188 1  23A             Rx   d 8 FF FF FF FF F0 00 00 00
 14.579788 1  47              Rx   d 8 64 22 BC F4 3B 98 00 00
 14.589898 1  167             Rx   d 8 00 FF FF 00 00 02 11 00
 14.609751 1  167             Rx   d 8 00 FF FF 00 00 02 11 00
 14.619879 1  47              Rx   d 8 64 22 BC F4 3B 98 00 00
 14.639734 1  47              Rx   d 8 64 22 BC F4 3B 98 00 00
 14.659309 1  23A             Rx   d 8 FF FF FF FF F0 00 00 00
 14.669937 1  167             Rx   d 8 00 FF FF 00 00 02 11 00
 14.683589 1  42D             Rx   d 8 00 03 FF 00 00 00 F0 00
 14.699900 1  47              Rx   d 8 64 22 BC F4 3B 98 00 00
 14.719885 1  47              Rx   d 8 64 22 BC F4 3B 98 00 00
 14.739973 1  47              Rx   d 8 64 22 BC F4 3B 98 00 00
 14.749769 1  167             Rx   d 8 00 FF FF 00 00 02 10 00
 14.769914 1  167             Rx   d 8 00 FF FF 00 00 02 10 00
 14.779884 1  47              Rx   d 8 64 22 BC F4 3B 98 00 00
 14.798642 1  41              Rx   d 8 00 00 00 00 00 00 00 00
 14.809879 1  167             Rx   d 8 00 FF FF 00 00 02 10 00
 14.828014 1  42C             Rx   d 8 80 02 00 00 00 00 00 00
 14.848789 1  59E             Rx   d 8 9E 00 FF FF FF FF FF FF
 14.858126 1  41              Rx   d 8 00 00 00 00 00 00 00 00
 14.877809 1  41              Rx   d 8 00 00 00 00 00 00 00 00
 14.897684 1  41              Rx   d 8 00 00 00 00 00 00 00 00
 14.909706 1  167             Rx   d 8 00 FF FF 00 00 02 10 00
 14.929764 1  167             Rx   d 8 00 FF FF 00 00 02 10 00
 14.949769 1  167             Rx   d 8 00 FF FF 00 00 02 10 00
 14.969901 1  167             Rx   d 8 00 FF FF 00 00 02 10 00
 14.981371 1  17C             Rx   d 8 00 00 00 00 00 00 00 00
 14.999871 1  47              Rx   d 8 64 22 BC F4 3B 98 00 00
 15.024639 1  42C             Rx   d 8 80 02 00 00 00 00 00 00
 15.039916 1  47              Rx   d 8 64 22 BC F4 3B 98 00 00
 15.070080 1  167             Rx   d 8 00 FF FF 00 00 02 10 00
 15.074831 1  41              Rx   d 8 00 00 00 00 00 00 00 00
 15.074869 1  42C             Rx   d 8 80 02 00 00 00 00 00 00
 15.079977 1  47              Rx   d 8 64 22 BC F4 3B 98 00 00
 15.080031 1  156             Rx   d 8 BA 00 00 00 00 00 00 00
 15.099878 1  47              Rx   d 8 64 22 BC F4 3B 98 00 00
 15.109963 1  167             Rx   d 8 00 FF FF 00 00 02 10 00
 15.114115 1  41              Rx   d 8 00 00 00 00 00 00 00 00
 15.119995 1  47              Rx   d 8 64 22 BC F4 3B 98 00 00
 15.122983 1  3B6             Rx   d 8 0A 00 00 00 00 00 00 00
 15.133771 1  41              Rx   d 8 00 00 00 00 00 00 00 00
 15.140243 1  47              Rx   d 8 64 22 BC F4 3B 98 00 00
 15.140303 1  165             Rx   d 8 20 81 00 00 00 00 00 00
 15.140313 1  167             Rx   d 8 00 FF FF 00 00 02 10 00
 15.152836 1  41              Rx   d 8 00 00 00 00 00 00 00 00
 15.169710 1  167             Rx   d 8 00 FF FF 00 00 02 10 00
 15.182882 1  204             Rx   d 8 00 00 FF 00 00 00 00 00
 15.199678 1  47              Rx   d 8 64 22 BC F4 3B 98 00 00
 15.209662 1  167             Rx   d 8 00 FF FF 00 00 02 10 00
 15.219719 1  47              Rx   d 8 64 22 BC F4 3B 98 00 00
 15.239636 1  47              Rx   d 8 64 22 BC F4 3B 98 00 00
 15.259731 1  23A             Rx   d 8 FF FF FF FF F0 00 00 00
 15.270254 1  167             Rx   d 8 00 FF FF 00 00 02 10 00
 15.290025 1  167             Rx   d 8 00 FF FF 00 00 02 10 00
 15.300297 1  47              Rx   d 8 64 22 BC F4 3B 98 00 00
 15.319494 1  42C             Rx   d 8 80 02 00 00 00 00 00 00
 15.329928 1  167             Rx   d 8 00 FF FF 00 00 02 10 00
 15.349317 1  41              Rx   d 8 00 00 00 00 00 00 00 00
 15.361218 1  204             Rx   d 8 00 00 FF 00 00 00 00 00
 15.379708 1  47              Rx   d 8 64 22 BC F4 3B 98 00 00
 15.399704 1  47              Rx   d 8 64 22 BC F4 3B 98 00 00
 15.417905 1  42C             Rx   d 8 80 02 00 00 00 00 00 00
 15.439710 1  47              Rx   d 8 64 22 BC F4 3B 98 00 00
 15.447962 1  41              Rx   d 8 00 00 00 00 00 00 00 00
 15.467860 1  41              Rx   d 8 00 00 00 00 00 00 00 00
 15.479684 1  47              Rx   d 8 64 22 BC F4 3B 98 00 00
 15.489910 1  204             Rx   d 8 00 00 FF 00 00 00 00 00
 15.509871 1  167             Rx   d 8 00 FF FF 00 00 02 10 00
 15.526606 1  41              Rx   d 8 00 00 00 00 00 00 00 00
 15.545917 1  41              Rx   d 8 00 00 00 00 00 00 00 00
 15.560360 1  167             Rx   d 8 00 FF FF 00 00 02 10 00
 15.579876 1  47              Rx   d 8 64 22 BC F4 3B 98 00 00
 15.599725 1  47              Rx   d 8 64 22 BC F4 3B 98 00 00
 15.614382 1  331             Rx   d 8 C0 00 48 70 02 00 00 00
 15.630036 1  167             Rx   d 8 00 FF FF 00 00 02 10 00
 15.644604 1  41              Rx   d 8 00 00 00 00 00 00 00 00
 15.659785 1  23A             Rx   d 8 FF FF FF FF F0 00 00 00
 15.679765 1  47              Rx   d 8 64 22 BC F4 3B 98 00 00
 15.699892 1  47              Rx   d 8 64 22 BC F4 3B 98 00 00
 15.712701 1  42C             Rx   d 8 80 02 00 00 00 00 00 00
 15.739849 1  47              Rx   d 8 64 22 BC F4 3B 98 00 00
 15.759558 1  23A             Rx   d 8 FF FF FF FF F0 00 00 00
 15.769890 1  167             Rx   d 8 00 FF FF 00 00 02 10 00
 15.789630 1  167             Rx   d 8 00 FF FF 00 00 02 10 00
 15.809993 1  167             Rx   d 8 00 FF FF 00 00 02 10 00
 15.819719 1  47              Rx   d 8 64 22 BC F4 3B 98 00 00
 15.839736 1  47              Rx   d 8 64 22 BC F4 3B 98 00 00
 15.859561 1  23A             Rx   d 8 FF FF FF FF F0 00 00 00
 15.879884 1  47              Rx   d 8 64 22 BC F4 3B 98 00 00
 15.899594 1  41              Rx   d 8 00 00 00 00 00 00 00 00
 15.919791 1  41              Rx   d 8 00 00 00 00 00 00 00 00
 15.938953 1  41              Rx   d 8 00 00 00 00 00 00 00 00
 15.959506 1  41              Rx   d 8 00 00 00 00 00 00 00 00
 15.980853 1  178             Rx   d 8 00 00 02 00 02 54 C6 50
 15.989739 1  167             Rx   d 8 00 FF FF 00 00 02 10 00
 16.000921 1  204             Rx   d 8 00 00 FF 00 00 00 00 00
 16.017535 1  41              Rx   d 8 00 00 00 00 00 00 00 00
 16.037901 1  41              Rx   d 8 00 00 00 00 00 00 00 00
 16.049702 1  167             Rx   d 8 00 FF FF 00 00 02 10 00
 16.061403 1  23A             Rx   d 8 FF FF FF FF F0 00 00 00
 16.077009 1  41              Rx   d 8 00 00 00 00 00 00 00 00
 16.096689 1  41              Rx   d 8 00 00 00 00 00 00 00 00
 16.106189 1  84              Rx   d 8 00 00 00 01 00 22 0C 00
 16.129751 1  167             Rx   d 8 00 FF FF 00 00 02 10 00
 16.139714 1  47              Rx   d 8 64 22 BC F4 3B 98 00 00
 16.156228 1  41              Rx   d 8 00 00 00 00 00 00 00 00
 16.174962 1  41              Rx   d 8 00 00 00 00 00 00 00 00
 16.190136 1  167             Rx   d 8 00 FF FF 00 00 02 10 00
 16.199699 1  47              Rx   d 8 64 22 BC F4 3B 98 00 00
 16.199904 1  165             Rx   d 8 20 81 00 00 00 00 00 00
 16.200855 1  202             Rx   d 8 00 CC 00 00 00 00 00 00
 16.214233 1  41              Rx   d 8 00 00 00 00 00 00 00 00
 16.234298 1  41              Rx   d 8 00 00 00 00 00 00 00 00
 16.254276 1  41              Rx   d 8 00 00 00 00 00 00 00 00
 16.269952 1  167             Rx   d 8 00 FF FF 00 00 02 10 00
 16.289725 1  167             Rx   d 8 00 FF FF 00 00 02 10 00
 16.309728 1  167             Rx   d 8 00 FF FF 00 00 02 10 00
 16.319695 1  47              Rx   d 8 64 22 BC F4 3B 98 00 00
 16.349700 1  167             Rx   d 8 00 FF FF 00 00 02 10 00
 16.369905 1  167             Rx   d 8 00 FF FF 00 00 02 10 00
 16.382610 1  230             Rx   d 8 F0 1C 00 00 00 00 00 00
 16.399938 1  165             Rx   d 8 20 81 00 00 00 00 00 00
 16.419975 1  47              Rx   d 8 64 22 BC F4 3B 98 00 00
 16.439713 1  47              Rx   d 8 64 22 BC F4 3B 98 00 00
 16.449879 1  167             Rx   d 8 00 FF FF 00 00 02 10 00
 16.449916 1  204             Rx   d 8 00 00 FF 00 00 00 00 00
 16.450764 1  41              Rx   d 8 00 00 00 00 00 00 00 00
 16.450942 1  3B3             Rx   d 8 44 8C C0 0C E6 00 03 3E
 16.451175 1  3C3             Rx   d 8 5C 80 10 C1 01 00 01 00
 16.459876 1  47              Rx   d 8 64 22 BC F4 3B 98 00 00
 16.459928 1  165             Rx   d 8 20 81 00 00 00 00 00 00
 16.462212 1  430             Rx   d 8 00 00 00 00 FE 00 00 00
 16.479892 1  47              Rx   d 8 64 22 BC F4 3B 98 00 00
 16.490049 1  167             Rx   d 8 00 FF FF 00 00 02 10 00
 16.499044 1  42C             Rx   d 8 80 02 00 00 00 00 00 00
 16.509612 1  41              Rx   d 8 00 00 00 00 00 00 00 00
 16.529071 1  41              Rx   d 8 00 00 00 00 00 00 00 00
 16.549249 1  41              Rx   d 8 00 00 00 00 00 00 00 00
 16.560173 1  47              Rx   d 8 64 22 BC F4 3B 98 00 00
 16.579701 1  47              Rx   d 8 64 22 BC F4 3B 98 00 00
 16.597488 1  331             Rx   d 8 C0 00 48 71 02 00 00 00
 16.607558 1  41              Rx   d 8 00 00 00 00 00 00 00 00
 16.609643 1  167             Rx   d 8 00 FF FF 00 00 02 10 00
 16.609858 1  204             Rx   d 8 00 00 FF 00 00 00 00 00
 16.619710 1  47              Rx   d 8 64 22 BC F4 3B 98 00 00
 16.639990 1  47              Rx   d 8 64 22 BC F4 3B 98 00 00
 16.649633 1  167             Rx   d 8 00 FF FF 00 00 02 10 00
 16.660838 1  204             Rx   d 8 00 00 FF 00 00 00 00 00
 16.679979 1  47              Rx   d 8 64 22 BC F4 3B 98 00 00
 16.699690 1  47              Rx   d 8 64 22 BC F4 3B 98 00 00
 16.709750 1  167             Rx   d 8 00 FF FF 00 00 02 10 00
 16.729704 1  167             Rx   d 8 00 FF FF 00 00 02 10 00
 16.739933 1  47              Rx   d 8 64 22 BC F4 3B 98 00 00
 16.759691 1  47              Rx   d 8 64 22 BC F4 3B 98 00 00
 16.770167 1  204             Rx   d 8 00 00 FF 00 00 00 00 00
 16.782905 1  424             Rx   d 8 00 00 00 03 00 00 00 00
 16.799637 1  47              Rx   d 8 64 22 BC F4 3B 98 00 00
 16.820265 1  47              Rx   d 8 64 22 BC F4 3B 98 00 00
 16.839699 1  47              Rx   d 8 64 22 BC F4 3B 98 00 00
 16.844613 1  3B8             Rx   d 8 FF FF FF FF 00 00 00 00
 16.859829 1  47              Rx   d 8 64 22 BC F4 3B 98 00 00
 16.879734 1  47              Rx   d 8 64 22 BC F4 3B 98 00 00
 16.879897 1  156             Rx   d 8 BA 00 00 00 00 00 00 00
 16.880111 1  165             Rx   d 8 20 81 00 00 00 00 00 00
 16.880361 1  166             Rx   d 8 76 00 00 FF FF FF 00 00
 16.892866 1  42C             Rx   d 8 80 02 00 00 00 00 00 00
 16.909680 1  167             Rx   d 8 00 FF FF 00 00 02 10 00
 16.940006 1  47              Rx   d 8 64 22 BC F4 3B 98 00 00
 16.949676 1  167             Rx   d 8 00 FF FF 00 00 02 10 00
 16.959706 1  47              Rx   d 8 64 22 BC F4 3B 98 00 00
 16.979706 1  47              Rx   d 8 64 22 BC F4 3B 98 00 00
 16.999750 1  47              Rx   d 8 64 22 BC F4 3B 98 00 00
 17.019694 1  47              Rx   d 8 64 22 BC F4 3B 98 00 00
 17.039988 1  47              Rx   d 8 64 22 BC F4 3B 98 00 00
 17.049858 1  167             Rx   d 8 00 FF FF 00 00 02 10 00
 17.069745 1  167             Rx   d 8 00 FF FF 00 00 02 10 00
 17.079264 1  41              Rx   d 8 00 00 00 00 00 00 00 00
 17.099377 1  41              Rx   d 8 00 00 00 00 00 00 00 00
 17.109714 1  167             Rx   d 8 00 FF FF 00 00 02 10 00
 17.129721 1  167             Rx   d 8 00 FF FF 00 00 02 10 00
 17.149938 1  167             Rx   d 8 00 FF FF 00 00 02 10 00
 17.159729 1  47              Rx   d 8 64 22 BC F4 3B 98 00 00
 17.177907 1  41              Rx   d 8 00 00 00 00 00 00 00 00
 17.197272 1  41              Rx   d 8 00 00 00 00 00 00 00 00
 17.199930 1  47              Rx   d 8 64 22 BC F4 3B 98 00 00
 17.199962 1  165             Rx   d 8 20 81 00 00 00 00 00 00
 17.200153 1  167             Rx   d 8 00 FF FF 00 00 02 10 00
 17.200376 1  200             Rx   d 8 00 00 80 26 80 26 F0 00
 17.200752 1  202             Rx   d 8 00 CC 00 00 00 00 00 00
 17.221094 1  204             Rx   d 8 00 00 FF 00 00 00 00 00
 17.229903 1  167             Rx   d 8 00 FF FF 00 00 02 10 00
 17.240836 1  204             Rx   d 8 00 00 FF 00 00 00 00 00
 17.259657 1  47              Rx   d 8 64 22 BC F4 3B 98 00 00
 17.279682 1  47              Rx   d 8 64 22 BC F4 3B 98 00 00
 17.296359 1  41              Rx   d 8 00 00 00 00 00 00 00 00
 17.315163 1  41              Rx   d 8 00 00 00 00 00 00 00 00
 17.329726 1  167             Rx   d 8 00 FF FF 00 00 02 10 00
 17.338210 1  42C             Rx   d 8 80 02 00 00 00 00 00 00
 17.340885 1  202             Rx   d 8 00 CC 00 00 00 00 00 00
 17.354522 1  41              Rx   d 8 00 00 00 00 00 00 00 00
 17.369733 1  167             Rx   d 8 00 FF FF 00 00 02 10 00
 17.382851 1  424             Rx   d 8 00 00 00 03 00 00 00 00
 17.401079 1  204             Rx   d 8 00 00 FF 00 00 00 00 00
 17.421100 1  230             Rx   d 8 F0 1C 00 00 00 00 00 00
 17.449962 1  167             Rx   d 8 00 FF FF 00 00 02 10 00
 17.469745 1  167             Rx   d 8 00 FF FF 00 00 02 10 00
 17.481591 1  200             Rx   d 8 00 00 80 26 80 26 F0 00
 17.509701 1  167             Rx   d 8 00 FF FF 00 00 02 10 00
 17.519708 1  47              Rx   d 8 64 22 BC F4 3B 98 00 00
 17.539761 1  47              Rx   d 8 64 22 BC F4 3B 98 00 00
 17.559714 1  47              Rx   d 8 64 22 BC F4 3B 98 00 00
 17.579723 1  47              Rx   d 8 64 22 BC F4 3B 98 00 00
 17.599884 1  47              Rx   d 8 64 22 BC F4 3B 98 00 00
 17.619720 1  47              Rx   d 8 64 22 BC F4 3B 98 00 00
 17.639854 1  47              Rx   d 8 64 22 BC F4 3B 98 00 00
 17.659700 1  47              Rx   d 8 64 22 BC F4 3B 98 00 00
 17.669402 1  41              Rx   d 8 00 00 00 00 00 00 00 00
 17.689540 1  41              Rx   d 8 00 00 00 00 00 00 00 00
 17.708394 1  41              Rx   d 8 00 00 00 00 00 00 00 00
 17.728893 1  41              Rx   d 8 00 00 00 00 00 00 00 00
 17.747830 1  41              Rx   d 8 00 00 00 00 00 00 00 00
 17.767945 1  41              Rx   d 8 00 00 00 00 00 00 00 00
 17.780838 1  178             Rx   d 8 00 00 02 00 02 54 C6 51
 17.801076 1  230             Rx   d 8 F0 1C 00 00 00 00 00 00
 17.819702 1  47              Rx   d 8 64 22 BC F4 3B 98 00 00
 17.839708 1  47              Rx   d 8 64 22 BC F4 3B 98 00 00
