date Wed Mar 12 02:15:28.295 AM 2025
base hex  timestamps absolute
internal events logged
Begin Triggerblock Wed Mar 12 02:15:28.296 AM 2025
 0.000000 Start of measurement
 0.000000 1  84              Rx   d 8 00 00 00 01 01 18 0C 00
 0.004320 1  47              Rx   d 8 64 22 BC F4 3B 98 00 00
 0.004490 1  165             Rx   d 8 20 81 00 00 00 00 00 00
 0.004685 1  167             Rx   d 8 00 FF FF 00 00 02 0F 00
 0.004930 1  200             Rx   d 8 00 00 80 26 80 26 F0 00
 0.005168 1  202             Rx   d 8 00 CC 00 00 00 00 00 00
 0.005435 1  204             Rx   d 8 00 00 FF 00 00 00 00 00
 0.005678 1  230             Rx   d 8 F0 1C 00 00 00 00 00 00
 0.005924 1  43D             Rx   d 8 14 00 21 00 00 00 00 00
 0.006168 1  43E             Rx   d 8 00 00 00 00 00 00 00 00
 0.010253 1  41              Rx   d 8 00 00 00 00 00 00 00 00
 0.014305 1  167             Rx   d 8 00 FF FF 00 00 02 0F 00
 0.014480 1  204             Rx   d 8 00 00 FF 00 00 00 00 00
 0.024242 1  47              Rx   d 8 64 22 BC F4 3B 98 00 00
 0.024422 1  165             Rx   d 8 20 81 00 00 00 00 00 00
 0.024663 1  167             Rx   d 8 00 FF FF 00 00 02 0F 00
 0.024899 1  171             Rx   d 8 F0 E0 00 00 00 00 00 00
 0.025138 1  200             Rx   d 8 00 00 80 26 80 26 F0 00
 0.025388 1  202             Rx   d 8 00 CC 00 00 00 00 00 00
 0.025635 1  204             Rx   d 8 00 00 FF 00 00 00 00 00
 0.025882 1  230             Rx   d 8 F0 1C 00 00 00 00 00 00
 0.026143 1  42F             Rx   d 8 7D 02 05 4E 20 FF 00 00
 0.030076 1  41              Rx   d 8 00 00 00 00 00 00 00 00
 0.030267 1  242             Rx   d 8 FF FF 3F FF B6 00 03 01
 0.034326 1  167             Rx   d 8 00 FF FF 00 00 02 0F 00
 0.034513 1  204             Rx   d 8 00 00 FF 00 00 00 00 00
 0.039248 1  42C             Rx   d 8 80 02 00 00 00 00 00 00
 0.044317 1  47              Rx   d 8 64 22 BC F4 3B 98 00 00
 0.044486 1  165             Rx   d 8 20 81 00 00 00 00 00 00
 0.044695 1  167             Rx   d 8 00 FF FF 00 00 02 0F 00
 0.044928 1  200             Rx   d 8 00 00 80 26 80 26 F0 00
 0.045186 1  202             Rx   d 8 00 CC 00 00 00 00 00 00
 0.045424 1  204             Rx   d 8 00 00 FF 00 00 00 00 00
 0.045660 1  230             Rx   d 8 F0 1C 00 00 00 00 00 00
 0.049373 1  41              Rx   d 8 00 00 00 00 00 00 00 00
 0.054340 1  166             Rx   d 8 76 00 00 FF FF FF 00 00
 0.054549 1  167             Rx   d 8 00 FF FF 00 00 02 0F 00
 0.054698 1  171             Rx   d 8 F0 E0 00 00 00 00 00 00
 0.054951 1  204             Rx   d 8 00 00 FF 00 00 00 00 00
 0.055200 1  421             Rx   d 8 04 00 11 00 00 00 FF 00
 0.055456 1  424             Rx   d 8 00 00 00 03 00 00 00 00
 0.055716 1  42D             Rx   d 8 00 03 FF 00 00 00 F0 00
 0.055934 1  42F             Rx   d 8 7D 02 05 4E 20 FF 00 00
 0.056178 1  43D             Rx   d 8 14 00 21 00 00 00 00 00
 0.056448 1  43E             Rx   d 8 00 00 00 00 00 00 00 00
 0.064284 1  47              Rx   d 8 64 22 BC F4 3B 98 00 00
 0.064438 1  165             Rx   d 8 20 81 00 00 00 00 00 00
 0.064701 1  167             Rx   d 8 00 FF FF 00 00 02 0F 00
 0.064926 1  200             Rx   d 8 00 00 80 26 80 26 F0 00
 0.065184 1  202             Rx   d 8 00 CC 00 00 00 00 00 00
 0.065452 1  204             Rx   d 8 00 00 FF 00 00 00 00 00
 0.065695 1  230             Rx   d 8 F0 1C 00 00 00 00 00 00
 0.069543 1  41              Rx   d 8 00 00 00 00 00 00 00 00
 0.069737 1  242             Rx   d 8 FF FF 3F FF B6 00 03 01
 0.074634 1  167             Rx   d 8 00 FF FF 00 00 02 0F 00
 0.074691 1  204             Rx   d 8 00 00 FF 00 00 00 00 00
 0.076657 1  23A             Rx   d 8 FF FF FF FF F0 00 00 00
 0.076712 1  430             Rx   d 8 00 00 00 00 FE 00 00 00
 0.077061 1  434             Rx   d 8 00 00 00 00 0F FF 00 10
 0.077079 1  435             Rx   d 8 00 00 00 00 00 00 00 00
 0.084338 1  47              Rx   d 8 64 22 BC F4 3B 98 00 00
 0.084516 1  165             Rx   d 8 20 81 00 00 00 00 00 00
 0.084709 1  167             Rx   d 8 00 FF FF 00 00 02 0F 00
 0.084940 1  171             Rx   d 8 F0 E0 00 00 00 00 00 00
 0.085162 1  200             Rx   d 8 00 00 80 26 80 26 F0 00
 0.085409 1  202             Rx   d 8 00 CC 00 00 00 00 00 00
 0.085658 1  204             Rx   d 8 00 00 FF 00 00 00 00 00
 0.085906 1  230             Rx   d 8 F0 1C 00 00 00 00 00 00
 0.086142 1  42F             Rx   d 8 7D 02 05 4E 20 FF 00 00
 0.089215 1  41              Rx   d 8 00 00 00 00 00 00 00 00
 0.089365 1  42C             Rx   d 8 80 02 00 00 00 00 00 00
 0.094311 1  156             Rx   d 8 BA 00 00 00 00 00 00 00
 0.094479 1  167             Rx   d 8 00 FF FF 00 00 02 0F 00
 0.094691 1  178             Rx   d 8 00 00 02 00 02 54 C6 53
 0.094935 1  179             Rx   d 8 00 00 08 00 22 FF 00 00
 0.095214 1  17C             Rx   d 8 00 00 00 00 00 00 00 00
 0.095435 1  204             Rx   d 8 00 00 FF 00 00 00 00 00
 0.104478 1  47              Rx   d 8 64 22 BC F4 3B 98 00 00
 0.104526 1  165             Rx   d 8 20 81 00 00 00 00 00 00
 0.104742 1  167             Rx   d 8 00 FF FF 00 00 02 0F 00
 0.105048 1  200             Rx   d 8 00 00 80 26 80 26 F0 00
 0.105211 1  202             Rx   d 8 00 CC 00 00 00 00 00 00
 0.105462 1  204             Rx   d 8 00 00 FF 00 00 00 00 00
 0.105722 1  230             Rx   d 8 F0 1C 00 00 00 00 00 00
 0.105949 1  43D             Rx   d 8 14 00 21 00 00 00 00 00
 0.106225 1  43E             Rx   d 8 00 00 00 00 00 00 00 00
 0.108919 1  41              Rx   d 8 00 00 00 00 00 00 00 00
 0.108965 1  242             Rx   d 8 FF FF 3F FF B6 00 03 01
 0.114595 1  167             Rx   d 8 00 FF FF 00 00 02 0F 00
 0.114648 1  171             Rx   d 8 F0 E0 00 00 00 00 00 00
 0.115035 1  204             Rx   d 8 00 00 FF 00 00 00 00 00
 0.115055 1  42F             Rx   d 8 7D 02 05 4E 20 FF 00 00
 0.124810 1  47              Rx   d 8 64 22 BC F4 3B 98 00 00
 0.124860 1  165             Rx   d 8 20 81 00 00 00 00 00 00
 0.124871 1  167             Rx   d 8 00 FF FF 00 00 02 0F 00
 0.125265 1  200             Rx   d 8 00 00 80 26 80 26 F0 00
 0.125287 1  202             Rx   d 8 00 CC 00 00 00 00 00 00
 0.125526 1  204             Rx   d 8 00 00 FF 00 00 00 00 00
 0.125754 1  230             Rx   d 8 F0 1C 00 00 00 00 00 00
 0.128011 1  41              Rx   d 8 00 00 00 00 00 00 00 00
 0.134874 1  167             Rx   d 8 00 FF FF 00 00 02 0F 00
 0.134966 1  204             Rx   d 8 00 00 FF 00 00 00 00 00
 0.137875 1  3B6             Rx   d 8 0A 00 00 00 00 00 00 00
 0.137915 1  3B7             Rx   d 8 00 00 00 00 00 00 00 00
 0.138231 1  42C             Rx   d 8 80 02 00 00 00 00 00 00
 0.144996 1  47              Rx   d 8 64 22 BC F4 3B 98 00 00
 0.145053 1  165             Rx   d 8 20 81 00 00 00 00 00 00
 0.145060 1  167             Rx   d 8 00 FF FF 00 00 02 0F 00
 0.145065 1  171             Rx   d 8 F0 E0 00 00 00 00 00 00
 0.145483 1  200             Rx   d 8 00 00 80 26 80 26 F0 00
 0.145509 1  202             Rx   d 8 00 CC 00 00 00 00 00 00
 0.145721 1  204             Rx   d 8 00 00 FF 00 00 00 00 00
 0.145919 1  230             Rx   d 8 F0 1C 00 00 00 00 00 00
 0.146228 1  42F             Rx   d 8 7D 02 05 4E 20 FF 00 00
 0.148281 1  41              Rx   d 8 00 00 00 00 00 00 00 00
 0.148325 1  242             Rx   d 8 FF FF 3F FF B6 00 03 01
 0.154303 1  166             Rx   d 8 76 00 00 FF FF FF 00 00
 0.154491 1  167             Rx   d 8 00 FF FF 00 00 02 0F 00
 0.154711 1  204             Rx   d 8 00 00 FF 00 00 00 00 00
 0.154953 1  421             Rx   d 8 04 00 11 00 00 00 FF 00
 0.155223 1  424             Rx   d 8 00 00 00 03 00 00 00 00
 0.155455 1  42D             Rx   d 8 00 03 FF 00 00 00 F0 00
 0.155735 1  43D             Rx   d 8 14 00 21 00 00 00 00 00
 0.155951 1  43E             Rx   d 8 00 00 00 00 00 00 00 00
 0.164276 1  47              Rx   d 8 64 22 BC F4 3B 98 00 00
 0.164429 1  165             Rx   d 8 20 81 00 00 00 00 00 00
 0.164669 1  167             Rx   d 8 00 FF FF 00 00 02 0F 00
 0.164902 1  200             Rx   d 8 00 00 80 26 80 26 F0 00
 0.165152 1  202             Rx   d 8 00 CC 00 00 00 00 00 00
 0.165401 1  204             Rx   d 8 00 00 FF 00 00 00 00 00
 0.165646 1  230             Rx   d 8 F0 1C 00 00 00 00 00 00
 0.167574 1  41              Rx   d 8 00 00 00 00 00 00 00 00
 0.174558 1  167             Rx   d 8 00 FF FF 00 00 02 0F 00
 0.174601 1  171             Rx   d 8 F0 E0 00 00 00 00 00 00
 0.174806 1  204             Rx   d 8 00 00 FF 00 00 00 00 00
 0.174975 1  42F             Rx   d 8 7D 02 05 4E 20 FF 00 00
 0.176509 1  23A             Rx   d 8 FF FF FF FF F0 00 00 00
 0.176755 1  430             Rx   d 8 00 00 00 00 FE 00 00 00
 0.177099 1  434             Rx   d 8 00 00 00 00 0F FF 00 10
 0.177270 1  435             Rx   d 8 00 00 00 00 00 00 00 00
 0.184437 1  47              Rx   d 8 64 22 BC F4 3B 98 00 00
 0.184471 1  165             Rx   d 8 20 81 00 00 00 00 00 00
 0.184766 1  167             Rx   d 8 00 FF FF 00 00 02 0F 00
 0.184945 1  200             Rx   d 8 00 00 80 26 80 26 F0 00
 0.185182 1  202             Rx   d 8 00 CC 00 00 00 00 00 00
 0.185534 1  204             Rx   d 8 00 00 FF 00 00 00 00 00
 0.185719 1  230             Rx   d 8 F0 1C 00 00 00 00 00 00
 0.187777 1  41              Rx   d 8 00 00 00 00 00 00 00 00
 0.187952 1  242             Rx   d 8 FF FF 3F FF B6 00 03 01
 0.188143 1  40A             Rx   d 8 C1 01 47 41 48 4A 48 45
 0.188414 1  42C             Rx   d 8 80 02 00 00 00 00 00 00
 0.194299 1  156             Rx   d 8 BA 00 00 00 00 00 00 00
 0.194471 1  167             Rx   d 8 00 FF FF 00 00 02 0F 00
 0.194713 1  178             Rx   d 8 00 00 02 00 02 54 C6 53
 0.194972 1  179             Rx   d 8 00 00 08 00 22 FF 00 00
 0.195194 1  17C             Rx   d 8 00 00 00 00 00 00 00 00
 0.195440 1  204             Rx   d 8 00 00 FF 00 00 00 00 00
 0.204245 1  47              Rx   d 8 64 22 BC F4 3B 98 00 00
 0.204440 1  165             Rx   d 8 20 81 00 00 00 00 00 00
 0.204693 1  167             Rx   d 8 00 FF FF 00 00 02 0F 00
 0.204909 1  171             Rx   d 8 F0 E0 00 00 00 00 00 00
 0.205140 1  200             Rx   d 8 00 00 80 26 80 26 F0 00
 0.205390 1  202             Rx   d 8 00 CC 00 00 00 00 00 00
 0.205638 1  204             Rx   d 8 00 00 FF 00 00 00 00 00
 0.205886 1  230             Rx   d 8 F0 1C 00 00 00 00 00 00
 0.206125 1  42F             Rx   d 8 7D 02 05 4E 20 FF 00 00
 0.206369 1  43D             Rx   d 8 14 00 21 00 00 00 00 00
 0.206624 1  41              Rx   d 8 00 00 00 00 00 00 00 00
 0.206894 1  43E             Rx   d 8 00 00 00 00 00 00 00 00
 0.214236 1  167             Rx   d 8 00 FF FF 00 00 02 0F 00
 0.214471 1  204             Rx   d 8 00 00 FF 00 00 00 00 00
 0.224326 1  47              Rx   d 8 64 22 BC F4 3B 98 00 00
 0.224544 1  165             Rx   d 8 20 81 00 00 00 00 00 00
 0.224711 1  167             Rx   d 8 00 FF FF 00 00 02 0F 00
 0.224922 1  200             Rx   d 8 00 00 80 26 80 26 F0 00
 0.225167 1  202             Rx   d 8 00 CC 00 00 00 00 00 00
 0.225402 1  204             Rx   d 8 00 00 FF 00 00 00 00 00
 0.225648 1  230             Rx   d 8 F0 1C 00 00 00 00 00 00
 0.226469 1  41              Rx   d 8 00 00 00 00 00 00 00 00
 0.226727 1  242             Rx   d 8 FF FF 3F FF B6 00 03 01
 0.234271 1  167             Rx   d 8 00 FF FF 00 00 02 0F 00
 0.234438 1  171             Rx   d 8 F0 E0 00 00 00 00 00 00
 0.234679 1  204             Rx   d 8 00 00 FF 00 00 00 00 00
 0.234917 1  42F             Rx   d 8 7D 02 05 4E 20 FF 00 00
 0.235971 1  42C             Rx   d 8 80 02 00 00 00 00 00 00
 0.244254 1  47              Rx   d 8 64 22 BC F4 3B 98 00 00
 0.244454 1  165             Rx   d 8 20 81 00 00 00 00 00 00
 0.244668 1  167             Rx   d 8 00 FF FF 00 00 02 0F 00
 0.244901 1  200             Rx   d 8 00 00 80 26 80 26 F0 00
 0.245152 1  202             Rx   d 8 00 CC 00 00 00 00 00 00
 0.245400 1  204             Rx   d 8 00 00 FF 00 00 00 00 00
 0.245646 1  230             Rx   d 8 F0 1C 00 00 00 00 00 00
 0.245909 1  41              Rx   d 8 00 00 00 00 00 00 00 00
 0.254499 1  166             Rx   d 8 76 00 00 FF FF FF 00 00
 0.254547 1  167             Rx   d 8 00 FF FF 00 00 02 0F 00
 0.254739 1  204             Rx   d 8 00 00 FF 00 00 00 00 00
 0.255039 1  421             Rx   d 8 04 00 11 00 00 00 FF 00
 0.255250 1  424             Rx   d 8 00 00 00 03 00 00 00 00
 0.255551 1  42D             Rx   d 8 00 03 FF 00 00 00 F0 00
 0.255795 1  43D             Rx   d 8 14 00 21 00 00 00 00 00
 0.256019 1  43E             Rx   d 8 00 00 00 00 00 00 00 00
 0.264502 1  47              Rx   d 8 64 22 BC F4 3B 98 00 00
 0.264542 1  165             Rx   d 8 20 81 00 00 00 00 00 00
 0.264798 1  167             Rx   d 8 00 FF FF 00 00 02 0F 00
 0.265009 1  171             Rx   d 8 F0 E0 00 00 00 00 00 00
 0.265228 1  200             Rx   d 8 00 00 80 26 80 26 F0 00
 0.265507 1  202             Rx   d 8 00 CC 00 00 00 00 00 00
 0.265744 1  204             Rx   d 8 00 00 FF 00 00 00 00 00
 0.265986 1  230             Rx   d 8 F0 1C 00 00 00 00 00 00
 0.266255 1  41              Rx   d 8 00 00 00 00 00 00 00 00
 0.266459 1  242             Rx   d 8 FF FF 3F FF B6 00 03 01
 0.266745 1  42F             Rx   d 8 7D 02 05 4E 20 FF 00 00
 0.274782 1  167             Rx   d 8 00 FF FF 00 00 02 0F 00
 0.274908 1  204             Rx   d 8 00 00 FF 00 00 00 00 00
 0.276474 1  23A             Rx   d 8 FF FF FF FF F0 00 00 00
 0.276668 1  430             Rx   d 8 00 00 00 00 FE 00 00 00
 0.276921 1  434             Rx   d 8 00 00 00 00 0F FF 00 10
 0.277099 1  435             Rx   d 8 00 00 00 00 00 00 00 00
 0.284798 1  47              Rx   d 8 64 22 BC F4 3B 98 00 00
 0.284848 1  165             Rx   d 8 20 81 00 00 00 00 00 00
 0.284856 1  167             Rx   d 8 00 FF FF 00 00 02 0F 00
 0.285272 1  200             Rx   d 8 00 00 80 26 80 26 F0 00
 0.285300 1  202             Rx   d 8 00 CC 00 00 00 00 00 00
 0.285732 1  204             Rx   d 8 00 00 FF 00 00 00 00 00
 0.285753 1  230             Rx   d 8 F0 1C 00 00 00 00 00 00
 0.286073 1  41              Rx   d 8 00 00 00 00 00 00 00 00
 0.286386 1  42C             Rx   d 8 80 02 00 00 00 00 00 00
 0.294596 1  156             Rx   d 8 BA 00 00 00 00 00 00 00
 0.294650 1  167             Rx   d 8 00 FF FF 00 00 02 0F 00
 0.295004 1  171             Rx   d 8 F0 E0 00 00 00 00 00 00
 0.295024 1  178             Rx   d 8 00 00 02 00 02 54 C6 53
 0.295283 1  179             Rx   d 8 00 00 08 00 22 FF 00 00
 0.295546 1  17C             Rx   d 8 00 00 00 00 00 00 00 00
 0.295956 1  204             Rx   d 8 00 00 FF 00 00 00 00 00
 0.296010 1  42F             Rx   d 8 7D 02 05 4E 20 FF 00 00
 0.304335 1  47              Rx   d 8 64 22 BC F4 3B 98 00 00
 0.304534 1  165             Rx   d 8 20 81 00 00 00 00 00 00
 0.304706 1  167             Rx   d 8 00 FF FF 00 00 02 0F 00
 0.304944 1  200             Rx   d 8 00 00 80 26 80 26 F0 00
 0.305182 1  202             Rx   d 8 00 CC 00 00 00 00 00 00
 0.305446 1  41              Rx   d 8 00 00 00 00 00 00 00 00
 0.305687 1  204             Rx   d 8 00 00 FF 00 00 00 00 00
 0.305939 1  230             Rx   d 8 F0 1C 00 00 00 00 00 00
 0.306168 1  242             Rx   d 8 FF FF 3F FF B6 00 03 01
 0.306424 1  43D             Rx   d 8 14 00 21 00 00 00 00 00
 0.306683 1  43E             Rx   d 8 00 00 00 00 00 00 00 00
 0.314343 1  167             Rx   d 8 00 FF FF 00 00 02 0F 00
 0.314569 1  204             Rx   d 8 00 00 FF 00 00 00 00 00
 0.324474 1  47              Rx   d 8 64 22 BC F4 3B 98 00 00
 0.324517 1  41              Rx   d 8 00 00 00 00 00 00 00 00
 0.324801 1  165             Rx   d 8 20 81 00 00 00 00 00 00
 0.324999 1  167             Rx   d 8 00 FF FF 00 00 02 0F 00
 0.325263 1  171             Rx   d 8 F0 E0 00 00 00 00 00 00
 0.325470 1  200             Rx   d 8 00 00 80 26 80 26 F0 00
 0.325719 1  202             Rx   d 8 00 CC 00 00 00 00 00 00
 0.325951 1  204             Rx   d 8 00 00 FF 00 00 00 00 00
 0.326198 1  230             Rx   d 8 F0 1C 00 00 00 00 00 00
 0.326499 1  42F             Rx   d 8 7D 02 05 4E 20 FF 00 00
 0.334201 1  42C             Rx   d 8 80 02 00 00 00 00 00 00
 0.334378 1  167             Rx   d 8 00 FF FF 00 00 02 0F 00
 0.334611 1  204             Rx   d 8 00 00 FF 00 00 00 00 00
 0.344298 1  47              Rx   d 8 64 22 BC F4 3B 98 00 00
 0.344482 1  165             Rx   d 8 20 81 00 00 00 00 00 00
 0.344701 1  41              Rx   d 8 00 00 00 00 00 00 00 00
 0.344951 1  167             Rx   d 8 00 FF FF 00 00 02 0F 00
 0.345204 1  200             Rx   d 8 00 00 80 26 80 26 F0 00
 0.345441 1  202             Rx   d 8 00 CC 00 00 00 00 00 00
 0.345669 1  204             Rx   d 8 00 00 FF 00 00 00 00 00
 0.345914 1  230             Rx   d 8 F0 1C 00 00 00 00 00 00
 0.346159 1  242             Rx   d 8 FF FF 3F FF B6 00 03 01
 0.354795 1  166             Rx   d 8 76 00 00 FF FF FF 00 00
 0.354835 1  167             Rx   d 8 00 FF FF 00 00 02 0F 00
 0.354840 1  171             Rx   d 8 F0 E0 00 00 00 00 00 00
 0.355071 1  204             Rx   d 8 00 00 FF 00 00 00 00 00
 0.355209 1  421             Rx   d 8 04 00 11 00 00 00 FF 00
 0.355425 1  424             Rx   d 8 00 00 00 03 00 00 00 00
 0.355679 1  42D             Rx   d 8 00 03 FF 00 00 00 F0 00
 0.355912 1  42F             Rx   d 8 7D 02 05 4E 20 FF 00 00
 0.356233 1  43D             Rx   d 8 14 00 21 00 00 00 00 00
 0.356494 1  43E             Rx   d 8 00 00 00 00 00 00 00 00
 0.364164 1  41              Rx   d 8 00 00 00 00 00 00 00 00
 0.364316 1  47              Rx   d 8 64 22 BC F4 3B 98 00 00
 0.364529 1  165             Rx   d 8 20 81 00 00 00 00 00 00
 0.364774 1  167             Rx   d 8 00 FF FF 00 00 02 0F 00
 0.365015 1  200             Rx   d 8 00 00 80 26 80 26 F0 00
End TriggerBlock
