date Wed Mar 12 01:51:59.881 AM 2025
base hex  timestamps absolute
internal events logged
Begin Triggerblock Wed Mar 12 01:51:59.956 AM 2025
 0.000000 Start of measurement
 0.000000 1  3C8             Rx   d 8 00 00 00 EC 00 00 00 00
 0.000193 1  3E0             Rx   d 8 00 00 00 00 80 00 00 00
 0.019311 1  23A             Rx   d 8 FF FF FF FF F0 00 00 00
 0.019463 1  430             Rx   d 8 82 00 40 9B FE 01 13 91
 0.019727 1  434             Rx   d 8 20 00 74 00 04 D2 02 70
 0.019938 1  435             Rx   d 8 00 00 08 1C 00 20 09 00
 0.119333 1  23A             Rx   d 8 FF FF FF FF F0 00 00 00
 0.119491 1  430             Rx   d 8 82 00 40 9B FE 01 13 91
 0.119716 1  434             Rx   d 8 20 00 74 00 04 D2 02 70
 0.119957 1  435             Rx   d 8 00 00 00 14 00 20 09 00
 0.219374 1  23A             Rx   d 8 FF FF FF FF F0 00 00 00
 0.219551 1  430             Rx   d 8 82 00 40 9B FE 01 13 91
 0.219756 1  434             Rx   d 8 20 00 74 00 04 D2 02 70
 0.219992 1  435             Rx   d 8 00 00 08 1C 00 20 09 00
 0.319448 1  23A             Rx   d 8 FF FF FF FF F0 00 00 00
 0.319611 1  430             Rx   d 8 82 00 40 9B FE 01 13 91
 0.319811 1  434             Rx   d 8 20 00 74 00 04 D2 02 70
 0.320040 1  435             Rx   d 8 00 00 00 14 00 20 09 00
 0.419455 1  23A             Rx   d 8 FF FF FF FF F0 00 00 00
 0.419609 1  430             Rx   d 8 82 00 40 9B FE 01 13 91
 0.419834 1  434             Rx   d 8 20 00 74 00 04 D2 02 70
 0.420067 1  435             Rx   d 8 00 00 08 1C 00 20 09 00
 0.519232 1  59E             Rx   d 8 9E 00 FF FF FF FF FF FF
 0.519456 1  23A             Rx   d 8 FF FF FF FF F0 00 00 00
 0.519717 1  2F1             Rx   d 8 00 00 00 00 00 00 00 00
 0.519975 1  386             Rx   d 8 00 00 00 00 00 00 00 00
 0.520194 1  430             Rx   d 8 82 00 40 9B FE 01 13 91
 0.520438 1  434             Rx   d 8 20 00 74 00 04 D2 02 70
 0.520672 1  435             Rx   d 8 00 00 00 14 00 20 09 00
 0.520926 1  437             Rx   d 8 00 00 00 00 00 00 00 00
 0.521184 1  438             Rx   d 8 00 02 00 00 00 00 00 00
 0.521420 1  439             Rx   d 8 00 00 01 00 04 00 00 04
 0.521667 1  43A             Rx   d 8 00 00 00 00 00 00 00 00
 0.619545 1  23A             Rx   d 8 FF FF FF FF F0 00 00 00
 0.619707 1  430             Rx   d 8 82 00 40 9B FE 01 13 91
 0.619928 1  434             Rx   d 8 20 00 74 00 04 D2 02 70
 0.620163 1  435             Rx   d 8 00 00 08 1C 00 20 09 00
 0.719585 1  23A             Rx   d 8 FF FF FF FF F0 00 00 00
 0.719745 1  430             Rx   d 8 82 00 40 9B FE 01 13 91
 0.719990 1  434             Rx   d 8 20 00 74 00 04 D2 02 70
 0.720232 1  435             Rx   d 8 00 00 00 14 00 20 09 00
 0.819652 1  23A             Rx   d 8 FF FF FF FF F0 00 00 00
 0.819840 1  430             Rx   d 8 82 00 40 9B FE 01 13 91
 0.819987 1  434             Rx   d 8 20 00 74 00 04 D2 02 70
 0.820249 1  435             Rx   d 8 00 00 08 1C 00 20 09 00
 0.919670 1  23A             Rx   d 8 FF FF FF FF F0 00 00 00
 0.919871 1  430             Rx   d 8 82 00 40 9B FE 01 13 91
 0.920028 1  434             Rx   d 8 20 00 74 00 04 D2 02 70
 0.920259 1  435             Rx   d 8 00 00 00 14 00 20 09 00
 1.000187 1  3C8             Rx   d 8 00 00 00 EC 00 00 00 00
 1.000238 1  3E0             Rx   d 8 00 00 00 00 80 00 00 00
 1.019680 1  23A             Rx   d 8 FF FF FF FF F0 00 00 00
 1.019857 1  430             Rx   d 8 82 00 40 9B FE 01 13 91
 1.020063 1  434             Rx   d 8 20 00 74 00 04 D2 02 70
 1.020299 1  435             Rx   d 8 00 00 08 1C 00 20 09 00
 1.119846 1  23A             Rx   d 8 FF FF FF FF F0 00 00 00
 1.119893 1  430             Rx   d 8 82 00 40 9B FE 01 13 91
 1.120122 1  434             Rx   d 8 20 00 74 00 04 D2 02 70
 1.120362 1  435             Rx   d 8 00 00 00 14 00 20 09 00
 1.219825 1  23A             Rx   d 8 FF FF FF FF F0 00 00 00
 1.220072 1  430             Rx   d 8 82 00 40 9B FE 01 13 91
 1.220188 1  434             Rx   d 8 20 00 74 00 04 D2 02 70
 1.220405 1  435             Rx   d 8 00 00 08 1C 00 20 09 00
 1.319812 1  23A             Rx   d 8 FF FF FF FF F0 00 00 00
 1.320018 1  430             Rx   d 8 82 00 40 9B FE 01 13 91
 1.320208 1  434             Rx   d 8 20 00 74 00 04 D2 02 70
 1.320423 1  435             Rx   d 8 00 00 00 14 00 20 09 00
 1.420360 1  23A             Rx   d 8 FF FF FF FF F0 00 00 00
 1.420450 1  430             Rx   d 8 82 00 40 9B FE 01 13 91
 1.420458 1  434             Rx   d 8 20 00 74 00 04 D2 02 70
 1.420680 1  435             Rx   d 8 00 00 08 1C 00 20 09 00
 1.520132 1  23A             Rx   d 8 FF FF FF FF F0 00 00 00
 1.520217 1  2F1             Rx   d 8 00 00 00 00 00 00 00 00
 1.520694 1  386             Rx   d 8 00 00 00 00 00 00 00 00
 1.520754 1  430             Rx   d 8 82 00 40 9B FE 01 13 91
 1.521172 1  434             Rx   d 8 20 00 74 00 04 D2 02 70
 1.521210 1  435             Rx   d 8 00 00 00 14 00 20 09 00
 1.521641 1  437             Rx   d 8 00 00 00 00 00 00 00 00
 1.521668 1  438             Rx   d 8 00 02 00 00 00 00 00 00
 1.522183 1  439             Rx   d 8 00 00 01 00 04 00 00 04
 1.522203 1  43A             Rx   d 8 00 00 00 00 00 00 00 00
 1.620083 1  23A             Rx   d 8 FF FF FF FF F0 00 00 00
 1.620123 1  430             Rx   d 8 82 00 40 9B FE 01 13 91
 1.620336 1  434             Rx   d 8 20 00 74 00 04 D2 02 70
 1.620543 1  435             Rx   d 8 00 00 08 1C 00 20 09 00
 1.719972 1  23A             Rx   d 8 FF FF FF FF F0 00 00 00
 1.720112 1  430             Rx   d 8 82 00 40 9B FE 01 13 91
 1.720322 1  434             Rx   d 8 20 00 74 00 04 D2 02 70
 1.720556 1  435             Rx   d 8 00 00 00 14 00 20 09 00
 1.820005 1  23A             Rx   d 8 FF FF FF FF F0 00 00 00
 1.820209 1  430             Rx   d 8 82 00 40 9B FE 01 13 91
 1.820370 1  434             Rx   d 8 20 00 74 00 04 D2 02 70
 1.820598 1  435             Rx   d 8 00 00 08 1C 00 20 09 00
 1.920315 1  23A             Rx   d 8 FF FF FF FF F0 00 00 00
 1.920433 1  430             Rx   d 8 82 00 40 9B FE 01 13 91
 1.920905 1  434             Rx   d 8 20 00 74 00 04 D2 02 70
 1.920933 1  435             Rx   d 8 00 00 00 14 00 20 09 00
 2.000045 1  3C8             Rx   d 8 00 00 00 EC 00 00 00 00
 2.000246 1  3E0             Rx   d 8 00 00 00 00 80 00 00 00
 2.020146 1  23A             Rx   d 8 FF FF FF FF F0 00 00 00
 2.020305 1  430             Rx   d 8 82 00 40 9B FE 01 13 91
 2.020499 1  434             Rx   d 8 20 00 74 00 04 D2 02 70
 2.020732 1  435             Rx   d 8 00 00 08 1C 00 20 09 00
 2.120143 1  23A             Rx   d 8 FF FF FF FF F0 00 00 00
 2.120358 1  430             Rx   d 8 82 00 40 9B FE 01 13 91
 2.120512 1  434             Rx   d 8 20 00 74 00 04 D2 02 70
 2.120768 1  435             Rx   d 8 00 00 00 14 00 20 09 00
 2.220280 1  23A             Rx   d 8 FF FF FF FF F0 00 00 00
 2.220353 1  430             Rx   d 8 82 00 40 9B FE 01 13 91
 2.220543 1  434             Rx   d 8 20 00 74 00 04 D2 02 70
 2.220860 1  435             Rx   d 8 00 00 08 1C 00 20 09 00
 2.320657 1  23A             Rx   d 8 FF FF FF FF F0 00 00 00
 2.320786 1  430             Rx   d 8 82 00 40 9B FE 01 13 91
 2.320798 1  434             Rx   d 8 20 00 74 00 04 D2 02 70
 2.321203 1  435             Rx   d 8 00 00 00 14 00 20 09 00
 2.420249 1  23A             Rx   d 8 FF FF FF FF F0 00 00 00
 2.420490 1  430             Rx   d 8 82 00 40 9B FE 01 13 91
 2.420626 1  434             Rx   d 8 20 00 74 00 04 D2 02 70
 2.420871 1  435             Rx   d 8 00 00 08 1C 00 20 09 00
 2.520298 1  23A             Rx   d 8 FF FF FF FF F0 00 00 00
 2.520460 1  2F1             Rx   d 8 00 00 00 00 00 00 00 00
 2.520705 1  386             Rx   d 8 00 00 00 00 00 00 00 00
 2.520947 1  430             Rx   d 8 82 00 40 9B FE 01 13 91
 2.521176 1  434             Rx   d 8 20 00 74 00 04 D2 02 70
 2.521403 1  435             Rx   d 8 00 00 00 14 00 20 09 00
 2.521646 1  437             Rx   d 8 00 00 00 00 00 00 00 00
 2.521911 1  438             Rx   d 8 00 02 00 00 00 00 00 00
 2.522144 1  439             Rx   d 8 00 00 01 00 04 00 00 04
 2.522389 1  43A             Rx   d 8 00 00 00 00 00 00 00 00
 2.620425 1  23A             Rx   d 8 FF FF FF FF F0 00 00 00
 2.620461 1  430             Rx   d 8 82 00 40 9B FE 01 13 91
 2.620668 1  434             Rx   d 8 20 00 74 00 04 D2 02 70
 2.620900 1  435             Rx   d 8 00 00 08 1C 00 20 09 00
 2.720336 1  23A             Rx   d 8 FF FF FF FF F0 00 00 00
 2.720515 1  430             Rx   d 8 82 00 40 9B FE 01 13 91
 2.720732 1  434             Rx   d 8 20 00 74 00 04 D2 02 70
 2.720953 1  435             Rx   d 8 00 00 00 14 00 20 09 00
 2.820410 1  23A             Rx   d 8 FF FF FF FF F0 00 00 00
 2.820607 1  430             Rx   d 8 82 00 40 9B FE 01 13 91
 2.820767 1  434             Rx   d 8 20 00 74 00 04 D2 02 70
 2.820989 1  435             Rx   d 8 00 00 08 1C 00 20 09 00
 2.920436 1  23A             Rx   d 8 FF FF FF FF F0 00 00 00
 2.920633 1  430             Rx   d 8 82 00 40 9B FE 01 13 91
 2.920767 1  434             Rx   d 8 20 00 74 00 04 D2 02 70
 2.921002 1  435             Rx   d 8 00 00 00 14 00 20 09 00
 2.999952 1  3C8             Rx   d 8 00 00 00 EC 00 00 00 00
 3.000132 1  3E0             Rx   d 8 00 00 00 00 80 00 00 00
 3.020572 1  23A             Rx   d 8 FF FF FF FF F0 00 00 00
 3.020603 1  430             Rx   d 8 82 00 40 9B FE 01 13 91
 3.020823 1  434             Rx   d 8 20 00 74 00 04 D2 02 70
 3.021077 1  435             Rx   d 8 00 00 08 1C 00 20 09 00
 3.120506 1  23A             Rx   d 8 FF FF FF FF F0 00 00 00
 3.120735 1  430             Rx   d 8 82 00 40 9B FE 01 13 91
 3.120855 1  434             Rx   d 8 20 00 74 00 04 D2 02 70
 3.121130 1  435             Rx   d 8 00 00 00 14 00 20 09 00
 3.220506 1  23A             Rx   d 8 FF FF FF FF F0 00 00 00
 3.220690 1  430             Rx   d 8 82 00 40 9B FE 01 13 91
 3.220899 1  434             Rx   d 8 20 00 74 00 04 D2 02 70
 3.221120 1  435             Rx   d 8 00 00 08 1C 00 20 09 00
 3.320773 1  23A             Rx   d 8 FF FF FF FF F0 00 00 00
 3.320898 1  430             Rx   d 8 82 00 40 9B FE 01 13 91
 3.321291 1  434             Rx   d 8 20 00 74 00 04 D2 02 70
 3.321323 1  435             Rx   d 8 00 00 00 14 00 20 09 00
 3.420923 1  23A             Rx   d 8 FF FF FF FF F0 00 00 00
 3.421025 1  430             Rx   d 8 82 00 40 9B FE 01 13 91
 3.421410 1  434             Rx   d 8 20 00 74 00 04 D2 02 70
 3.421440 1  435             Rx   d 8 00 00 08 1C 00 20 09 00
 3.520725 1  23A             Rx   d 8 FF FF FF FF F0 00 00 00
 3.521040 1  2F1             Rx   d 8 00 00 00 00 00 00 00 00
 3.521054 1  386             Rx   d 8 00 00 00 00 00 00 00 00
 3.521335 1  430             Rx   d 8 82 00 40 9B FE 01 13 91
 3.521545 1  434             Rx   d 8 20 00 74 00 04 D2 02 70
 3.521793 1  435             Rx   d 8 00 00 00 14 00 20 09 00
 3.522070 1  437             Rx   d 8 00 00 00 00 00 00 00 00
 3.522297 1  438             Rx   d 8 00 02 00 00 00 00 00 00
 3.522562 1  439             Rx   d 8 00 00 01 00 04 00 00 04
 3.522818 1  43A             Rx   d 8 00 00 00 00 00 00 00 00
 17.296301 1  7E0             Rx   d 8 03 22 03 2B 00 00 00 00
 17.305523 1  59E             Rx   d 8 9E 00 FF FF FF FF FF FF
 17.310803 1  7E              Rx   d 8 FF FF 3E 80 00 04 00 00
 17.310988 1  91              Rx   d 8 FF FE FF FE 00 00 50 00
 17.311232 1  92              Rx   d 8 00 00 00 00 20 00 00 00
 17.311477 1  23A             Rx   d 8 FF FF FF FF F0 00 00 00
 17.311725 1  2F1             Rx   d 8 00 00 00 00 00 00 00 00
 17.311974 1  386             Rx   d 8 00 00 00 00 00 00 00 00
 17.312210 1  430             Rx   d 8 82 00 40 9B FE 01 13 91
 17.312450 1  434             Rx   d 8 20 00 74 00 04 D2 02 70
 17.312691 1  435             Rx   d 8 00 00 08 1C 00 20 09 00
 17.312938 1  437             Rx   d 8 00 00 00 00 00 00 00 00
 17.313196 1  438             Rx   d 8 00 02 00 00 00 00 00 00
 17.313447 1  439             Rx   d 8 00 00 01 00 04 00 00 04
 17.313715 1  43A             Rx   d 8 00 00 00 00 00 00 00 00
 17.410909 1  23A             Rx   d 8 FF FF FF FF F0 00 00 00
 17.411088 1  430             Rx   d 8 80 00 40 9B FE 01 00 00
 17.411267 1  434             Rx   d 8 20 00 70 00 04 D2 02 50
 17.411515 1  435             Rx   d 8 00 00 00 10 00 00 00 00
 17.511262 1  23A             Rx   d 8 FF FF FF FF F0 00 00 00
 17.511322 1  430             Rx   d 8 80 00 40 9B FE 01 00 00
 17.511685 1  434             Rx   d 8 20 00 70 00 04 D2 02 50
 17.511706 1  435             Rx   d 8 00 00 00 10 00 00 00 00
 17.611140 1  23A             Rx   d 8 FF FF FF FF F0 00 00 00
 17.611175 1  430             Rx   d 8 80 00 40 9B FE 01 00 00
 17.611416 1  434             Rx   d 8 20 00 70 00 04 D2 02 50
 17.611669 1  435             Rx   d 8 00 00 00 10 00 00 00 00
 17.711027 1  23A             Rx   d 8 FF FF FF FF F0 00 00 00
 17.711234 1  430             Rx   d 8 80 00 40 9B FE 01 00 00
 17.711400 1  434             Rx   d 8 20 00 70 00 04 D2 02 50
 17.711654 1  435             Rx   d 8 00 00 00 10 00 00 00 00
 17.811260 1  23A             Rx   d 8 FF FF FF FF F0 00 00 00
 17.811293 1  430             Rx   d 8 80 00 40 9B FE 01 00 00
 17.811463 1  434             Rx   d 8 20 00 70 00 04 D2 02 50
 17.811685 1  435             Rx   d 8 00 00 00 10 00 00 00 00
 17.911297 1  23A             Rx   d 8 FF FF FF FF F0 00 00 00
 17.911392 1  430             Rx   d 8 80 00 40 9B FE 01 00 00
 17.911711 1  434             Rx   d 8 20 00 70 00 04 D2 02 50
 17.911729 1  435             Rx   d 8 00 00 00 10 00 00 00 00
 17.922056 1  7E0             Rx   d 8 03 22 03 2B 00 00 00 00
 18.011145 1  23A             Rx   d 8 FF FF FF FF F0 00 00 00
 18.011369 1  430             Rx   d 8 80 00 40 9B FE 01 00 00
 18.011493 1  434             Rx   d 8 20 00 70 00 04 D2 02 50
 18.011765 1  435             Rx   d 8 00 00 00 10 00 00 00 00
 18.111323 1  23A             Rx   d 8 FF FF FF FF F0 00 00 00
 18.111377 1  430             Rx   d 8 80 00 40 9B FE 01 00 00
 18.111558 1  434             Rx   d 8 20 00 70 00 04 D2 02 50
 18.111785 1  435             Rx   d 8 00 00 00 10 00 00 00 00
 18.211485 1  23A             Rx   d 8 FF FF FF FF F0 00 00 00
 18.211594 1  430             Rx   d 8 80 00 40 9B FE 01 00 00
 18.211984 1  434             Rx   d 8 20 00 70 00 04 D2 02 50
 18.212017 1  435             Rx   d 8 00 00 00 10 00 00 00 00
 18.300960 1  59E             Rx   d 8 9E 00 FF FF FF FF FF FF
 18.311248 1  23A             Rx   d 8 FF FF FF FF F0 00 00 00
 18.311414 1  2F1             Rx   d 8 00 00 00 00 00 00 00 00
 18.311693 1  386             Rx   d 8 00 00 00 00 00 00 00 00
 18.311915 1  430             Rx   d 8 80 00 40 9B FE 01 00 00
 18.312166 1  434             Rx   d 8 20 00 70 00 04 D2 02 50
 18.312416 1  435             Rx   d 8 00 00 00 10 00 00 00 00
 18.312668 1  437             Rx   d 8 00 00 00 00 00 00 00 00
 18.312902 1  438             Rx   d 8 00 00 00 00 00 00 00 00
 18.313171 1  439             Rx   d 8 00 00 00 00 04 00 00 00
 18.313411 1  43A             Rx   d 8 00 00 00 00 00 00 00 00
 18.411288 1  23A             Rx   d 8 FF FF FF FF F0 00 00 00
 18.411469 1  430             Rx   d 8 80 00 40 9B FE 01 00 00
 18.411649 1  434             Rx   d 8 20 00 70 00 04 D2 02 50
 18.411887 1  435             Rx   d 8 00 00 00 10 00 00 00 00
 18.511492 1  23A             Rx   d 8 FF FF FF FF F0 00 00 00
 18.511571 1  430             Rx   d 8 80 00 40 9B FE 01 00 00
 18.511750 1  434             Rx   d 8 20 00 70 00 04 D2 02 50
 18.511967 1  435             Rx   d 8 00 00 00 10 00 00 00 00
 18.549971 1  7E0             Rx   d 8 03 22 03 2B 00 00 00 00
 18.611545 1  23A             Rx   d 8 FF FF FF FF F0 00 00 00
 18.611649 1  430             Rx   d 8 80 00 40 9B FE 01 00 00
 18.611994 1  434             Rx   d 8 20 00 70 00 04 D2 02 50
 18.612017 1  435             Rx   d 8 00 00 00 10 00 00 00 00
 18.711381 1  23A             Rx   d 8 FF FF FF FF F0 00 00 00
 18.711563 1  430             Rx   d 8 80 00 40 9B FE 01 00 00
 18.711768 1  434             Rx   d 8 20 00 70 00 04 D2 02 50
 18.712007 1  435             Rx   d 8 00 00 00 10 00 00 00 00
 18.811699 1  23A             Rx   d 8 FF FF FF FF F0 00 00 00
 18.811796 1  430             Rx   d 8 80 00 40 9B FE 01 00 00
 18.812217 1  434             Rx   d 8 20 00 70 00 04 D2 02 50
 18.812247 1  435             Rx   d 8 00 00 00 10 00 00 00 00
 18.911614 1  23A             Rx   d 8 FF FF FF FF F0 00 00 00
 18.911678 1  430             Rx   d 8 80 00 40 9B FE 01 00 00
 18.911894 1  434             Rx   d 8 20 00 70 00 04 D2 02 50
 18.912135 1  435             Rx   d 8 00 00 00 10 00 00 00 00
 19.011515 1  23A             Rx   d 8 FF FF FF FF F0 00 00 00
 19.011733 1  430             Rx   d 8 80 00 40 9B FE 01 00 00
 19.011868 1  434             Rx   d 8 20 00 70 00 04 D2 02 50
 19.012131 1  435             Rx   d 8 00 00 00 10 00 00 00 00
 19.111574 1  23A             Rx   d 8 FF FF FF FF F0 00 00 00
 19.111896 1  430             Rx   d 8 80 00 40 9B FE 01 00 00
 19.111908 1  434             Rx   d 8 20 00 70 00 04 D2 02 50
 19.112190 1  435             Rx   d 8 00 00 00 10 00 00 00 00
 19.181049 1  7E0             Rx   d 8 03 22 F4 0C 00 00 00 00
 19.211824 1  23A             Rx   d 8 FF FF FF FF F0 00 00 00
 19.211947 1  430             Rx   d 8 80 00 40 9B FE 01 00 00
 19.212300 1  434             Rx   d 8 20 00 70 00 04 D2 02 50
 19.212325 1  435             Rx   d 8 00 00 00 10 00 00 00 00
 19.301301 1  59E             Rx   d 8 9E 00 FF FF FF FF FF FF
 19.311517 1  23A             Rx   d 8 FF FF FF FF F0 00 00 00
 19.311757 1  2F1             Rx   d 8 00 00 00 00 00 00 00 00
 19.311998 1  386             Rx   d 8 00 00 00 00 00 00 00 00
 19.312243 1  430             Rx   d 8 80 00 40 9B FE 01 00 00
 19.312482 1  434             Rx   d 8 20 00 70 00 04 D2 02 50
 19.312741 1  435             Rx   d 8 00 00 00 10 00 00 00 00
 19.312989 1  437             Rx   d 8 00 00 00 00 00 00 00 00
 19.313231 1  438             Rx   d 8 00 00 00 00 00 00 00 00
 19.313477 1  439             Rx   d 8 00 00 00 00 04 00 00 00
 19.313732 1  43A             Rx   d 8 00 00 00 00 00 00 00 00
 19.411628 1  23A             Rx   d 8 FF FF FF FF F0 00 00 00
 19.411782 1  430             Rx   d 8 80 00 40 9B FE 01 00 00
 19.412006 1  434             Rx   d 8 20 00 70 00 04 D2 02 50
 19.412249 1  435             Rx   d 8 00 00 00 10 00 00 00 00
 19.511871 1  23A             Rx   d 8 FF FF FF FF F0 00 00 00
 19.511961 1  430             Rx   d 8 80 00 40 9B FE 01 00 00
 19.512161 1  434             Rx   d 8 20 00 70 00 04 D2 02 50
 19.512313 1  435             Rx   d 8 00 00 00 10 00 00 00 00
 19.611875 1  23A             Rx   d 8 FF FF FF FF F0 00 00 00
 19.611943 1  430             Rx   d 8 80 00 40 9B FE 01 00 00
 19.612160 1  434             Rx   d 8 20 00 70 00 04 D2 02 50
 19.612383 1  435             Rx   d 8 00 00 00 10 00 00 00 00
 19.711766 1  23A             Rx   d 8 FF FF FF FF F0 00 00 00
 19.711967 1  430             Rx   d 8 80 00 40 9B FE 01 00 00
 19.712142 1  434             Rx   d 8 20 00 70 00 04 D2 02 50
 19.712382 1  435             Rx   d 8 00 00 00 10 00 00 00 00
 19.804108 1  7E0             Rx   d 8 03 22 F4 0C 00 00 00 00
 19.812278 1  23A             Rx   d 8 FF FF FF FF F0 00 00 00
 19.812330 1  430             Rx   d 8 80 00 40 9B FE 01 00 00
 19.812342 1  434             Rx   d 8 20 00 70 00 04 D2 02 50
 19.812703 1  435             Rx   d 8 00 00 00 10 00 00 00 00
 19.911941 1  23A             Rx   d 8 FF FF FF FF F0 00 00 00
 19.912004 1  430             Rx   d 8 80 00 40 9B FE 01 00 00
 19.912249 1  434             Rx   d 8 20 00 70 00 04 D2 02 50
 19.912473 1  435             Rx   d 8 00 00 00 10 00 00 00 00
 20.011894 1  23A             Rx   d 8 FF FF FF FF F0 00 00 00
 20.012085 1  430             Rx   d 8 80 00 40 9B FE 01 00 00
 20.012232 1  434             Rx   d 8 20 00 70 00 04 D2 02 50
 20.012486 1  435             Rx   d 8 00 00 00 10 00 00 00 00
 20.112376 1  23A             Rx   d 8 FF FF FF FF F0 00 00 00
 20.112497 1  430             Rx   d 8 80 00 40 9B FE 01 00 00
 20.112505 1  434             Rx   d 8 20 00 70 00 04 D2 02 50
 20.112843 1  435             Rx   d 8 00 00 00 10 00 00 00 00
 20.212084 1  23A             Rx   d 8 FF FF FF FF F0 00 00 00
 20.212164 1  430             Rx   d 8 80 00 40 9B FE 01 00 00
 20.212370 1  434             Rx   d 8 20 00 70 00 04 D2 02 50
 20.212631 1  435             Rx   d 8 00 00 00 10 00 00 00 00
 20.301697 1  59E             Rx   d 8 9E 00 FF FF FF FF FF FF
 20.312024 1  23A             Rx   d 8 FF FF FF FF F0 00 00 00
 20.312244 1  2F1             Rx   d 8 00 00 00 00 00 00 00 00
 20.312397 1  386             Rx   d 8 00 00 00 00 00 00 00 00
 20.312637 1  430             Rx   d 8 80 00 40 9B FE 01 00 00
 20.312886 1  434             Rx   d 8 20 00 70 00 04 D2 02 50
 20.313140 1  435             Rx   d 8 00 00 00 10 00 00 00 00
 20.313397 1  437             Rx   d 8 00 00 00 00 00 00 00 00
 20.313647 1  438             Rx   d 8 00 00 00 00 00 00 00 00
 20.313899 1  439             Rx   d 8 00 00 00 00 04 00 00 00
 20.314162 1  43A             Rx   d 8 00 00 00 00 00 00 00 00
 20.412018 1  23A             Rx   d 8 FF FF FF FF F0 00 00 00
 20.412175 1  430             Rx   d 8 80 00 40 9B FE 01 00 00
 20.412384 1  434             Rx   d 8 20 00 70 00 04 D2 02 50
 20.412647 1  435             Rx   d 8 00 00 00 10 00 00 00 00
 20.432415 1  7E0             Rx   d 8 03 22 F4 0C 00 00 00 00
 20.512338 1  23A             Rx   d 8 FF FF FF FF F0 00 00 00
 20.512388 1  430             Rx   d 8 80 00 40 9B FE 01 00 00
 20.512769 1  434             Rx   d 8 20 00 70 00 04 D2 02 50
 20.512793 1  435             Rx   d 8 00 00 00 10 00 00 00 00
 20.612134 1  23A             Rx   d 8 FF FF FF FF F0 00 00 00
 20.612342 1  430             Rx   d 8 80 00 40 9B FE 01 00 00
 20.612498 1  434             Rx   d 8 20 00 70 00 04 D2 02 50
 20.612760 1  435             Rx   d 8 00 00 00 10 00 00 00 00
 20.712156 1  23A             Rx   d 8 FF FF FF FF F0 00 00 00
 20.712367 1  430             Rx   d 8 80 00 40 9B FE 01 00 00
 20.712515 1  434             Rx   d 8 20 00 70 00 04 D2 02 50
 20.712765 1  435             Rx   d 8 00 00 00 10 00 00 00 00
 20.812220 1  23A             Rx   d 8 FF FF FF FF F0 00 00 00
 20.812637 1  430             Rx   d 8 80 00 40 9B FE 01 00 00
 20.812667 1  434             Rx   d 8 20 00 70 00 04 D2 02 50
 20.812912 1  435             Rx   d 8 00 00 00 10 00 00 00 00
 20.912416 1  23A             Rx   d 8 FF FF FF FF F0 00 00 00
 20.912503 1  430             Rx   d 8 80 00 40 9B FE 01 00 00
 20.912740 1  434             Rx   d 8 20 00 70 00 04 D2 02 50
 20.913005 1  435             Rx   d 8 00 00 00 10 00 00 00 00
 21.012292 1  23A             Rx   d 8 FF FF FF FF F0 00 00 00
 21.012626 1  430             Rx   d 8 80 00 40 9B FE 01 00 00
 21.012643 1  434             Rx   d 8 20 00 70 00 04 D2 02 50
 21.012933 1  435             Rx   d 8 00 00 00 10 00 00 00 00
 21.112316 1  23A             Rx   d 8 FF FF FF FF F0 00 00 00
 21.112516 1  430             Rx   d 8 80 00 40 9B FE 01 00 00
 21.112699 1  434             Rx   d 8 20 00 70 00 04 D2 02 50
 21.112951 1  435             Rx   d 8 00 00 00 10 00 00 00 00
 21.202708 1  7DF             Rx   d 8 02 01 0C 00 00 00 00 00
 21.212356 1  23A             Rx   d 8 FF FF FF FF F0 00 00 00
 21.212525 1  430             Rx   d 8 80 00 40 9B FE 01 00 00
 21.212713 1  434             Rx   d 8 20 00 70 00 04 D2 02 50
 21.213040 1  435             Rx   d 8 00 00 00 10 00 00 00 00
 21.302053 1  59E             Rx   d 8 9E 00 FF FF FF FF FF FF
 21.312604 1  23A             Rx   d 8 FF FF FF FF F0 00 00 00
 21.312649 1  2F1             Rx   d 8 00 00 00 00 00 00 00 00
 21.312961 1  386             Rx   d 8 00 00 00 00 00 00 00 00
 21.312977 1  430             Rx   d 8 80 00 40 9B FE 01 00 00
 21.313316 1  434             Rx   d 8 20 00 70 00 04 D2 02 50
 21.313521 1  435             Rx   d 8 00 00 00 10 00 00 00 00
 21.313781 1  437             Rx   d 8 00 00 00 00 00 00 00 00
 21.314091 1  438             Rx   d 8 00 00 00 00 00 00 00 00
 21.314233 1  439             Rx   d 8 00 00 00 00 04 00 00 00
 21.314486 1  43A             Rx   d 8 00 00 00 00 00 00 00 00
 21.412414 1  23A             Rx   d 8 FF FF FF FF F0 00 00 00
 21.412594 1  430             Rx   d 8 80 00 40 9B FE 01 00 00
 21.412766 1  434             Rx   d 8 20 00 70 00 04 D2 02 50
 21.413014 1  435             Rx   d 8 00 00 00 10 00 00 00 00
 21.512696 1  23A             Rx   d 8 FF FF FF FF F0 00 00 00
 21.512753 1  430             Rx   d 8 80 00 40 9B FE 01 00 00
 21.513160 1  434             Rx   d 8 20 00 70 00 04 D2 02 50
 21.513183 1  435             Rx   d 8 00 00 00 10 00 00 00 00
 21.612774 1  23A             Rx   d 8 FF FF FF FF F0 00 00 00
 21.612826 1  430             Rx   d 8 80 00 40 9B FE 01 00 00
