date Wed Mar 12 01:48:42.903 AM 2025
base hex  timestamps absolute
internal events logged
Begin Triggerblock Wed Mar 12 01:48:42.904 AM 2025
 0.000000 Start of measurement
 0.000000 1  331             Rx   d 8 C0 00 4B C0 02 00 00 00
 0.006272 1  47              Rx   d 8 64 7D 93 86 95 15 00 00
 0.006312 1  165             Rx   d 8 20 81 00 00 00 00 00 00
 0.006597 1  167             Rx   d 8 00 FF FF 00 00 02 0B 00
 0.006787 1  171             Rx   d 8 F0 E0 00 00 00 00 00 00
 0.007042 1  200             Rx   d 8 00 00 80 26 80 26 F0 00
 0.007292 1  202             Rx   d 8 00 CC 00 00 00 00 00 00
 0.007549 1  204             Rx   d 8 00 00 FF 00 00 00 00 00
 0.007806 1  230             Rx   d 8 F0 1C 00 00 00 00 00 00
 0.008051 1  42F             Rx   d 8 7D 02 05 38 40 FF 00 00
 0.008848 1  23A             Rx   d 8 FF FF FF FF F0 00 00 00
 0.009022 1  430             Rx   d 8 A2 00 40 9B FE 01 13 91
 0.009279 1  434             Rx   d 8 20 00 74 00 04 D2 02 70
 0.009526 1  435             Rx   d 8 00 00 00 14 00 20 09 00
 0.009811 1  41              Rx   d 8 00 00 00 00 00 00 00 00
 0.016171 1  167             Rx   d 8 00 FF FF 00 00 02 0B 00
 0.016360 1  204             Rx   d 8 00 00 FF 00 00 00 00 00
 0.026137 1  47              Rx   d 8 64 7D 93 86 95 15 00 00
 0.026337 1  165             Rx   d 8 20 81 00 00 00 00 00 00
 0.026547 1  167             Rx   d 8 00 FF FF 00 00 02 0B 00
 0.026754 1  200             Rx   d 8 00 00 80 26 80 26 F0 00
 0.027028 1  202             Rx   d 8 00 CC 00 00 00 00 00 00
 0.027263 1  204             Rx   d 8 00 00 FF 00 00 00 00 00
 0.027501 1  230             Rx   d 8 F0 1C 00 00 00 00 00 00
 0.029689 1  41              Rx   d 8 00 00 00 00 00 00 00 00
 0.029879 1  242             Rx   d 8 01 F1 3F FF B5 00 03 01
 0.036402 1  167             Rx   d 8 00 FF FF 00 00 02 0B 00
 0.036443 1  171             Rx   d 8 F0 E0 00 00 00 00 00 00
 0.036603 1  204             Rx   d 8 00 00 FF 00 00 00 00 00
 0.036815 1  42F             Rx   d 8 7D 02 05 38 40 FF 00 00
 0.037030 1  43D             Rx   d 8 14 00 21 00 00 00 00 00
 0.037302 1  43E             Rx   d 8 00 00 00 00 00 00 00 00
 0.039022 1  42C             Rx   d 8 80 0C A0 00 00 00 00 00
 0.046304 1  47              Rx   d 8 64 7D 93 86 95 15 00 00
 0.046346 1  165             Rx   d 8 20 81 00 00 00 00 00 00
 0.046650 1  167             Rx   d 8 00 FF FF 00 00 02 0B 00
 0.046829 1  200             Rx   d 8 00 00 80 26 80 26 F0 00
 0.047095 1  202             Rx   d 8 00 CC 00 00 00 00 00 00
 0.047309 1  204             Rx   d 8 00 00 FF 00 00 00 00 00
 0.047564 1  230             Rx   d 8 F0 1C 00 00 00 00 00 00
 0.049115 1  41              Rx   d 8 00 00 00 00 00 00 00 00
 0.053297 1  3C8             Rx   d 8 00 00 00 EC 00 00 00 00
 0.053338 1  3E0             Rx   d 8 00 00 00 00 80 00 00 00
 0.056285 1  167             Rx   d 8 00 FF FF 00 00 02 0B 00
 0.056321 1  204             Rx   d 8 00 00 FF 00 00 00 00 00
 0.066348 1  47              Rx   d 8 64 7D 93 86 95 15 00 00
 0.066386 1  165             Rx   d 8 20 81 00 00 00 00 00 00
 0.066645 1  167             Rx   d 8 00 FF FF 00 00 02 0B 00
 0.066805 1  171             Rx   d 8 F0 E0 00 00 00 00 00 00
 0.067008 1  200             Rx   d 8 00 00 80 26 80 26 F0 00
 0.067294 1  202             Rx   d 8 00 CC 00 00 00 00 00 00
 0.067510 1  204             Rx   d 8 00 00 FF 00 00 00 00 00
 0.067752 1  230             Rx   d 8 F0 1C 00 00 00 00 00 00
 0.067981 1  42F             Rx   d 8 7D 02 05 38 40 FF 00 00
 0.069037 1  41              Rx   d 8 00 00 00 00 00 00 00 00
 0.069216 1  242             Rx   d 8 01 F1 3F FF B5 00 03 01
 0.076187 1  167             Rx   d 8 00 FF FF 00 00 02 0B 00
 0.076371 1  204             Rx   d 8 00 00 FF 00 00 00 00 00
 0.086164 1  47              Rx   d 8 64 7D 93 86 95 15 00 00
 0.086335 1  156             Rx   d 8 BA 00 00 00 00 00 00 00
 0.086497 1  165             Rx   d 8 20 81 00 00 00 00 00 00
 0.086750 1  166             Rx   d 8 76 00 00 FF FF FF 00 00
 0.087000 1  167             Rx   d 8 00 FF FF 00 00 02 0B 00
 0.087236 1  178             Rx   d 8 00 00 02 00 02 54 C6 53
 0.087476 1  179             Rx   d 8 00 00 08 00 22 FF 00 00
 0.087754 1  17C             Rx   d 8 00 00 00 00 00 00 00 00
 0.088027 1  200             Rx   d 8 00 00 80 26 80 26 F0 00
 0.088289 1  202             Rx   d 8 00 CC 00 00 00 00 00 00
 0.088471 1  204             Rx   d 8 00 00 FF 00 00 00 00 00
 0.088751 1  41              Rx   d 8 00 00 00 00 00 00 00 00
 0.089021 1  230             Rx   d 8 F0 1C 00 00 00 00 00 00
 0.089258 1  421             Rx   d 8 04 00 11 00 00 00 FF 00
 0.089517 1  424             Rx   d 8 00 00 00 03 00 00 00 00
 0.089782 1  42C             Rx   d 8 80 0C A0 00 00 00 00 00
 0.090027 1  42D             Rx   d 8 00 03 FF 00 00 00 F0 00
 0.090285 1  43D             Rx   d 8 14 00 21 00 00 00 00 00
 0.090500 1  43E             Rx   d 8 00 00 00 00 00 00 00 00
 0.096142 1  167             Rx   d 8 00 FF FF 00 00 02 0B 00
 0.096316 1  171             Rx   d 8 F0 E0 00 00 00 00 00 00
 0.096533 1  204             Rx   d 8 00 00 FF 00 00 00 00 00
 0.096759 1  42F             Rx   d 8 7D 02 05 38 40 FF 00 00
 0.106259 1  47              Rx   d 8 64 7D 93 86 95 15 00 00
 0.106296 1  165             Rx   d 8 20 81 00 00 00 00 00 00
 0.106516 1  167             Rx   d 8 00 FF FF 00 00 02 0B 00
 0.106800 1  200             Rx   d 8 00 00 80 26 80 26 F0 00
 0.107023 1  202             Rx   d 8 00 CC 00 00 00 00 00 00
 0.107273 1  204             Rx   d 8 00 00 FF 00 00 00 00 00
 0.107524 1  230             Rx   d 8 F0 1C 00 00 00 00 00 00
 0.108662 1  41              Rx   d 8 00 00 00 00 00 00 00 00
 0.108688 1  242             Rx   d 8 01 F1 3F FF B5 00 03 01
 0.108849 1  23A             Rx   d 8 FF FF FF FF F0 00 00 00
 0.109294 1  430             Rx   d 8 A2 00 40 9B FE 01 13 91
 0.109441 1  434             Rx   d 8 20 00 74 00 04 D2 02 70
 0.109722 1  435             Rx   d 8 00 00 08 1C 00 20 09 00
 0.116282 1  167             Rx   d 8 00 FF FF 00 00 02 0B 00
 0.116316 1  204             Rx   d 8 00 00 FF 00 00 00 00 00
 0.126122 1  47              Rx   d 8 64 7D 93 86 95 15 00 00
 0.126333 1  165             Rx   d 8 20 81 00 00 00 00 00 00
 0.126519 1  167             Rx   d 8 00 FF FF 00 00 02 0B 00
 0.126748 1  171             Rx   d 8 F0 E0 00 00 00 00 00 00
 0.126981 1  200             Rx   d 8 00 00 80 26 80 26 F0 00
 0.127245 1  202             Rx   d 8 00 CC 00 00 00 00 00 00
 0.127495 1  204             Rx   d 8 00 00 FF 00 00 00 00 00
 0.127741 1  41              Rx   d 8 00 00 00 00 00 00 00 00
 0.127983 1  230             Rx   d 8 F0 1C 00 00 00 00 00 00
 0.128207 1  42F             Rx   d 8 7D 02 05 38 40 FF 00 00
 0.136266 1  167             Rx   d 8 00 FF FF 00 00 02 0B 00
 0.136302 1  204             Rx   d 8 00 00 FF 00 00 00 00 00
 0.136529 1  43D             Rx   d 8 14 00 21 00 00 00 00 00
 0.136761 1  43E             Rx   d 8 00 00 00 00 00 00 00 00
 0.137312 1  42C             Rx   d 8 80 0C A0 00 00 00 00 00
 0.146273 1  47              Rx   d 8 64 7D 93 86 95 15 00 00
 0.146306 1  165             Rx   d 8 20 81 00 00 00 00 00 00
 0.146517 1  167             Rx   d 8 00 FF FF 00 00 02 0B 00
 0.146758 1  200             Rx   d 8 00 00 80 26 80 26 F0 00
 0.146983 1  202             Rx   d 8 00 CC 00 00 00 00 00 00
 0.147343 1  204             Rx   d 8 00 00 FF 00 00 00 00 00
 0.147478 1  230             Rx   d 8 F0 1C 00 00 00 00 00 00
 0.147943 1  41              Rx   d 8 00 00 00 00 00 00 00 00
 0.148161 1  242             Rx   d 8 01 F1 3F FF B5 00 03 01
 0.156154 1  167             Rx   d 8 00 FF FF 00 00 02 0B 00
 0.156369 1  171             Rx   d 8 F0 E0 00 00 00 00 00 00
 0.156554 1  204             Rx   d 8 00 00 FF 00 00 00 00 00
 0.156795 1  42F             Rx   d 8 7D 02 05 38 40 FF 00 00
 0.166138 1  47              Rx   d 8 64 7D 93 86 95 15 00 00
 0.166295 1  165             Rx   d 8 20 81 00 00 00 00 00 00
 0.166498 1  167             Rx   d 8 00 FF FF 00 00 02 0B 00
 0.166731 1  200             Rx   d 8 00 00 80 26 80 26 F0 00
 0.166987 1  41              Rx   d 8 00 00 00 00 00 00 00 00
 0.167232 1  202             Rx   d 8 00 CC 00 00 00 00 00 00
 0.167484 1  204             Rx   d 8 00 00 FF 00 00 00 00 00
 0.167747 1  230             Rx   d 8 F0 1C 00 00 00 00 00 00
 0.176295 1  167             Rx   d 8 00 FF FF 00 00 02 0B 00
 0.176329 1  204             Rx   d 8 00 00 FF 00 00 00 00 00
 0.186242 1  47              Rx   d 8 64 7D 93 86 95 15 00 00
 0.186282 1  156             Rx   d 8 BA 00 00 00 00 00 00 00
 0.186513 1  165             Rx   d 8 20 81 00 00 00 00 00 00
 0.186748 1  166             Rx   d 8 76 00 00 FF FF FF 00 00
 0.187010 1  167             Rx   d 8 00 FF FF 00 00 02 0B 00
 0.187230 1  41              Rx   d 8 00 00 00 00 00 00 00 00
 0.187469 1  171             Rx   d 8 F0 E0 00 00 00 00 00 00
 0.187709 1  178             Rx   d 8 00 00 02 00 02 54 C6 53
 0.187949 1  179             Rx   d 8 00 00 08 00 22 FF 00 00
 0.188201 1  17C             Rx   d 8 00 00 00 00 00 00 00 00
 0.188449 1  200             Rx   d 8 00 00 80 26 80 26 F0 00
 0.188707 1  202             Rx   d 8 00 CC 00 00 00 00 00 00
 0.188943 1  204             Rx   d 8 00 00 FF 00 00 00 00 00
 0.189198 1  230             Rx   d 8 F0 1C 00 00 00 00 00 00
 0.189429 1  242             Rx   d 8 01 F1 3F FF B5 00 03 01
 0.189678 1  38D             Rx   d 8 20 00 00 00 00 00 00 F0
 0.189928 1  3B1             Rx   d 8 00 00 00 00 00 00 00 00
 0.190199 1  3B6             Rx   d 8 0A 00 00 00 00 00 00 00
 0.190430 1  3B7             Rx   d 8 00 00 00 00 00 00 00 00
 0.190670 1  3B8             Rx   d 8 FF FF FF FF 00 00 00 00
 0.190921 1  3E3             Rx   d 8 00 01 04 11 80 00 00 00
 0.191166 1  421             Rx   d 8 04 00 11 00 00 00 FF 00
 0.191413 1  3EB             Rx   d 8 00 04 04 00 00 00 00 00
 0.191666 1  424             Rx   d 8 00 00 00 03 00 00 00 00
 0.191901 1  40A             Rx   d 8 C1 02 32 38 38 33 36 00
 0.192151 1  42D             Rx   d 8 00 03 FF 00 00 00 F0 00
 0.192403 1  42C             Rx   d 8 80 0C A0 00 00 00 00 00
 0.192636 1  42F             Rx   d 8 7D 02 05 38 40 FF 00 00
 0.192866 1  43C             Rx   d 8 B2 00 4B 2C 3C 99 88 14
 0.193120 1  43D             Rx   d 8 14 00 21 00 00 00 00 00
 0.193380 1  43E             Rx   d 8 00 00 00 00 00 00 00 00
 0.193621 1  447             Rx   d 8 20 00 00 4B 00 20 00 00
 0.196164 1  167             Rx   d 8 00 FF FF 00 00 02 0B 00
 0.196367 1  204             Rx   d 8 00 00 FF 00 00 00 00 00
 0.206135 1  47              Rx   d 8 64 7D 93 86 95 15 00 00
 0.206301 1  41              Rx   d 8 00 00 00 00 00 00 00 00
 0.206525 1  165             Rx   d 8 20 81 00 00 00 00 00 00
 0.206769 1  167             Rx   d 8 00 FF FF 00 00 02 0B 00
 0.207001 1  200             Rx   d 8 00 00 80 26 80 26 F0 00
 0.207259 1  202             Rx   d 8 00 CC 00 00 00 00 00 00
 0.207542 1  204             Rx   d 8 00 00 FF 00 00 00 00 00
 0.207821 1  230             Rx   d 8 F0 1C 00 00 00 00 00 00
 0.208907 1  23A             Rx   d 8 FF FF FF FF F0 00 00 00
 0.208933 1  430             Rx   d 8 A2 00 40 9B FE 01 13 91
 0.209188 1  434             Rx   d 8 20 00 74 00 04 D2 02 70
 0.209424 1  435             Rx   d 8 00 00 00 14 00 20 09 00
 0.216360 1  167             Rx   d 8 00 FF FF 00 00 02 0B 00
 0.216404 1  171             Rx   d 8 F0 E0 00 00 00 00 00 00
 0.216573 1  204             Rx   d 8 00 00 FF 00 00 00 00 00
 0.216784 1  42F             Rx   d 8 7D 02 05 38 40 FF 00 00
 0.226146 1  47              Rx   d 8 64 7D 93 86 95 15 00 00
 0.226341 1  41              Rx   d 8 00 00 00 00 00 00 00 00
 0.226522 1  165             Rx   d 8 20 81 00 00 00 00 00 00
 0.226777 1  167             Rx   d 8 00 FF FF 00 00 02 0B 00
 0.227000 1  200             Rx   d 8 00 00 80 26 80 26 F0 00
 0.227233 1  202             Rx   d 8 00 CC 00 00 00 00 00 00
 0.227476 1  204             Rx   d 8 00 00 FF 00 00 00 00 00
 0.227722 1  230             Rx   d 8 F0 1C 00 00 00 00 00 00
 0.227965 1  242             Rx   d 8 01 F1 3F FF B5 00 03 01
 0.235578 1  3B4             Rx   d 8 18 21 11 FF 1E 1A 00 00
 0.235751 1  42C             Rx   d 8 80 0C A0 00 00 00 00 00
 0.236047 1  167             Rx   d 8 00 FF FF 00 00 02 0B 00
 0.236274 1  204             Rx   d 8 00 00 FF 00 00 00 00 00
 0.236519 1  43D             Rx   d 8 14 00 21 00 00 00 00 00
 0.236769 1  43E             Rx   d 8 00 00 00 00 00 00 00 00
 0.245656 1  41              Rx   d 8 00 00 00 00 00 00 00 00
 0.245817 1  3B5             Rx   d 8 FF FD FF FD FF FD FF FD
 0.246002 1  47              Rx   d 8 64 7D 93 86 95 15 00 00
 0.246255 1  165             Rx   d 8 20 81 00 00 00 00 00 00
 0.246513 1  167             Rx   d 8 00 FF FF 00 00 02 0B 00
 0.246759 1  171             Rx   d 8 F0 E0 00 00 00 00 00 00
 0.246991 1  200             Rx   d 8 00 00 80 26 80 26 F0 00
 0.247237 1  202             Rx   d 8 00 CC 00 00 00 00 00 00
 0.247495 1  204             Rx   d 8 00 00 FF 00 00 00 00 00
 0.247734 1  230             Rx   d 8 F0 1C 00 00 00 00 00 00
 0.247973 1  42F             Rx   d 8 7D 02 05 38 40 FF 00 00
 0.256398 1  167             Rx   d 8 00 FF FF 00 00 02 0B 00
 0.256432 1  204             Rx   d 8 00 00 FF 00 00 00 00 00
 0.265633 1  41              Rx   d 8 00 00 00 00 00 00 00 00
 0.265795 1  242             Rx   d 8 01 F1 3F FF B5 00 03 01
 0.265995 1  3C7             Rx   d 8 00 00 40 00 00 00 00 00
 0.266225 1  47              Rx   d 8 64 7D 93 86 95 15 00 00
 0.266476 1  165             Rx   d 8 20 81 00 00 00 00 00 00
 0.266722 1  167             Rx   d 8 00 FF FF 00 00 02 0B 00
 0.266987 1  200             Rx   d 8 00 00 80 26 80 26 F0 00
 0.267236 1  202             Rx   d 8 00 CC 00 00 00 00 00 00
 0.267495 1  204             Rx   d 8 00 00 FF 00 00 00 00 00
 0.267733 1  230             Rx   d 8 F0 1C 00 00 00 00 00 00
 0.276143 1  167             Rx   d 8 00 FF FF 00 00 02 0B 00
 0.276333 1  171             Rx   d 8 F0 E0 00 00 00 00 00 00
 0.276528 1  204             Rx   d 8 00 00 FF 00 00 00 00 00
 0.276759 1  42F             Rx   d 8 7D 02 05 38 40 FF 00 00
 0.285651 1  41              Rx   d 8 00 00 00 00 00 00 00 00
 0.285689 1  3B3             Rx   d 8 44 8C C0 0C E6 00 03 3E
 0.285868 1  3C3             Rx   d 8 5C 80 10 C1 01 00 01 00
 0.286098 1  47              Rx   d 8 64 7D 93 86 95 15 00 00
 0.286318 1  156             Rx   d 8 BA 00 00 00 00 00 00 00
 0.286540 1  165             Rx   d 8 20 81 00 00 00 00 00 00
 0.286778 1  166             Rx   d 8 76 00 00 FF FF FF 00 00
 0.287058 1  167             Rx   d 8 00 FF FF 00 00 02 0B 00
 0.287267 1  178             Rx   d 8 00 00 02 00 02 54 C6 53
 0.287511 1  179             Rx   d 8 00 00 08 00 22 FF 00 00
 0.287757 1  17C             Rx   d 8 00 00 00 00 00 00 00 00
 0.287998 1  200             Rx   d 8 00 00 80 26 80 26 F0 00
 0.288270 1  202             Rx   d 8 00 CC 00 00 00 00 00 00
 0.288511 1  204             Rx   d 8 00 00 FF 00 00 00 00 00
 0.288754 1  230             Rx   d 8 F0 1C 00 00 00 00 00 00
 0.289003 1  421             Rx   d 8 04 00 11 00 00 00 FF 00
 0.289250 1  424             Rx   d 8 00 00 00 03 00 00 00 00
 0.289526 1  42C             Rx   d 8 80 0C A0 00 00 00 00 00
 0.289746 1  42D             Rx   d 8 00 03 FF 00 00 00 F0 00
 0.289994 1  43D             Rx   d 8 14 00 21 00 00 00 00 00
 0.290257 1  43E             Rx   d 8 00 00 00 00 00 00 00 00
 0.296275 1  167             Rx   d 8 00 FF FF 00 00 02 0B 00
 0.296309 1  204             Rx   d 8 00 00 FF 00 00 00 00 00
 0.305029 1  41              Rx   d 8 00 00 00 00 00 00 00 00
 0.305193 1  242             Rx   d 8 01 F1 3F FF B5 00 03 01
 0.305998 1  47              Rx   d 8 64 7D 93 86 95 15 00 00
 0.306251 1  165             Rx   d 8 20 81 00 00 00 00 00 00
 0.306510 1  167             Rx   d 8 00 FF FF 00 00 02 0B 00
 0.306755 1  171             Rx   d 8 F0 E0 00 00 00 00 00 00
 0.306998 1  200             Rx   d 8 00 00 80 26 80 26 F0 00
 0.307248 1  202             Rx   d 8 00 CC 00 00 00 00 00 00
 0.307490 1  204             Rx   d 8 00 00 FF 00 00 00 00 00
 0.307735 1  230             Rx   d 8 F0 1C 00 00 00 00 00 00
 0.307986 1  42F             Rx   d 8 7D 02 05 38 40 FF 00 00
 0.309098 1  23A             Rx   d 8 FF FF FF FF F0 00 00 00
 0.309463 1  430             Rx   d 8 A2 00 40 9B FE 01 13 91
 0.309690 1  434             Rx   d 8 20 00 74 00 04 D2 02 70
 0.309925 1  435             Rx   d 8 00 00 08 1C 00 20 09 00
 0.310754 1  581             Rx   d 8 81 00 FF FF FF FF FF FF
 0.316160 1  167             Rx   d 8 00 FF FF 00 00 02 0B 00
 0.316312 1  204             Rx   d 8 00 00 FF 00 00 00 00 00
 0.324353 1  41              Rx   d 8 00 00 00 00 00 00 00 00
 0.326137 1  47              Rx   d 8 64 7D 93 86 95 15 00 00
 0.326295 1  165             Rx   d 8 20 81 00 00 00 00 00 00
 0.326503 1  167             Rx   d 8 00 FF FF 00 00 02 0B 00
 0.326743 1  200             Rx   d 8 00 00 80 26 80 26 F0 00
 0.326993 1  202             Rx   d 8 00 CC 00 00 00 00 00 00
 0.327257 1  204             Rx   d 8 00 00 FF 00 00 00 00 00
 0.327486 1  230             Rx   d 8 F0 1C 00 00 00 00 00 00
 0.334048 1  42C             Rx   d 8 80 0C A0 00 00 00 00 00
 0.336263 1  167             Rx   d 8 00 FF FF 00 00 02 0B 00
 0.336309 1  171             Rx   d 8 F0 E0 00 00 00 00 00 00
 0.336583 1  204             Rx   d 8 00 00 FF 00 00 00 00 00
 0.336772 1  42F             Rx   d 8 7D 02 05 38 40 FF 00 00
 0.337059 1  43D             Rx   d 8 14 00 21 00 00 00 00 00
 0.337285 1  43E             Rx   d 8 00 00 00 00 00 00 00 00
 0.344335 1  41              Rx   d 8 00 00 00 00 00 00 00 00
 0.344509 1  242             Rx   d 8 01 F1 3F FF B5 00 03 01
 0.346066 1  47              Rx   d 8 64 7D 93 86 95 15 00 00
 0.346263 1  165             Rx   d 8 20 81 00 00 00 00 00 00
 0.346506 1  167             Rx   d 8 00 FF FF 00 00 02 0B 00
 0.346751 1  200             Rx   d 8 00 00 80 26 80 26 F0 00
 0.347009 1  202             Rx   d 8 00 CC 00 00 00 00 00 00
 0.347249 1  204             Rx   d 8 00 00 FF 00 00 00 00 00
 0.347540 1  230             Rx   d 8 F0 1C 00 00 00 00 00 00
 0.356149 1  167             Rx   d 8 00 FF FF 00 00 02 0B 00
 0.356305 1  204             Rx   d 8 00 00 FF 00 00 00 00 00
 0.363616 1  41              Rx   d 8 00 00 00 00 00 00 00 00
 0.376253 1  167             Rx   d 8 00 FF FF 00 00 02 0B 00
 0.396164 1  167             Rx   d 8 00 FF FF 00 00 02 0B 00
 0.408949 1  23A             Rx   d 8 FF FF FF FF F0 00 00 00
 0.423024 1  41              Rx   d 8 00 00 00 00 00 00 00 00
 0.442404 1  41              Rx   d 8 00 00 00 00 00 00 00 00
 0.456257 1  167             Rx   d 8 00 FF FF 00 00 02 0B 00
 0.466774 1  200             Rx   d 8 00 00 80 26 80 26 F0 00
 0.482006 1  41              Rx   d 8 00 00 00 00 00 00 00 00
 0.497597 1  59E             Rx   d 8 9E 00 FF FF FF FF FF FF
 0.509745 1  430             Rx   d 8 A2 00 40 9B FE 01 13 91
 0.527500 1  230             Rx   d 8 F0 1C 00 00 00 00 00 00
 0.541006 1  41              Rx   d 8 00 00 00 00 00 00 00 00
 0.556318 1  167             Rx   d 8 00 FF FF 00 00 02 0B 00
 0.566107 1  47              Rx   d 8 64 7D 93 86 95 15 00 00
 0.581038 1  40A             Rx   d 8 C1 10 40 84 20 08 80 00
 0.596271 1  167             Rx   d 8 00 FF FF 00 00 02 0B 00
 0.606739 1  171             Rx   d 8 F0 E0 00 00 00 00 00 00
 0.616134 1  167             Rx   d 8 00 FF FF 00 00 02 0B 00
 0.636345 1  167             Rx   d 8 00 FF FF 00 00 02 0B 00
 0.646097 1  47              Rx   d 8 64 7D 93 86 95 15 00 00
 0.666355 1  47              Rx   d 8 64 7D 93 86 95 15 00 00
 0.676257 1  167             Rx   d 8 00 FF FF 00 00 02 0B 00
 0.696279 1  167             Rx   d 8 00 FF FF 00 00 02 0B 00
 0.698671 1  41              Rx   d 8 00 00 00 00 00 00 00 00
 0.716170 1  167             Rx   d 8 00 FF FF 00 00 02 0B 00
 0.727501 1  204             Rx   d 8 00 00 FF 00 00 00 00 00
 0.746258 1  47              Rx   d 8 64 7D 93 86 95 15 00 00
 0.756137 1  167             Rx   d 8 00 FF FF 00 00 02 0B 00
 0.776342 1  167             Rx   d 8 00 FF FF 00 00 02 0B 00
 0.786082 1  84              Rx   d 8 00 00 00 01 15 23 0C 00
 0.806160 1  47              Rx   d 8 64 7D 93 86 95 15 00 00
 0.825365 1  42C             Rx   d 8 80 0C A0 00 00 00 00 00
 0.835456 1  41              Rx   d 8 00 00 00 00 00 00 00 00
 0.846124 1  47              Rx   d 8 64 7D 93 86 95 15 00 00
 0.855708 1  41              Rx   d 8 00 00 00 00 00 00 00 00
 0.866137 1  47              Rx   d 8 64 7D 93 86 95 15 00 00
 0.886122 1  47              Rx   d 8 64 7D 93 86 95 15 00 00
 0.906108 1  47              Rx   d 8 64 7D 93 86 95 15 00 00
 0.910109 1  435             Rx   d 8 00 00 08 1C 00 20 09 00
 0.927246 1  204             Rx   d 8 00 00 FF 00 00 00 00 00
 0.946137 1  47              Rx   d 8 64 7D 93 86 95 15 00 00
 0.966151 1  47              Rx   d 8 64 7D 93 86 95 15 00 00
 0.973970 1  41              Rx   d 8 00 00 00 00 00 00 00 00
 0.986135 1  47              Rx   d 8 64 7D 93 86 95 15 00 00
 1.002563 1  331             Rx   d 8 C0 00 4B C1 02 00 00 00
 1.021995 1  42C             Rx   d 8 80 0C A0 00 00 00 00 00
 1.036077 1  167             Rx   d 8 00 FF FF 00 00 02 0B 00
 1.053249 1  3E0             Rx   d 8 00 00 00 00 80 00 00 00
 1.071871 1  41              Rx   d 8 00 00 00 00 00 00 00 00
 1.087971 1  17C             Rx   d 8 00 00 00 00 00 00 00 00
 1.106131 1  47              Rx   d 8 64 7D 93 86 95 15 00 00
 1.120536 1  42C             Rx   d 8 80 0C A0 00 00 00 00 00
 1.130996 1  41              Rx   d 8 00 00 00 00 00 00 00 00
 1.147969 1  42F             Rx   d 8 7D 02 05 38 40 FF 00 00
 1.166226 1  47              Rx   d 8 64 7D 93 86 95 15 00 00
 1.186107 1  47              Rx   d 8 64 7D 93 86 95 15 00 00
 1.206135 1  47              Rx   d 8 64 7D 93 86 95 15 00 00
 1.218731 1  3B4             Rx   d 8 18 21 11 FF 1E 1A 00 00
 1.236297 1  167             Rx   d 8 00 FF FF 00 00 02 0B 00
 1.248706 1  41              Rx   d 8 00 00 00 00 00 00 00 00
 1.266242 1  47              Rx   d 8 64 7D 93 86 95 15 00 00
 1.286093 1  47              Rx   d 8 64 7D 93 86 95 15 00 00
 1.286244 1  156             Rx   d 8 BA 00 00 00 00 00 00 00
 1.286479 1  165             Rx   d 8 20 81 00 00 00 00 00 00
 1.296102 1  167             Rx   d 8 00 FF FF 00 00 02 0B 00
 1.306249 1  47              Rx   d 8 64 7D 93 86 95 15 00 00
 1.326110 1  47              Rx   d 8 64 7D 93 86 95 15 00 00
 1.336375 1  204             Rx   d 8 00 00 FF 00 00 00 00 00
 1.356269 1  167             Rx   d 8 00 FF FF 00 00 02 0B 00
 1.366752 1  200             Rx   d 8 00 00 80 26 80 26 F0 00
 1.376135 1  167             Rx   d 8 00 FF FF 00 00 02 0B 00
 1.386136 1  47              Rx   d 8 64 7D 93 86 95 15 00 00
 1.396257 1  167             Rx   d 8 00 FF FF 00 00 02 0B 00
 1.396283 1  204             Rx   d 8 00 00 FF 00 00 00 00 00
 1.405902 1  41              Rx   d 8 00 00 00 00 00 00 00 00
 1.415331 1  331             Rx   d 8 C0 00 4B C1 02 00 00 00
 1.425213 1  41              Rx   d 8 00 00 00 00 00 00 00 00
 1.436118 1  167             Rx   d 8 00 FF FF 00 00 02 0B 00
 1.445321 1  41              Rx   d 8 00 00 00 00 00 00 00 00
 1.456317 1  167             Rx   d 8 00 FF FF 00 00 02 0B 00
 1.465087 1  41              Rx   d 8 00 00 00 00 00 00 00 00
 1.476109 1  167             Rx   d 8 00 FF FF 00 00 02 0B 00
 1.486751 1  166             Rx   d 8 76 00 00 FF FF FF 00 00
 1.503850 1  41              Rx   d 8 00 00 00 00 00 00 00 00
 1.513508 1  42C             Rx   d 8 80 0C A0 00 00 00 00 00
 1.536384 1  167             Rx   d 8 00 FF FF 00 00 02 0B 00
 1.547253 1  204             Rx   d 8 00 00 FF 00 00 00 00 00
 1.556105 1  167             Rx   d 8 00 FF FF 00 00 02 0B 00
 1.566145 1  47              Rx   d 8 64 7D 93 86 95 15 00 00
 1.576160 1  167             Rx   d 8 00 FF FF 00 00 02 0B 00
 1.582412 1  41              Rx   d 8 00 00 00 00 00 00 00 00
 1.602859 1  41              Rx   d 8 00 00 00 00 00 00 00 00
 1.626050 1  47              Rx   d 8 64 7D 93 86 95 15 00 00
 1.636111 1  167             Rx   d 8 00 FF FF 00 00 02 0B 00
 1.656117 1  167             Rx   d 8 00 FF FF 00 00 02 0B 00
 1.661560 1  41              Rx   d 8 00 00 00 00 00 00 00 00
 1.676133 1  167             Rx   d 8 00 FF FF 00 00 02 0B 00
 1.686134 1  47              Rx   d 8 64 7D 93 86 95 15 00 00
 1.696138 1  167             Rx   d 8 00 FF FF 00 00 02 0B 00
 1.716318 1  167             Rx   d 8 00 FF FF 00 00 02 0B 00
 1.726152 1  47              Rx   d 8 64 7D 93 86 95 15 00 00
 1.736111 1  167             Rx   d 8 00 FF FF 00 00 02 0B 00
 1.756158 1  167             Rx   d 8 00 FF FF 00 00 02 0B 00
 1.760934 1  40A             Rx   d 8 C1 10 40 84 20 08 80 00
 1.779101 1  41              Rx   d 8 00 00 00 00 00 00 00 00
 1.796333 1  167             Rx   d 8 00 FF FF 00 00 02 0B 00
 1.799563 1  41              Rx   d 8 00 00 00 00 00 00 00 00
 1.816139 1  167             Rx   d 8 00 FF FF 00 00 02 0B 00
 1.826235 1  47              Rx   d 8 64 7D 93 86 95 15 00 00
 1.836148 1  167             Rx   d 8 00 FF FF 00 00 02 0B 00
 1.856119 1  167             Rx   d 8 00 FF FF 00 00 02 0B 00
 1.866132 1  47              Rx   d 8 64 7D 93 86 95 15 00 00
 1.878164 1  242             Rx   d 8 01 F2 3F FF B5 00 03 01
 1.896137 1  167             Rx   d 8 00 FF FF 00 00 02 0B 00
 1.909810 1  23A             Rx   d 8 FF FF FF FF F0 00 00 00
 1.916404 1  167             Rx   d 8 00 FF FF 00 00 02 0B 00
 1.926111 1  47              Rx   d 8 64 7D 93 86 95 15 00 00
 1.936170 1  167             Rx   d 8 00 FF FF 00 00 02 0B 00
 1.946259 1  47              Rx   d 8 64 7D 93 86 95 15 00 00
 1.956109 1  167             Rx   d 8 00 FF FF 00 00 02 0B 00
 1.975791 1  41              Rx   d 8 00 00 00 00 00 00 00 00
 1.986217 1  47              Rx   d 8 64 7D 93 86 95 15 00 00
 1.996108 1  167             Rx   d 8 00 FF FF 00 00 02 0B 00
 2.004885 1  331             Rx   d 8 C0 00 4B C2 02 00 00 00
 2.026235 1  47              Rx   d 8 64 7D 93 86 95 15 00 00
 2.035167 1  41              Rx   d 8 00 00 00 00 00 00 00 00
 2.046522 1  167             Rx   d 8 00 FF FF 00 00 02 0B 00
 2.054873 1  41              Rx   d 8 00 00 00 00 00 00 00 00
 2.066269 1  47              Rx   d 8 64 7D 93 86 95 15 00 00
 2.086086 1  47              Rx   d 8 64 7D 93 86 95 15 00 00
 2.096316 1  167             Rx   d 8 00 FF FF 00 00 02 0B 00
 2.103471 1  42C             Rx   d 8 80 0C A0 00 00 00 00 00
 2.110772 1  435             Rx   d 8 00 00 08 1C 00 20 09 00
 2.133219 1  41              Rx   d 8 00 00 00 00 00 00 00 00
 2.146122 1  47              Rx   d 8 64 7D 93 86 95 15 00 00
 2.153419 1  41              Rx   d 8 00 00 00 00 00 00 00 00
 2.172401 1  41              Rx   d 8 00 00 00 00 00 00 00 00
 2.186108 1  47              Rx   d 8 64 7D 93 86 95 15 00 00
 2.201765 1  3B4             Rx   d 8 18 21 11 FF 1E 1A 00 00
 2.226094 1  47              Rx   d 8 64 7D 93 86 95 15 00 00
 2.231753 1  41              Rx   d 8 00 00 00 00 00 00 00 00
 2.251615 1  41              Rx   d 8 00 00 00 00 00 00 00 00
 2.266052 1  47              Rx   d 8 64 7D 93 86 95 15 00 00
 2.286150 1  47              Rx   d 8 64 7D 93 86 95 15 00 00
 2.296135 1  167             Rx   d 8 00 FF FF 00 00 02 0B 00
 2.307472 1  230             Rx   d 8 F0 1C 00 00 00 00 00 00
 2.326213 1  47              Rx   d 8 64 7D 93 86 95 15 00 00
 2.346087 1  47              Rx   d 8 64 7D 93 86 95 15 00 00
 2.356256 1  167             Rx   d 8 00 FF FF 00 00 02 0B 00
 2.376079 1  167             Rx   d 8 00 FF FF 00 00 02 0B 00
 2.396281 1  167             Rx   d 8 00 FF FF 00 00 02 0B 00
 2.406109 1  47              Rx   d 8 64 7D 93 86 95 15 00 00
 2.426246 1  47              Rx   d 8 64 7D 93 86 95 15 00 00
 2.436244 1  167             Rx   d 8 00 FF FF 00 00 02 0B 00
 2.456120 1  167             Rx   d 8 00 FF FF 00 00 02 0B 00
 2.476295 1  167             Rx   d 8 00 FF FF 00 00 02 0B 00
 2.487710 1  179             Rx   d 8 00 00 08 00 22 FF 00 00
 2.506245 1  47              Rx   d 8 64 7D 93 86 95 15 00 00
 2.526119 1  41              Rx   d 8 00 00 00 00 00 00 00 00
 2.536269 1  167             Rx   d 8 00 FF FF 00 00 02 0B 00
 2.546225 1  47              Rx   d 8 64 7D 93 86 95 15 00 00
 2.556134 1  167             Rx   d 8 00 FF FF 00 00 02 0B 00
 2.576260 1  167             Rx   d 8 00 FF FF 00 00 02 0B 00
 2.595241 1  42C             Rx   d 8 80 0C A0 00 00 00 00 00
 2.604738 1  41              Rx   d 8 00 00 00 00 00 00 00 00
 2.616599 1  204             Rx   d 8 00 00 FF 00 00 00 00 00
 2.636141 1  167             Rx   d 8 00 FF FF 00 00 02 0B 00
 2.656281 1  167             Rx   d 8 00 FF FF 00 00 02 0B 00
 2.664155 1  41              Rx   d 8 00 00 00 00 00 00 00 00
 2.683444 1  41              Rx   d 8 00 00 00 00 00 00 00 00
 2.696148 1  167             Rx   d 8 00 FF FF 00 00 02 0B 00
 2.710091 1  23A             Rx   d 8 FF FF FF FF F0 00 00 00
 2.726095 1  47              Rx   d 8 64 7D 93 86 95 15 00 00
 2.743229 1  41              Rx   d 8 00 00 00 00 00 00 00 00
 2.756098 1  167             Rx   d 8 00 FF FF 00 00 02 0B 00
 2.776164 1  167             Rx   d 8 00 FF FF 00 00 02 0B 00
 2.786726 1  166             Rx   d 8 76 00 00 FF FF FF 00 00
 2.806223 1  47              Rx   d 8 64 7D 93 86 95 15 00 00
 2.816130 1  167             Rx   d 8 00 FF FF 00 00 02 0B 00
 2.836344 1  167             Rx   d 8 00 FF FF 00 00 02 0B 00
 2.847331 1  204             Rx   d 8 00 00 FF 00 00 00 00 00
 2.866094 1  47              Rx   d 8 64 7D 93 86 95 15 00 00
 2.886210 1  47              Rx   d 8 64 7D 93 86 95 15 00 00
 2.900462 1  41              Rx   d 8 00 00 00 00 00 00 00 00
 2.919756 1  41              Rx   d 8 00 00 00 00 00 00 00 00
 2.936096 1  167             Rx   d 8 00 FF FF 00 00 02 0B 00
 2.956240 1  167             Rx   d 8 00 FF FF 00 00 02 0B 00
 2.976105 1  167             Rx   d 8 00 FF FF 00 00 02 0B 00
 2.986224 1  47              Rx   d 8 64 7D 93 86 95 15 00 00
 3.006098 1  47              Rx   d 8 64 7D 93 86 95 15 00 00
 3.016124 1  167             Rx   d 8 00 FF FF 00 00 02 0B 00
 3.026275 1  47              Rx   d 8 64 7D 93 86 95 15 00 00
 3.036235 1  167             Rx   d 8 00 FF FF 00 00 02 0B 00
 3.053169 1  3C8             Rx   d 8 00 00 00 EC 00 00 00 00
 3.076098 1  167             Rx   d 8 00 FF FF 00 00 02 0B 00
 3.086057 1  47              Rx   d 8 64 7D 93 86 95 15 00 00
 3.106223 1  47              Rx   d 8 64 7D 93 86 95 15 00 00
 3.126093 1  47              Rx   d 8 64 7D 93 86 95 15 00 00
 3.139221 1  40A             Rx   d 8 C0 00 00 23 60 6B 8E 00
 3.166102 1  47              Rx   d 8 64 7D 93 86 95 15 00 00
 3.175587 1  41              Rx   d 8 00 00 00 00 00 00 00 00
 3.195070 1  41              Rx   d 8 00 00 00 00 00 00 00 00
 3.209972 1  23A             Rx   d 8 FF FF FF FF F0 00 00 00
 3.234521 1  41              Rx   d 8 00 00 00 00 00 00 00 00
 3.246273 1  47              Rx   d 8 64 7D 93 86 95 15 00 00
 3.254206 1  41              Rx   d 8 00 00 00 00 00 00 00 00
 3.273509 1  41              Rx   d 8 00 00 00 00 00 00 00 00
 3.289454 1  42D             Rx   d 8 00 03 FF 00 00 00 F0 00
 3.306991 1  200             Rx   d 8 00 00 80 26 80 26 F0 00
 3.316117 1  167             Rx   d 8 00 FF FF 00 00 02 0B 00
 3.326541 1  167             Rx   d 8 00 FF FF 00 00 02 0B 00
 3.346106 1  47              Rx   d 8 64 7D 93 86 95 15 00 00
 3.366238 1  47              Rx   d 8 64 7D 93 86 95 15 00 00
 3.381057 1  331             Rx   d 8 C0 00 4B C3 02 00 00 00
 3.406117 1  47              Rx   d 8 64 7D 93 86 95 15 00 00
 3.410022 1  23A             Rx   d 8 FF FF FF FF F0 00 00 00
 3.427247 1  202             Rx   d 8 00 CC 00 00 00 00 00 00
 3.446221 1  47              Rx   d 8 64 7D 93 86 95 15 00 00
 3.456038 1  167             Rx   d 8 00 FF FF 00 00 02 0B 00
 3.476337 1  167             Rx   d 8 00 FF FF 00 00 02 0B 00
 3.486108 1  47              Rx   d 8 64 7D 93 86 95 15 00 00
 3.506110 1  47              Rx   d 8 64 7D 93 86 95 15 00 00
 3.526076 1  47              Rx   d 8 64 7D 93 86 95 15 00 00
 3.536113 1  167             Rx   d 8 00 FF FF 00 00 02 0B 00
 3.556229 1  167             Rx   d 8 00 FF FF 00 00 02 0B 00
 3.577752 1  42C             Rx   d 8 80 0C A0 00 00 00 00 00
 3.596166 1  167             Rx   d 8 00 FF FF 00 00 02 0B 00
 3.607502 1  204             Rx   d 8 00 00 FF 00 00 00 00 00
 3.626134 1  47              Rx   d 8 64 7D 93 86 95 15 00 00
 3.646066 1  47              Rx   d 8 64 7D 93 86 95 15 00 00
 3.666222 1  47              Rx   d 8 64 7D 93 86 95 15 00 00
 3.676094 1  167             Rx   d 8 00 FF FF 00 00 02 0B 00
 3.696240 1  167             Rx   d 8 00 FF FF 00 00 02 0B 00
 3.710148 1  23A             Rx   d 8 FF FF FF FF F0 00 00 00
 3.726730 1  167             Rx   d 8 00 FF FF 00 00 02 0B 00
 3.745124 1  41              Rx   d 8 00 00 00 00 00 00 00 00
 3.756761 1  42F             Rx   d 8 7D 02 05 38 40 FF 00 00
 3.774562 1  42C             Rx   d 8 80 0C A0 00 00 00 00 00
 3.787704 1  179             Rx   d 8 00 00 08 00 22 FF 00 00
 3.806110 1  47              Rx   d 8 64 7D 93 86 95 15 00 00
 3.824315 1  41              Rx   d 8 00 00 00 00 00 00 00 00
 3.843959 1  41              Rx   d 8 00 00 00 00 00 00 00 00
 3.862953 1  41              Rx   d 8 00 00 00 00 00 00 00 00
 3.872724 1  3B6             Rx   d 8 0A 00 00 00 00 00 00 00
 3.888735 1  204             Rx   d 8 00 00 FF 00 00 00 00 00
 3.906953 1  200             Rx   d 8 00 00 80 26 80 26 F0 00
 3.926216 1  47              Rx   d 8 64 7D 93 86 95 15 00 00
 3.946042 1  47              Rx   d 8 64 7D 93 86 95 15 00 00
 3.956160 1  167             Rx   d 8 00 FF FF 00 00 02 0B 00
 3.971059 1  42C             Rx   d 8 80 0C A0 00 00 00 00 00
 3.986126 1  47              Rx   d 8 64 7D 93 86 95 15 00 00
 4.001498 1  41              Rx   d 8 00 00 00 00 00 00 00 00
 4.020979 1  41              Rx   d 8 00 00 00 00 00 00 00 00
 4.036292 1  167             Rx   d 8 00 FF FF 00 00 02 0B 00
 4.052978 1  3C8             Rx   d 8 00 00 00 EC 00 00 00 00
 4.069259 1  42C             Rx   d 8 80 0C A0 00 00 00 00 00
 4.086074 1  47              Rx   d 8 64 7D 93 86 95 15 00 00
 4.089435 1  424             Rx   d 8 00 00 00 03 00 00 00 00
 4.106800 1  200             Rx   d 8 00 00 80 26 80 26 F0 00
 4.126053 1  47              Rx   d 8 64 7D 93 86 95 15 00 00
 4.146236 1  47              Rx   d 8 64 7D 93 86 95 15 00 00
 4.156112 1  167             Rx   d 8 00 FF FF 00 00 02 0B 00
 4.167753 1  3B4             Rx   d 8 18 21 11 FF 1E 1A 00 00
 4.186260 1  47              Rx   d 8 64 7D 93 86 95 15 00 00
 4.196229 1  167             Rx   d 8 00 FF FF 00 00 02 0B 00
 4.206056 1  47              Rx   d 8 64 7D 93 86 95 15 00 00
 4.217671 1  41              Rx   d 8 00 00 00 00 00 00 00 00
 4.236136 1  167             Rx   d 8 00 FF FF 00 00 02 0B 00
 4.256348 1  167             Rx   d 8 00 FF FF 00 00 02 0B 00
 4.265948 1  42C             Rx   d 8 80 0C A0 00 00 00 00 00
 4.276085 1  167             Rx   d 8 00 FF FF 00 00 02 0B 00
 4.286995 1  167             Rx   d 8 00 FF FF 00 00 02 0B 00
 4.306265 1  47              Rx   d 8 64 7D 93 86 95 15 00 00
 4.316055 1  167             Rx   d 8 00 FF FF 00 00 02 0B 00
 4.335040 1  41              Rx   d 8 00 00 00 00 00 00 00 00
 4.346076 1  47              Rx   d 8 64 7D 93 86 95 15 00 00
 4.356038 1  167             Rx   d 8 00 FF FF 00 00 02 0B 00
 4.374392 1  41              Rx   d 8 00 00 00 00 00 00 00 00
 4.386462 1  165             Rx   d 8 20 81 00 00 00 00 00 00
 4.406124 1  47              Rx   d 8 64 7D 93 86 95 15 00 00
 4.414222 1  41              Rx   d 8 00 00 00 00 00 00 00 00
 4.433652 1  41              Rx   d 8 00 00 00 00 00 00 00 00
 4.446213 1  47              Rx   d 8 64 7D 93 86 95 15 00 00
 4.456149 1  167             Rx   d 8 00 FF FF 00 00 02 0B 00
 4.466748 1  200             Rx   d 8 00 00 80 26 80 26 F0 00
 4.486225 1  47              Rx   d 8 64 7D 93 86 95 15 00 00
 4.506058 1  47              Rx   d 8 64 7D 93 86 95 15 00 00
 4.513683 1  42C             Rx   d 8 80 0C A0 00 00 00 00 00
 4.531699 1  41              Rx   d 8 00 00 00 00 00 00 00 00
 4.551594 1  41              Rx   d 8 00 00 00 00 00 00 00 00
 4.566208 1  47              Rx   d 8 64 7D 93 86 95 15 00 00
 4.586242 1  47              Rx   d 8 64 7D 93 86 95 15 00 00
 4.596242 1  167             Rx   d 8 00 FF FF 00 00 02 0B 00
 4.610631 1  41              Rx   d 8 00 00 00 00 00 00 00 00
 4.626086 1  47              Rx   d 8 64 7D 93 86 95 15 00 00
 4.636312 1  167             Rx   d 8 00 FF FF 00 00 02 0B 00
 4.649422 1  41              Rx   d 8 00 00 00 00 00 00 00 00
 4.666267 1  47              Rx   d 8 64 7D 93 86 95 15 00 00
 4.686223 1  47              Rx   d 8 64 7D 93 86 95 15 00 00
 4.706191 1  47              Rx   d 8 64 7D 93 86 95 15 00 00
 4.716259 1  167             Rx   d 8 00 FF FF 00 00 02 0B 00
 4.736107 1  167             Rx   d 8 00 FF FF 00 00 02 0B 00
 4.746250 1  47              Rx   d 8 64 7D 93 86 95 15 00 00
 4.766065 1  47              Rx   d 8 64 7D 93 86 95 15 00 00
 4.776103 1  167             Rx   d 8 00 FF FF 00 00 02 0B 00
 4.786677 1  165             Rx   d 8 20 81 00 00 00 00 00 00
 4.806046 1  47              Rx   d 8 64 7D 93 86 95 15 00 00
 4.826122 1  47              Rx   d 8 64 7D 93 86 95 15 00 00
 4.836091 1  167             Rx   d 8 00 FF FF 00 00 02 0B 00
 4.855875 1  3B6             Rx   d 8 0A 00 00 00 00 00 00 00
 4.876121 1  167             Rx   d 8 00 FF FF 00 00 02 0B 00
 4.885287 1  41              Rx   d 8 00 00 00 00 00 00 00 00
 4.896143 1  167             Rx   d 8 00 FF FF 00 00 02 0B 00
 4.916075 1  167             Rx   d 8 00 FF FF 00 00 02 0B 00
 4.926049 1  47              Rx   d 8 64 7D 93 86 95 15 00 00
 4.944817 1  41              Rx   d 8 00 00 00 00 00 00 00 00
 4.954003 1  42C             Rx   d 8 80 0C A0 00 00 00 00 00
 4.963959 1  41              Rx   d 8 00 00 00 00 00 00 00 00
 4.976223 1  167             Rx   d 8 00 FF FF 00 00 02 0B 00
 4.996102 1  167             Rx   d 8 00 FF FF 00 00 02 0B 00
 5.006383 1  47              Rx   d 8 64 7D 93 86 95 15 00 00
 5.011172 1  23A             Rx   d 8 FF FF FF FF F0 00 00 00
 5.011593 1  434             Rx   d 8 20 00 74 00 04 D2 02 70
 5.016415 1  167             Rx   d 8 00 FF FF 00 00 02 0B 00
 5.016454 1  171             Rx   d 8 F0 E0 00 00 00 00 00 00
 5.023478 1  41              Rx   d 8 00 00 00 00 00 00 00 00
 5.036147 1  167             Rx   d 8 00 FF FF 00 00 02 0B 00
 5.046802 1  47              Rx   d 8 64 7D 93 86 95 15 00 00
 5.076946 1  167             Rx   d 8 00 FF FF 00 00 02 0B 00
 5.077023 1  171             Rx   d 8 F0 E0 00 00 00 00 00 00
 5.077031 1  204             Rx   d 8 00 00 FF 00 00 00 00 00
 5.077040 1  42F             Rx   d 8 7D 02 05 38 40 FF 00 00
 5.082121 1  41              Rx   d 8 00 00 00 00 00 00 00 00
 5.089014 1  421             Rx   d 8 04 00 11 00 00 00 FF 00
 5.096536 1  167             Rx   d 8 00 FF FF 00 00 02 0B 00
 5.096581 1  204             Rx   d 8 00 00 FF 00 00 00 00 00
 5.102571 1  41              Rx   d 8 00 00 00 00 00 00 00 00
 5.102749 1  242             Rx   d 8 01 F3 3F FF B5 00 03 01
 5.116095 1  167             Rx   d 8 00 FF FF 00 00 02 0B 00
 5.125987 1  47              Rx   d 8 64 7D 93 86 95 15 00 00
 5.141978 1  41              Rx   d 8 00 00 00 00 00 00 00 00
 5.142062 1  242             Rx   d 8 01 F3 3F FF B5 00 03 01
 5.146123 1  47              Rx   d 8 64 7D 93 86 95 15 00 00
 5.146301 1  165             Rx   d 8 20 81 00 00 00 00 00 00
 5.146506 1  167             Rx   d 8 00 FF FF 00 00 02 0B 00
 5.150593 1  3B4             Rx   d 8 18 21 11 FF 1E 1A 00 00
 5.165986 1  47              Rx   d 8 64 7D 93 86 95 15 00 00
 5.180661 1  41              Rx   d 8 00 00 00 00 00 00 00 00
 5.196074 1  167             Rx   d 8 00 FF FF 00 00 02 0B 00
 5.216420 1  167             Rx   d 8 00 FF FF 00 00 02 0B 00
 5.226152 1  581             Rx   d 8 81 00 FF FF FF FF FF FF
 5.239442 1  41              Rx   d 8 00 00 00 00 00 00 00 00
 5.259781 1  41              Rx   d 8 00 00 00 00 00 00 00 00
 5.276490 1  167             Rx   d 8 00 FF FF 00 00 02 0B 00
 5.286285 1  47              Rx   d 8 64 7D 93 86 95 15 00 00
 5.306587 1  47              Rx   d 8 64 7D 93 86 95 15 00 00
 5.326332 1  47              Rx   d 8 64 7D 93 86 95 15 00 00
 5.346045 1  47              Rx   d 8 64 7D 93 86 95 15 00 00
 5.376057 1  167             Rx   d 8 00 FF FF 00 00 02 0B 00
 5.386081 1  47              Rx   d 8 64 7D 93 86 95 15 00 00
 5.406112 1  47              Rx   d 8 64 7D 93 86 95 15 00 00
 5.411673 1  434             Rx   d 8 20 00 74 00 04 D2 02 70
 5.436082 1  41              Rx   d 8 00 00 00 00 00 00 00 00
 5.445655 1  42C             Rx   d 8 80 0C A0 00 00 00 00 00
 5.455992 1  41              Rx   d 8 00 00 00 00 00 00 00 00
 5.475398 1  41              Rx   d 8 00 00 00 00 00 00 00 00
 5.488744 1  230             Rx   d 8 F0 1C 00 00 00 00 00 00
 5.506102 1  47              Rx   d 8 64 7D 93 86 95 15 00 00
 5.514725 1  41              Rx   d 8 00 00 00 00 00 00 00 00
 5.526075 1  47              Rx   d 8 64 7D 93 86 95 15 00 00
 5.526242 1  165             Rx   d 8 20 81 00 00 00 00 00 00
 5.526489 1  167             Rx   d 8 00 FF FF 00 00 02 0B 00
 5.526706 1  171             Rx   d 8 F0 E0 00 00 00 00 00 00
 5.526946 1  200             Rx   d 8 00 00 80 26 80 26 F0 00
 5.527192 1  202             Rx   d 8 00 CC 00 00 00 00 00 00
 5.527700 1  230             Rx   d 8 F0 1C 00 00 00 00 00 00
 5.543792 1  42C             Rx   d 8 80 0C A0 00 00 00 00 00
 5.554183 1  41              Rx   d 8 00 00 00 00 00 00 00 00
 5.567197 1  204             Rx   d 8 00 00 FF 00 00 00 00 00
 5.587688 1  179             Rx   d 8 00 00 08 00 22 FF 00 00
 5.610787 1  23A             Rx   d 8 FF FF FF FF F0 00 00 00
 5.626120 1  47              Rx   d 8 64 7D 93 86 95 15 00 00
 5.646008 1  47              Rx   d 8 64 7D 93 86 95 15 00 00
 5.666364 1  47              Rx   d 8 64 7D 93 86 95 15 00 00
 5.686063 1  47              Rx   d 8 64 7D 93 86 95 15 00 00
 5.696102 1  167             Rx   d 8 00 FF FF 00 00 02 0B 00
 5.716388 1  167             Rx   d 8 00 FF FF 00 00 02 0B 00
 5.731176 1  41              Rx   d 8 00 00 00 00 00 00 00 00
 5.756102 1  167             Rx   d 8 00 FF FF 00 00 02 0B 00
End TriggerBlock
