date Wed Mar 12 02:15:36.977 AM 2025
base hex  timestamps absolute
internal events logged
Begin Triggerblock Wed Mar 12 02:15:36.975 AM 2025
 0.000000 Start of measurement
 0.000000 1  23A             Rx   d 8 FF FF FF FF F0 00 00 00
 0.000206 1  430             Rx   d 8 00 00 00 00 FE 00 00 00
 0.000460 1  434             Rx   d 8 00 00 00 00 0F FF 00 10
 0.000709 1  41              Rx   d 8 00 00 00 00 00 00 00 00
 0.000965 1  242             Rx   d 8 FF FF 3F FF B6 00 03 01
 0.001192 1  435             Rx   d 8 00 00 00 00 00 00 00 00
 0.004721 1  47              Rx   d 8 64 22 BC F4 3B 98 00 00
 0.004762 1  165             Rx   d 8 20 81 00 00 00 00 00 00
 0.005077 1  167             Rx   d 8 00 FF FF 00 00 02 0E 00
 0.005090 1  200             Rx   d 8 00 00 80 26 80 26 F0 00
 0.005394 1  202             Rx   d 8 00 CC 00 00 00 00 00 00
 0.005618 1  204             Rx   d 8 00 00 FF 00 00 00 00 00
 0.005876 1  230             Rx   d 8 F0 1C 00 00 00 00 00 00
 0.010072 1  42C             Rx   d 8 80 02 00 00 00 00 00 00
 0.014451 1  156             Rx   d 8 BA 00 00 00 00 00 00 00
 0.014612 1  167             Rx   d 8 00 FF FF 00 00 02 0E 00
 0.014858 1  171             Rx   d 8 F0 E0 00 00 00 00 00 00
 0.015115 1  178             Rx   d 8 00 00 02 00 02 54 C6 53
 0.015351 1  179             Rx   d 8 00 00 08 00 22 FF 00 00
 0.015610 1  17C             Rx   d 8 00 00 00 00 00 00 00 00
 0.015875 1  204             Rx   d 8 00 00 FF 00 00 00 00 00
 0.016092 1  42F             Rx   d 8 7D 02 05 4E 20 FF 00 00
 0.019875 1  41              Rx   d 8 00 00 00 00 00 00 00 00
 0.024372 1  47              Rx   d 8 64 22 BC F4 3B 98 00 00
 0.024597 1  165             Rx   d 8 20 81 00 00 00 00 00 00
 0.024840 1  167             Rx   d 8 00 FF FF 00 00 02 0E 00
 0.025077 1  200             Rx   d 8 00 00 80 26 80 26 F0 00
 0.025324 1  202             Rx   d 8 00 CC 00 00 00 00 00 00
 0.025574 1  204             Rx   d 8 00 00 FF 00 00 00 00 00
 0.025821 1  230             Rx   d 8 F0 1C 00 00 00 00 00 00
 0.026078 1  43D             Rx   d 8 14 00 21 00 00 00 00 00
 0.026319 1  43E             Rx   d 8 00 00 00 00 00 00 00 00
 0.034532 1  167             Rx   d 8 00 FF FF 00 00 02 0E 00
 0.034719 1  204             Rx   d 8 00 00 FF 00 00 00 00 00
 0.040162 1  41              Rx   d 8 00 00 00 00 00 00 00 00
 0.040357 1  242             Rx   d 8 FF FF 3F FF B6 00 03 01
 0.044672 1  47              Rx   d 8 64 22 BC F4 3B 98 00 00
 0.044708 1  165             Rx   d 8 20 81 00 00 00 00 00 00
 0.044928 1  167             Rx   d 8 00 FF FF 00 00 02 0E 00
 0.045194 1  171             Rx   d 8 F0 E0 00 00 00 00 00 00
 0.045455 1  200             Rx   d 8 00 00 80 26 80 26 F0 00
 0.045724 1  202             Rx   d 8 00 CC 00 00 00 00 00 00
 0.045925 1  204             Rx   d 8 00 00 FF 00 00 00 00 00
 0.046132 1  230             Rx   d 8 F0 1C 00 00 00 00 00 00
 0.046362 1  42F             Rx   d 8 7D 02 05 4E 20 FF 00 00
 0.054531 1  167             Rx   d 8 00 FF FF 00 00 02 0E 00
 0.054722 1  204             Rx   d 8 00 00 FF 00 00 00 00 00
 0.059802 1  41              Rx   d 8 00 00 00 00 00 00 00 00
 0.059955 1  3B6             Rx   d 8 0A 00 00 00 00 00 00 00
 0.060202 1  3B7             Rx   d 8 00 00 00 00 00 00 00 00
 0.060436 1  3B8             Rx   d 8 FF FF FF FF 00 00 00 00
 0.060686 1  42C             Rx   d 8 80 02 00 00 00 00 00 00
 0.064508 1  47              Rx   d 8 64 22 BC F4 3B 98 00 00
 0.064702 1  165             Rx   d 8 20 81 00 00 00 00 00 00
 0.064865 1  167             Rx   d 8 00 FF FF 00 00 02 0E 00
 0.065107 1  200             Rx   d 8 00 00 80 26 80 26 F0 00
 0.065355 1  202             Rx   d 8 00 CC 00 00 00 00 00 00
 0.065620 1  204             Rx   d 8 00 00 FF 00 00 00 00 00
 0.065861 1  230             Rx   d 8 F0 1C 00 00 00 00 00 00
 0.075012 1  166             Rx   d 8 76 00 00 FF FF FF 00 00
 0.075102 1  167             Rx   d 8 00 FF FF 00 00 02 0E 00
 0.075111 1  171             Rx   d 8 F0 E0 00 00 00 00 00 00
 0.075665 1  204             Rx   d 8 00 00 FF 00 00 00 00 00
 0.075698 1  421             Rx   d 8 04 00 11 00 00 00 FF 00
 0.075706 1  424             Rx   d 8 00 00 00 03 00 00 00 00
 0.076092 1  42D             Rx   d 8 00 03 FF 00 00 00 F0 00
 0.076111 1  42F             Rx   d 8 7D 02 05 4E 20 FF 00 00
 0.076457 1  43D             Rx   d 8 14 00 21 00 00 00 00 00
 0.076645 1  43E             Rx   d 8 00 00 00 00 00 00 00 00
 0.079403 1  41              Rx   d 8 00 00 00 00 00 00 00 00
 0.079583 1  242             Rx   d 8 FF FF 3F FF B6 00 03 01
 0.084495 1  47              Rx   d 8 64 22 BC F4 3B 98 00 00
 0.084647 1  165             Rx   d 8 20 81 00 00 00 00 00 00
 0.084910 1  167             Rx   d 8 00 FF FF 00 00 02 0E 00
 0.085135 1  200             Rx   d 8 00 00 80 26 80 26 F0 00
 0.085377 1  202             Rx   d 8 00 CC 00 00 00 00 00 00
 0.085646 1  204             Rx   d 8 00 00 FF 00 00 00 00 00
 0.085877 1  230             Rx   d 8 F0 1C 00 00 00 00 00 00
 0.089553 1  59E             Rx   d 8 9E 00 FF FF FF FF FF FF
 0.094826 1  167             Rx   d 8 00 FF FF 00 00 02 0E 00
 0.094876 1  204             Rx   d 8 00 00 FF 00 00 00 00 00
 0.098776 1  41              Rx   d 8 00 00 00 00 00 00 00 00
 0.100123 1  23A             Rx   d 8 FF FF FF FF F0 00 00 00
 0.100479 1  2F1             Rx   d 8 00 00 00 00 00 00 00 00
 0.100495 1  386             Rx   d 8 00 00 00 00 00 00 00 00
 0.100793 1  430             Rx   d 8 00 00 00 00 FE 00 00 00
 0.101014 1  434             Rx   d 8 00 00 00 00 0F FF 00 10
 0.101312 1  435             Rx   d 8 00 00 00 00 00 00 00 00
 0.101565 1  437             Rx   d 8 00 00 00 00 00 00 00 00
 0.101769 1  438             Rx   d 8 00 00 00 00 00 00 00 00
 0.102009 1  439             Rx   d 8 00 00 04 00 04 00 00 00
 0.102247 1  43A             Rx   d 8 00 00 00 00 00 00 00 00
 0.104954 1  47              Rx   d 8 64 22 BC F4 3B 98 00 00
 0.104997 1  165             Rx   d 8 20 81 00 00 00 00 00 00
 0.105002 1  167             Rx   d 8 00 FF FF 00 00 02 0E 00
 0.105510 1  171             Rx   d 8 F0 E0 00 00 00 00 00 00
 0.105532 1  200             Rx   d 8 00 00 80 26 80 26 F0 00
 0.106009 1  202             Rx   d 8 00 CC 00 00 00 00 00 00
 0.106025 1  204             Rx   d 8 00 00 FF 00 00 00 00 00
 0.106494 1  230             Rx   d 8 F0 1C 00 00 00 00 00 00
 0.106511 1  42F             Rx   d 8 7D 02 05 4E 20 FF 00 00
 0.108856 1  42C             Rx   d 8 80 02 00 00 00 00 00 00
 0.114909 1  156             Rx   d 8 BA 00 00 00 00 00 00 00
 0.114950 1  167             Rx   d 8 00 FF FF 00 00 02 0E 00
 0.114959 1  178             Rx   d 8 00 00 02 00 02 54 C6 53
 0.115258 1  179             Rx   d 8 00 00 08 00 22 FF 00 00
 0.115495 1  17C             Rx   d 8 00 00 00 00 00 00 00 00
 0.115726 1  204             Rx   d 8 00 00 FF 00 00 00 00 00
 0.118827 1  41              Rx   d 8 00 00 00 00 00 00 00 00
 0.118855 1  242             Rx   d 8 FF FF 3F FF B6 00 03 01
 0.119202 1  3B5             Rx   d 8 FF FD FF FD FF FD FF FD
 0.124510 1  47              Rx   d 8 64 22 BC F4 3B 98 00 00
 0.124706 1  165             Rx   d 8 20 81 00 00 00 00 00 00
 0.124870 1  167             Rx   d 8 00 FF FF 00 00 02 0E 00
 0.125145 1  200             Rx   d 8 00 00 80 26 80 26 F0 00
 0.125407 1  202             Rx   d 8 00 CC 00 00 00 00 00 00
 0.125649 1  204             Rx   d 8 00 00 FF 00 00 00 00 00
 0.125877 1  230             Rx   d 8 F0 1C 00 00 00 00 00 00
 0.126107 1  43D             Rx   d 8 14 00 21 00 00 00 00 00
 0.126355 1  43E             Rx   d 8 00 00 00 00 00 00 00 00
 0.134481 1  167             Rx   d 8 00 FF FF 00 00 02 0E 00
 0.134641 1  171             Rx   d 8 F0 E0 00 00 00 00 00 00
 0.134895 1  204             Rx   d 8 00 00 FF 00 00 00 00 00
 0.135146 1  42F             Rx   d 8 7D 02 05 4E 20 FF 00 00
 0.138206 1  41              Rx   d 8 00 00 00 00 00 00 00 00
 0.144626 1  47              Rx   d 8 64 22 BC F4 3B 98 00 00
 0.144655 1  165             Rx   d 8 20 81 00 00 00 00 00 00
 0.145090 1  167             Rx   d 8 00 FF FF 00 00 02 0E 00
 0.145106 1  200             Rx   d 8 00 00 80 26 80 26 F0 00
 0.145425 1  202             Rx   d 8 00 CC 00 00 00 00 00 00
 0.145677 1  204             Rx   d 8 00 00 FF 00 00 00 00 00
 0.145875 1  230             Rx   d 8 F0 1C 00 00 00 00 00 00
 0.154500 1  167             Rx   d 8 00 FF FF 00 00 02 0E 00
 0.154685 1  204             Rx   d 8 00 00 FF 00 00 00 00 00
 0.158319 1  41              Rx   d 8 00 00 00 00 00 00 00 00
 0.158516 1  242             Rx   d 8 FF FF 3F FF B6 00 03 01
 0.158761 1  3B3             Rx   d 8 44 8C C0 0C E6 00 03 3E
 0.158983 1  40A             Rx   d 8 C1 04 01 8A 07 54 85 41
 0.159235 1  42C             Rx   d 8 80 02 00 00 00 00 00 00
 0.164446 1  47              Rx   d 8 64 22 BC F4 3B 98 00 00
 0.164678 1  165             Rx   d 8 20 81 00 00 00 00 00 00
 0.164922 1  167             Rx   d 8 00 FF FF 00 00 02 0E 00
 0.165101 1  171             Rx   d 8 F0 E0 00 00 00 00 00 00
 0.165334 1  200             Rx   d 8 00 00 80 26 80 26 F0 00
 0.165576 1  202             Rx   d 8 00 CC 00 00 00 00 00 00
 0.165825 1  204             Rx   d 8 00 00 FF 00 00 00 00 00
 0.166079 1  230             Rx   d 8 F0 1C 00 00 00 00 00 00
 0.166311 1  42F             Rx   d 8 7D 02 05 4E 20 FF 00 00
 0.174491 1  166             Rx   d 8 76 00 00 FF FF FF 00 00
 0.174741 1  167             Rx   d 8 00 FF FF 00 00 02 0E 00
 0.174935 1  204             Rx   d 8 00 00 FF 00 00 00 00 00
 0.175208 1  421             Rx   d 8 04 00 11 00 00 00 FF 00
 0.175405 1  424             Rx   d 8 00 00 00 03 00 00 00 00
 0.175657 1  42D             Rx   d 8 00 03 FF 00 00 00 F0 00
 0.175918 1  43D             Rx   d 8 14 00 21 00 00 00 00 00
 0.176130 1  43E             Rx   d 8 00 00 00 00 00 00 00 00
 0.176410 1  595             Rx   d 8 95 00 FF FF FF FF FF FF
 0.177295 1  41              Rx   d 8 00 00 00 00 00 00 00 00
 0.184478 1  47              Rx   d 8 64 22 BC F4 3B 98 00 00
 0.184651 1  165             Rx   d 8 20 81 00 00 00 00 00 00
 0.184845 1  167             Rx   d 8 00 FF FF 00 00 02 0E 00
 0.185084 1  200             Rx   d 8 00 00 80 26 80 26 F0 00
 0.185323 1  202             Rx   d 8 00 CC 00 00 00 00 00 00
 0.185574 1  204             Rx   d 8 00 00 FF 00 00 00 00 00
 0.185817 1  230             Rx   d 8 F0 1C 00 00 00 00 00 00
 0.194493 1  167             Rx   d 8 00 FF FF 00 00 02 0E 00
 0.194701 1  171             Rx   d 8 F0 E0 00 00 00 00 00 00
 0.194869 1  204             Rx   d 8 00 00 FF 00 00 00 00 00
 0.195094 1  42F             Rx   d 8 7D 02 05 4E 20 FF 00 00
 0.197268 1  41              Rx   d 8 00 00 00 00 00 00 00 00
 0.197496 1  242             Rx   d 8 FF FF 3F FF B6 00 03 01
 0.200369 1  23A             Rx   d 8 FF FF FF FF F0 00 00 00
 0.200598 1  430             Rx   d 8 00 00 00 00 FE 00 00 00
 0.200851 1  434             Rx   d 8 00 00 00 00 0F FF 00 10
 0.201097 1  435             Rx   d 8 00 00 00 00 00 00 00 00
 0.204362 1  47              Rx   d 8 64 22 BC F4 3B 98 00 00
 0.204603 1  165             Rx   d 8 20 81 00 00 00 00 00 00
 0.204864 1  167             Rx   d 8 00 FF FF 00 00 02 0E 00
 0.205092 1  200             Rx   d 8 00 00 80 26 80 26 F0 00
 0.205337 1  202             Rx   d 8 00 CC 00 00 00 00 00 00
 0.205589 1  204             Rx   d 8 00 00 FF 00 00 00 00 00
 0.205832 1  230             Rx   d 8 F0 1C 00 00 00 00 00 00
 0.206450 1  42C             Rx   d 8 80 02 00 00 00 00 00 00
 0.214695 1  156             Rx   d 8 BA 00 00 00 00 00 00 00
 0.214745 1  167             Rx   d 8 00 FF FF 00 00 02 0E 00
 0.215121 1  178             Rx   d 8 00 00 02 00 02 54 C6 53
 0.215140 1  179             Rx   d 8 00 00 08 00 22 FF 00 00
 0.215669 1  17C             Rx   d 8 00 00 00 00 00 00 00 00
 0.215694 1  204             Rx   d 8 00 00 FF 00 00 00 00 00
 0.216573 1  41              Rx   d 8 00 00 00 00 00 00 00 00
 0.224974 1  47              Rx   d 8 64 22 BC F4 3B 98 00 00
 0.225023 1  165             Rx   d 8 20 81 00 00 00 00 00 00
 0.225029 1  167             Rx   d 8 00 FF FF 00 00 02 0E 00
 0.225730 1  171             Rx   d 8 F0 E0 00 00 00 00 00 00
 0.225780 1  200             Rx   d 8 00 00 80 26 80 26 F0 00
 0.225796 1  202             Rx   d 8 00 CC 00 00 00 00 00 00
 0.226764 1  204             Rx   d 8 00 00 FF 00 00 00 00 00
 0.226827 1  230             Rx   d 8 F0 1C 00 00 00 00 00 00
 0.226836 1  42F             Rx   d 8 7D 02 05 4E 20 FF 00 00
 0.226840 1  43D             Rx   d 8 14 00 21 00 00 00 00 00
 0.227315 1  43E             Rx   d 8 00 00 00 00 00 00 00 00
 0.234618 1  167             Rx   d 8 00 FF FF 00 00 02 0E 00
 0.234656 1  204             Rx   d 8 00 00 FF 00 00 00 00 00
 0.236910 1  41              Rx   d 8 00 00 00 00 00 00 00 00
 0.236947 1  242             Rx   d 8 FF FF 3F FF B6 00 03 01
 0.244723 1  47              Rx   d 8 64 22 BC F4 3B 98 00 00
 0.244766 1  165             Rx   d 8 20 81 00 00 00 00 00 00
 0.244930 1  167             Rx   d 8 00 FF FF 00 00 02 0E 00
 0.245161 1  200             Rx   d 8 00 00 80 26 80 26 F0 00
 0.245435 1  202             Rx   d 8 00 CC 00 00 00 00 00 00
 0.245731 1  204             Rx   d 8 00 00 FF 00 00 00 00 00
 0.246034 1  230             Rx   d 8 F0 1C 00 00 00 00 00 00
 0.254764 1  167             Rx   d 8 00 FF FF 00 00 02 0E 00
 0.254839 1  171             Rx   d 8 F0 E0 00 00 00 00 00 00
 0.255240 1  204             Rx   d 8 00 00 FF 00 00 00 00 00
 0.255279 1  42F             Rx   d 8 7D 02 05 4E 20 FF 00 00
 0.256577 1  41              Rx   d 8 00 00 00 00 00 00 00 00
 0.256610 1  42C             Rx   d 8 80 02 00 00 00 00 00 00
 0.264615 1  47              Rx   d 8 64 22 BC F4 3B 98 00 00
 0.264644 1  165             Rx   d 8 20 81 00 00 00 00 00 00
 0.264930 1  167             Rx   d 8 00 FF FF 00 00 02 0E 00
 0.265136 1  200             Rx   d 8 00 00 80 26 80 26 F0 00
 0.265403 1  202             Rx   d 8 00 CC 00 00 00 00 00 00
 0.265615 1  204             Rx   d 8 00 00 FF 00 00 00 00 00
 0.265879 1  230             Rx   d 8 F0 1C 00 00 00 00 00 00
 0.274931 1  166             Rx   d 8 76 00 00 FF FF FF 00 00
 0.274961 1  167             Rx   d 8 00 FF FF 00 00 02 0E 00
 0.274967 1  204             Rx   d 8 00 00 FF 00 00 00 00 00
 0.275252 1  421             Rx   d 8 04 00 11 00 00 00 FF 00
 0.275445 1  424             Rx   d 8 00 00 00 03 00 00 00 00
 0.275708 1  42D             Rx   d 8 00 03 FF 00 00 00 F0 00
 0.275891 1  43D             Rx   d 8 14 00 21 00 00 00 00 00
 0.276153 1  41              Rx   d 8 00 00 00 00 00 00 00 00
 0.276379 1  242             Rx   d 8 FF FF 3F FF B6 00 03 01
 0.276658 1  43E             Rx   d 8 00 00 00 00 00 00 00 00
 0.284646 1  47              Rx   d 8 64 22 BC F4 3B 98 00 00
 0.284690 1  165             Rx   d 8 20 81 00 00 00 00 00 00
 0.284936 1  167             Rx   d 8 00 FF FF 00 00 02 0E 00
 0.285168 1  171             Rx   d 8 F0 E0 00 00 00 00 00 00
 0.285372 1  200             Rx   d 8 00 00 80 26 80 26 F0 00
 0.285618 1  202             Rx   d 8 00 CC 00 00 00 00 00 00
 0.285947 1  204             Rx   d 8 00 00 FF 00 00 00 00 00
 0.286419 1  230             Rx   d 8 F0 1C 00 00 00 00 00 00
 0.286461 1  331             Rx   d 8 C0 00 48 B4 02 00 00 00
 0.286820 1  42F             Rx   d 8 7D 02 05 4E 20 FF 00 00
 0.294869 1  167             Rx   d 8 00 FF FF 00 00 02 0E 00
 0.294943 1  204             Rx   d 8 00 00 FF 00 00 00 00 00
 0.295297 1  41              Rx   d 8 00 00 00 00 00 00 00 00
 0.300153 1  23A             Rx   d 8 FF FF FF FF F0 00 00 00
 0.300365 1  430             Rx   d 8 00 00 00 00 FE 00 00 00
 0.300557 1  434             Rx   d 8 00 00 00 00 0F FF 00 10
 0.300824 1  435             Rx   d 8 00 00 00 00 00 00 00 00
 0.304454 1  47              Rx   d 8 64 22 BC F4 3B 98 00 00
 0.304622 1  165             Rx   d 8 20 81 00 00 00 00 00 00
 0.304876 1  167             Rx   d 8 00 FF FF 00 00 02 0E 00
 0.305090 1  200             Rx   d 8 00 00 80 26 80 26 F0 00
 0.305336 1  202             Rx   d 8 00 CC 00 00 00 00 00 00
 0.305621 1  204             Rx   d 8 00 00 FF 00 00 00 00 00
 0.305842 1  230             Rx   d 8 F0 1C 00 00 00 00 00 00
 0.306087 1  3B6             Rx   d 8 0A 00 00 00 00 00 00 00
 0.306349 1  3B7             Rx   d 8 00 00 00 00 00 00 00 00
 0.306601 1  42C             Rx   d 8 80 02 00 00 00 00 00 00
 0.314643 1  156             Rx   d 8 BA 00 00 00 00 00 00 00
 0.314685 1  167             Rx   d 8 00 FF FF 00 00 02 0E 00
 0.314929 1  171             Rx   d 8 F0 E0 00 00 00 00 00 00
 0.315178 1  178             Rx   d 8 00 00 02 00 02 54 C6 53
 0.315504 1  41              Rx   d 8 00 00 00 00 00 00 00 00
 0.316012 1  84              Rx   d 8 00 00 00 01 01 21 0C 00
 0.316054 1  179             Rx   d 8 00 00 08 00 22 FF 00 00
 0.316417 1  17C             Rx   d 8 00 00 00 00 00 00 00 00
 0.316435 1  204             Rx   d 8 00 00 FF 00 00 00 00 00
 0.316641 1  242             Rx   d 8 FF FF 3F FF B6 00 03 01
 0.316833 1  42F             Rx   d 8 7D 02 05 4E 20 FF 00 00
 0.324734 1  47              Rx   d 8 64 22 BC F4 3B 98 00 00
 0.324796 1  165             Rx   d 8 20 81 00 00 00 00 00 00
 0.325242 1  167             Rx   d 8 00 FF FF 00 00 02 0E 00
 0.325263 1  200             Rx   d 8 00 00 80 26 80 26 F0 00
 0.325448 1  202             Rx   d 8 00 CC 00 00 00 00 00 00
 0.325635 1  204             Rx   d 8 00 00 FF 00 00 00 00 00
 0.325870 1  230             Rx   d 8 F0 1C 00 00 00 00 00 00
 0.326098 1  43D             Rx   d 8 14 00 21 00 00 00 00 00
 0.326333 1  43E             Rx   d 8 00 00 00 00 00 00 00 00
 0.334504 1  167             Rx   d 8 00 FF FF 00 00 02 0E 00
 0.334667 1  204             Rx   d 8 00 00 FF 00 00 00 00 00
 0.334882 1  41              Rx   d 8 00 00 00 00 00 00 00 00
 0.344461 1  47              Rx   d 8 64 22 BC F4 3B 98 00 00
 0.344646 1  165             Rx   d 8 20 81 00 00 00 00 00 00
 0.344864 1  167             Rx   d 8 00 FF FF 00 00 02 0E 00
 0.345099 1  171             Rx   d 8 F0 E0 00 00 00 00 00 00
 0.345342 1  200             Rx   d 8 00 00 80 26 80 26 F0 00
 0.345597 1  202             Rx   d 8 00 CC 00 00 00 00 00 00
 0.345870 1  204             Rx   d 8 00 00 FF 00 00 00 00 00
 0.346116 1  230             Rx   d 8 F0 1C 00 00 00 00 00 00
 0.346365 1  42F             Rx   d 8 7D 02 05 4E 20 FF 00 00
 0.354669 1  167             Rx   d 8 00 FF FF 00 00 02 0E 00
 0.354710 1  204             Rx   d 8 00 00 FF 00 00 00 00 00
 0.354980 1  41              Rx   d 8 00 00 00 00 00 00 00 00
 0.355176 1  242             Rx   d 8 FF FF 3F FF B6 00 03 01
 0.355459 1  40A             Rx   d 8 C1 10 40 84 20 08 80 00
 0.355662 1  42C             Rx   d 8 80 02 00 00 00 00 00 00
 0.364482 1  47              Rx   d 8 64 22 BC F4 3B 98 00 00
 0.364654 1  165             Rx   d 8 20 81 00 00 00 00 00 00
 0.364876 1  167             Rx   d 8 00 FF FF 00 00 02 0E 00
 0.365087 1  200             Rx   d 8 00 00 80 26 80 26 F0 00
 0.365333 1  202             Rx   d 8 00 CC 00 00 00 00 00 00
 0.365580 1  204             Rx   d 8 00 00 FF 00 00 00 00 00
 0.365826 1  230             Rx   d 8 F0 1C 00 00 00 00 00 00
 0.373825 1  41              Rx   d 8 00 00 00 00 00 00 00 00
 0.374375 1  166             Rx   d 8 76 00 00 FF FF FF 00 00
 0.384692 1  47              Rx   d 8 64 22 BC F4 3B 98 00 00
 0.400168 1  23A             Rx   d 8 FF FF FF FF F0 00 00 00
 0.413420 1  41              Rx   d 8 00 00 00 00 00 00 00 00
 0.433321 1  41              Rx   d 8 00 00 00 00 00 00 00 00
 0.453025 1  41              Rx   d 8 00 00 00 00 00 00 00 00
 0.466182 1  230             Rx   d 8 F0 1C 00 00 00 00 00 00
 0.484496 1  47              Rx   d 8 64 22 BC F4 3B 98 00 00
 0.504523 1  47              Rx   d 8 64 22 BC F4 3B 98 00 00
 0.524465 1  47              Rx   d 8 64 22 BC F4 3B 98 00 00
 0.537253 1  581             Rx   d 8 81 00 FF FF FF FF FF FF
 0.555059 1  204             Rx   d 8 00 00 FF 00 00 00 00 00
 0.574453 1  166             Rx   d 8 76 00 00 FF FF FF 00 00
 0.590883 1  41              Rx   d 8 00 00 00 00 00 00 00 00
 0.604446 1  47              Rx   d 8 64 22 BC F4 3B 98 00 00
 0.624585 1  47              Rx   d 8 64 22 BC F4 3B 98 00 00
 0.630316 1  41              Rx   d 8 00 00 00 00 00 00 00 00
 0.644500 1  47              Rx   d 8 64 22 BC F4 3B 98 00 00
 0.644760 1  165             Rx   d 8 20 81 00 00 00 00 00 00
 0.645098 1  167             Rx   d 8 00 FF FF 00 00 02 0E 00
 0.654668 1  167             Rx   d 8 00 FF FF 00 00 02 0E 00
 0.664733 1  47              Rx   d 8 64 22 BC F4 3B 98 00 00
 0.676152 1  42F             Rx   d 8 7D 02 05 4E 20 FF 00 00
 0.688658 1  41              Rx   d 8 00 00 00 00 00 00 00 00
 0.704767 1  47              Rx   d 8 64 22 BC F4 3B 98 00 00
 0.724505 1  47              Rx   d 8 64 22 BC F4 3B 98 00 00
 0.725903 1  230             Rx   d 8 F0 1C 00 00 00 00 00 00
 0.744486 1  47              Rx   d 8 64 22 BC F4 3B 98 00 00
 0.745121 1  200             Rx   d 8 00 00 80 26 80 26 F0 00
 0.764621 1  47              Rx   d 8 64 22 BC F4 3B 98 00 00
 0.774689 1  166             Rx   d 8 76 00 00 FF FF FF 00 00
 0.784464 1  47              Rx   d 8 64 22 BC F4 3B 98 00 00
 0.784656 1  165             Rx   d 8 20 81 00 00 00 00 00 00
 0.784870 1  167             Rx   d 8 00 FF FF 00 00 02 0E 00
 0.785874 1  230             Rx   d 8 F0 1C 00 00 00 00 00 00
 0.794487 1  167             Rx   d 8 00 FF FF 00 00 02 0E 00
 0.794657 1  171             Rx   d 8 F0 E0 00 00 00 00 00 00
 0.794930 1  204             Rx   d 8 00 00 FF 00 00 00 00 00
 0.801386 1  435             Rx   d 8 00 00 00 00 00 00 00 00
 0.804658 1  47              Rx   d 8 64 22 BC F4 3B 98 00 00
 0.824435 1  47              Rx   d 8 64 22 BC F4 3B 98 00 00
 0.824597 1  165             Rx   d 8 20 81 00 00 00 00 00 00
 0.834531 1  167             Rx   d 8 00 FF FF 00 00 02 0E 00
 0.834776 1  204             Rx   d 8 00 00 FF 00 00 00 00 00
 0.844424 1  47              Rx   d 8 64 22 BC F4 3B 98 00 00
 0.844617 1  165             Rx   d 8 20 81 00 00 00 00 00 00
 0.844849 1  167             Rx   d 8 00 FF FF 00 00 02 0E 00
 0.854621 1  167             Rx   d 8 00 FF FF 00 00 02 0E 00
 0.864501 1  47              Rx   d 8 64 22 BC F4 3B 98 00 00
 0.874462 1  166             Rx   d 8 76 00 00 FF FF FF 00 00
 0.884628 1  47              Rx   d 8 64 22 BC F4 3B 98 00 00
 0.884665 1  165             Rx   d 8 20 81 00 00 00 00 00 00
 0.894664 1  167             Rx   d 8 00 FF FF 00 00 02 0E 00
 0.914462 1  156             Rx   d 8 BA 00 00 00 00 00 00 00
 0.924516 1  41              Rx   d 8 00 00 00 00 00 00 00 00
 0.944421 1  47              Rx   d 8 64 22 BC F4 3B 98 00 00
 0.963539 1  41              Rx   d 8 00 00 00 00 00 00 00 00
 0.974472 1  166             Rx   d 8 76 00 00 FF FF FF 00 00
 0.983799 1  41              Rx   d 8 00 00 00 00 00 00 00 00
 0.993025 1  42C             Rx   d 8 80 02 00 00 00 00 00 00
 0.994501 1  167             Rx   d 8 00 FF FF 00 00 02 0E 00
 1.000638 1  434             Rx   d 8 00 00 00 00 0F FF 00 10
 1.014472 1  156             Rx   d 8 BA 00 00 00 00 00 00 00
 1.034629 1  167             Rx   d 8 00 FF FF 00 00 02 0E 00
 1.044373 1  47              Rx   d 8 64 22 BC F4 3B 98 00 00
 1.062232 1  41              Rx   d 8 00 00 00 00 00 00 00 00
 1.074614 1  166             Rx   d 8 76 00 00 FF FF FF 00 00
 1.085582 1  204             Rx   d 8 00 00 FF 00 00 00 00 00
 1.102766 1  438             Rx   d 8 00 00 00 00 00 00 00 00
 1.114615 1  156             Rx   d 8 BA 00 00 00 00 00 00 00
 1.124376 1  47              Rx   d 8 64 22 BC F4 3B 98 00 00
 1.141455 1  41              Rx   d 8 00 00 00 00 00 00 00 00
 1.154632 1  167             Rx   d 8 00 FF FF 00 00 02 0E 00
 1.164456 1  47              Rx   d 8 64 22 BC F4 3B 98 00 00
 1.174621 1  166             Rx   d 8 76 00 00 FF FF FF 00 00
 1.174670 1  167             Rx   d 8 00 FF FF 00 00 02 0E 00
 1.185842 1  204             Rx   d 8 00 00 FF 00 00 00 00 00
 1.194469 1  167             Rx   d 8 00 FF FF 00 00 02 0E 00
 1.219825 1  41              Rx   d 8 00 00 00 00 00 00 00 00
 1.234482 1  167             Rx   d 8 00 FF FF 00 00 02 0E 00
 1.254601 1  167             Rx   d 8 00 FF FF 00 00 02 0E 00
 1.264596 1  47              Rx   d 8 64 22 BC F4 3B 98 00 00
 1.274467 1  166             Rx   d 8 76 00 00 FF FF FF 00 00
 1.294700 1  167             Rx   d 8 00 FF FF 00 00 02 0E 00
 1.298356 1  41              Rx   d 8 00 00 00 00 00 00 00 00
 1.314441 1  156             Rx   d 8 BA 00 00 00 00 00 00 00
 1.334713 1  167             Rx   d 8 00 FF FF 00 00 02 0E 00
 1.344472 1  47              Rx   d 8 64 22 BC F4 3B 98 00 00
 1.364675 1  47              Rx   d 8 64 22 BC F4 3B 98 00 00
 1.376153 1  43E             Rx   d 8 00 00 00 00 00 00 00 00
 1.394482 1  167             Rx   d 8 00 FF FF 00 00 02 0E 00
 1.405881 1  230             Rx   d 8 F0 1C 00 00 00 00 00 00
 1.414630 1  156             Rx   d 8 BA 00 00 00 00 00 00 00
 1.424473 1  47              Rx   d 8 64 22 BC F4 3B 98 00 00
 1.444658 1  47              Rx   d 8 64 22 BC F4 3B 98 00 00
 1.454483 1  167             Rx   d 8 00 FF FF 00 00 02 0E 00
 1.464432 1  47              Rx   d 8 64 22 BC F4 3B 98 00 00
 1.474502 1  166             Rx   d 8 76 00 00 FF FF FF 00 00
 1.484617 1  47              Rx   d 8 64 22 BC F4 3B 98 00 00
 1.494481 1  167             Rx   d 8 00 FF FF 00 00 02 0E 00
 1.514751 1  41              Rx   d 8 00 00 00 00 00 00 00 00
 1.520463 1  581             Rx   d 8 81 00 FF FF FF FF FF FF
 1.534503 1  167             Rx   d 8 00 FF FF 00 00 02 0E 00
 1.545341 1  200             Rx   d 8 00 00 80 26 80 26 F0 00
 1.553525 1  41              Rx   d 8 00 00 00 00 00 00 00 00
 1.565117 1  200             Rx   d 8 00 00 80 26 80 26 F0 00
 1.582815 1  3B4             Rx   d 8 34 21 11 FF 1E 1A 00 00
 1.584382 1  47              Rx   d 8 64 22 BC F4 3B 98 00 00
 1.600459 1  23A             Rx   d 8 FF FF FF FF F0 00 00 00
 1.612949 1  41              Rx   d 8 00 00 00 00 00 00 00 00
 1.626376 1  43E             Rx   d 8 00 00 00 00 00 00 00 00
 1.644470 1  47              Rx   d 8 64 22 BC F4 3B 98 00 00
 1.664485 1  47              Rx   d 8 64 22 BC F4 3B 98 00 00
 1.671440 1  41              Rx   d 8 00 00 00 00 00 00 00 00
 1.684362 1  47              Rx   d 8 64 22 BC F4 3B 98 00 00
 1.694495 1  167             Rx   d 8 00 FF FF 00 00 02 0E 00
 1.711079 1  41              Rx   d 8 00 00 00 00 00 00 00 00
 1.714926 1  178             Rx   d 8 00 00 02 00 02 54 C6 53
 1.726845 1  43E             Rx   d 8 00 00 00 00 00 00 00 00
 1.744619 1  47              Rx   d 8 64 22 BC F4 3B 98 00 00
 1.754475 1  167             Rx   d 8 00 FF FF 00 00 02 0E 00
 1.764420 1  47              Rx   d 8 64 22 BC F4 3B 98 00 00
 1.784582 1  47              Rx   d 8 64 22 BC F4 3B 98 00 00
 1.794456 1  167             Rx   d 8 00 FF FF 00 00 02 0E 00
 1.800472 1  23A             Rx   d 8 FF FF FF FF F0 00 00 00
 1.814591 1  156             Rx   d 8 BA 00 00 00 00 00 00 00
 1.825828 1  230             Rx   d 8 F0 1C 00 00 00 00 00 00
 1.844445 1  47              Rx   d 8 64 22 BC F4 3B 98 00 00
 1.854612 1  167             Rx   d 8 00 FF FF 00 00 02 0E 00
 1.864576 1  47              Rx   d 8 64 22 BC F4 3B 98 00 00
 1.875115 1  204             Rx   d 8 00 00 FF 00 00 00 00 00
 1.884469 1  47              Rx   d 8 64 22 BC F4 3B 98 00 00
 1.894706 1  167             Rx   d 8 00 FF FF 00 00 02 0E 00
 1.914433 1  156             Rx   d 8 BA 00 00 00 00 00 00 00
 1.924495 1  47              Rx   d 8 64 22 BC F4 3B 98 00 00
 1.925358 1  202             Rx   d 8 00 CC 00 00 00 00 00 00
 1.934524 1  167             Rx   d 8 00 FF FF 00 00 02 0E 00
 1.944443 1  47              Rx   d 8 64 22 BC F4 3B 98 00 00
 1.954531 1  167             Rx   d 8 00 FF FF 00 00 02 0E 00
 1.965890 1  204             Rx   d 8 00 00 FF 00 00 00 00 00
 1.984483 1  47              Rx   d 8 64 22 BC F4 3B 98 00 00
 1.994462 1  167             Rx   d 8 00 FF FF 00 00 02 0E 00
 2.014647 1  156             Rx   d 8 BA 00 00 00 00 00 00 00
 2.015591 1  17C             Rx   d 8 00 00 00 00 00 00 00 00
 2.034451 1  167             Rx   d 8 00 FF FF 00 00 02 0E 00
 2.045619 1  202             Rx   d 8 00 CC 00 00 00 00 00 00
 2.064394 1  47              Rx   d 8 64 22 BC F4 3B 98 00 00
 2.084581 1  47              Rx   d 8 64 22 BC F4 3B 98 00 00
 2.100716 1  23A             Rx   d 8 FF FF FF FF F0 00 00 00
 2.114597 1  156             Rx   d 8 BA 00 00 00 00 00 00 00
 2.134472 1  167             Rx   d 8 00 FF FF 00 00 02 0E 00
 2.143132 1  41              Rx   d 8 00 00 00 00 00 00 00 00
 2.163373 1  41              Rx   d 8 00 00 00 00 00 00 00 00
 2.174420 1  166             Rx   d 8 76 00 00 FF FF FF 00 00
 2.194508 1  167             Rx   d 8 00 FF FF 00 00 02 0E 00
 2.205089 1  171             Rx   d 8 F0 E0 00 00 00 00 00 00
 2.222511 1  41              Rx   d 8 00 00 00 00 00 00 00 00
 2.234600 1  167             Rx   d 8 00 FF FF 00 00 02 0E 00
 2.254495 1  167             Rx   d 8 00 FF FF 00 00 02 0E 00
 2.265145 1  171             Rx   d 8 F0 E0 00 00 00 00 00 00
 2.281385 1  41              Rx   d 8 00 00 00 00 00 00 00 00
 2.295079 1  42F             Rx   d 8 7D 02 05 4E 20 FF 00 00
 2.314626 1  156             Rx   d 8 BA 00 00 00 00 00 00 00
 2.325605 1  202             Rx   d 8 00 CC 00 00 00 00 00 00
 2.339946 1  41              Rx   d 8 00 00 00 00 00 00 00 00
 2.354492 1  167             Rx   d 8 00 FF FF 00 00 02 0E 00
 2.369014 1  42C             Rx   d 8 80 02 00 00 00 00 00 00
 2.385947 1  204             Rx   d 8 00 00 FF 00 00 00 00 00
 2.399196 1  41              Rx   d 8 00 00 00 00 00 00 00 00
 2.414573 1  156             Rx   d 8 BA 00 00 00 00 00 00 00
 2.434503 1  167             Rx   d 8 00 FF FF 00 00 02 0E 00
 2.454679 1  167             Rx   d 8 00 FF FF 00 00 02 0E 00
 2.465825 1  230             Rx   d 8 F0 1C 00 00 00 00 00 00
 2.484568 1  47              Rx   d 8 64 22 BC F4 3B 98 00 00
 2.501201 1  434             Rx   d 8 00 00 00 00 0F FF 00 10
 2.518477 1  3B6             Rx   d 8 0A 00 00 00 00 00 00 00
 2.536756 1  41              Rx   d 8 00 00 00 00 00 00 00 00
 2.554447 1  167             Rx   d 8 00 FF FF 00 00 02 0E 00
 2.574571 1  166             Rx   d 8 76 00 00 FF FF FF 00 00
 2.584862 1  167             Rx   d 8 00 FF FF 00 00 02 0E 00
 2.601322 1  23A             Rx   d 8 FF FF FF FF F0 00 00 00
 2.614481 1  156             Rx   d 8 BA 00 00 00 00 00 00 00
 2.634656 1  167             Rx   d 8 00 FF FF 00 00 02 0E 00
 2.645911 1  230             Rx   d 8 F0 1C 00 00 00 00 00 00
 2.663900 1  42C             Rx   d 8 80 02 00 00 00 00 00 00
 2.684701 1  47              Rx   d 8 64 22 BC F4 3B 98 00 00
 2.684942 1  167             Rx   d 8 00 FF FF 00 00 02 0E 00
 2.704374 1  47              Rx   d 8 64 22 BC F4 3B 98 00 00
 2.724471 1  47              Rx   d 8 64 22 BC F4 3B 98 00 00
 2.733254 1  41              Rx   d 8 00 00 00 00 00 00 00 00
 2.744889 1  167             Rx   d 8 00 FF FF 00 00 02 0E 00
 2.762301 1  331             Rx   d 8 C0 00 48 B6 02 00 00 00
 2.772313 1  41              Rx   d 8 00 00 00 00 00 00 00 00
 2.792584 1  41              Rx   d 8 00 00 00 00 00 00 00 00
 2.812356 1  41              Rx   d 8 00 00 00 00 00 00 00 00
 2.824651 1  47              Rx   d 8 64 22 BC F4 3B 98 00 00
 2.832005 1  41              Rx   d 8 00 00 00 00 00 00 00 00
 2.850986 1  41              Rx   d 8 00 00 00 00 00 00 00 00
 2.871278 1  41              Rx   d 8 00 00 00 00 00 00 00 00
 2.884450 1  47              Rx   d 8 64 22 BC F4 3B 98 00 00
 2.904445 1  47              Rx   d 8 64 22 BC F4 3B 98 00 00
 2.924458 1  47              Rx   d 8 64 22 BC F4 3B 98 00 00
 2.934507 1  167             Rx   d 8 00 FF FF 00 00 02 0E 00
 2.954393 1  167             Rx   d 8 00 FF FF 00 00 02 0E 00
 2.968979 1  41              Rx   d 8 00 00 00 00 00 00 00 00
 2.984570 1  47              Rx   d 8 64 22 BC F4 3B 98 00 00
 3.000982 1  23A             Rx   d 8 FF FF FF FF F0 00 00 00
 3.015862 1  204             Rx   d 8 00 00 FF 00 00 00 00 00
 3.034419 1  167             Rx   d 8 00 FF FF 00 00 02 0E 00
 3.054522 1  167             Rx   d 8 00 FF FF 00 00 02 0E 00
 3.074464 1  166             Rx   d 8 76 00 00 FF FF FF 00 00
 3.101057 1  23A             Rx   d 8 FF FF FF FF F0 00 00 00
 3.114446 1  156             Rx   d 8 BA 00 00 00 00 00 00 00
 3.124931 1  167             Rx   d 8 00 FF FF 00 00 02 0E 00
 3.144398 1  47              Rx   d 8 64 22 BC F4 3B 98 00 00
 3.164472 1  47              Rx   d 8 64 22 BC F4 3B 98 00 00
 3.174481 1  166             Rx   d 8 76 00 00 FF FF FF 00 00
 3.186311 1  242             Rx   d 8 FF FF 3F FF B6 00 03 01
 3.204610 1  47              Rx   d 8 64 22 BC F4 3B 98 00 00
 3.224443 1  47              Rx   d 8 64 22 BC F4 3B 98 00 00
 3.234597 1  167             Rx   d 8 00 FF FF 00 00 02 0E 00
 3.253782 1  3B6             Rx   d 8 0A 00 00 00 00 00 00 00
 3.274600 1  166             Rx   d 8 76 00 00 FF FF FF 00 00
 3.283756 1  41              Rx   d 8 00 00 00 00 00 00 00 00
 3.301121 1  23A             Rx   d 8 FF FF FF FF F0 00 00 00
 3.322851 1  41              Rx   d 8 00 00 00 00 00 00 00 00
 3.342833 1  41              Rx   d 8 00 00 00 00 00 00 00 00
 3.352146 1  42C             Rx   d 8 80 02 00 00 00 00 00 00
 3.374434 1  166             Rx   d 8 76 00 00 FF FF FF 00 00
 3.384574 1  47              Rx   d 8 64 22 BC F4 3B 98 00 00
 3.402349 1  435             Rx   d 8 00 00 00 00 00 00 00 00
 3.421717 1  41              Rx   d 8 00 00 00 00 00 00 00 00
 3.434440 1  167             Rx   d 8 00 FF FF 00 00 02 0E 00
 3.450374 1  42C             Rx   d 8 80 02 00 00 00 00 00 00
 3.474441 1  166             Rx   d 8 76 00 00 FF FF FF 00 00
 3.484623 1  165             Rx   d 8 20 81 00 00 00 00 00 00
 3.502968 1  3EB             Rx   d 8 00 04 04 00 00 00 00 00
 3.524432 1  47              Rx   d 8 64 22 BC F4 3B 98 00 00
 3.539731 1  41              Rx   d 8 00 00 00 00 00 00 00 00
 3.555096 1  42F             Rx   d 8 7D 02 05 4E 20 FF 00 00
 3.574491 1  166             Rx   d 8 76 00 00 FF FF FF 00 00
 3.594433 1  167             Rx   d 8 00 FF FF 00 00 02 0E 00
 3.614643 1  156             Rx   d 8 BA 00 00 00 00 00 00 00
 3.626339 1  43E             Rx   d 8 00 00 00 00 00 00 00 00
 3.644626 1  47              Rx   d 8 64 22 BC F4 3B 98 00 00
 3.657500 1  41              Rx   d 8 00 00 00 00 00 00 00 00
 3.674426 1  166             Rx   d 8 76 00 00 FF FF FF 00 00
 3.694464 1  167             Rx   d 8 00 FF FF 00 00 02 0E 00
 3.714633 1  156             Rx   d 8 BA 00 00 00 00 00 00 00
 3.724494 1  47              Rx   d 8 64 22 BC F4 3B 98 00 00
 3.744421 1  47              Rx   d 8 64 22 BC F4 3B 98 00 00
 3.764601 1  47              Rx   d 8 64 22 BC F4 3B 98 00 00
 3.776390 1  43D             Rx   d 8 14 00 21 00 00 00 00 00
 3.794495 1  167             Rx   d 8 00 FF FF 00 00 02 0E 00
 3.814455 1  156             Rx   d 8 BA 00 00 00 00 00 00 00
 3.824432 1  47              Rx   d 8 64 22 BC F4 3B 98 00 00
 3.843514 1  42C             Rx   d 8 80 02 00 00 00 00 00 00
 3.854068 1  41              Rx   d 8 00 00 00 00 00 00 00 00
 3.873359 1  41              Rx   d 8 00 00 00 00 00 00 00 00
 3.893747 1  41              Rx   d 8 00 00 00 00 00 00 00 00
 3.913065 1  41              Rx   d 8 00 00 00 00 00 00 00 00
 3.925600 1  204             Rx   d 8 00 00 FF 00 00 00 00 00
 3.941918 1  42C             Rx   d 8 80 02 00 00 00 00 00 00
 3.952034 1  41              Rx   d 8 00 00 00 00 00 00 00 00
 3.964435 1  47              Rx   d 8 64 22 BC F4 3B 98 00 00
 3.975834 1  42D             Rx   d 8 00 03 FF 00 00 00 F0 00
 3.991945 1  41              Rx   d 8 00 00 00 00 00 00 00 00
 4.011514 1  41              Rx   d 8 00 00 00 00 00 00 00 00
 4.024630 1  47              Rx   d 8 64 22 BC F4 3B 98 00 00
 4.044443 1  47              Rx   d 8 64 22 BC F4 3B 98 00 00
 4.064558 1  47              Rx   d 8 64 22 BC F4 3B 98 00 00
 4.091540 1  42C             Rx   d 8 80 02 00 00 00 00 00 00
 4.109692 1  41              Rx   d 8 00 00 00 00 00 00 00 00
 4.124480 1  47              Rx   d 8 64 22 BC F4 3B 98 00 00
 4.144442 1  47              Rx   d 8 64 22 BC F4 3B 98 00 00
 4.164479 1  47              Rx   d 8 64 22 BC F4 3B 98 00 00
 4.174591 1  166             Rx   d 8 76 00 00 FF FF FF 00 00
 4.184422 1  47              Rx   d 8 64 22 BC F4 3B 98 00 00
 4.204646 1  47              Rx   d 8 64 22 BC F4 3B 98 00 00
 4.224469 1  47              Rx   d 8 64 22 BC F4 3B 98 00 00
 4.224646 1  165             Rx   d 8 20 81 00 00 00 00 00 00
 4.227354 1  41              Rx   d 8 00 00 00 00 00 00 00 00
 4.244471 1  47              Rx   d 8 64 22 BC F4 3B 98 00 00
 4.264455 1  47              Rx   d 8 64 22 BC F4 3B 98 00 00
 4.274420 1  166             Rx   d 8 76 00 00 FF FF FF 00 00
 4.294471 1  167             Rx   d 8 00 FF FF 00 00 02 0E 00
 4.314593 1  156             Rx   d 8 BA 00 00 00 00 00 00 00
 4.324562 1  47              Rx   d 8 64 22 BC F4 3B 98 00 00
 4.344403 1  47              Rx   d 8 64 22 BC F4 3B 98 00 00
 4.364593 1  47              Rx   d 8 64 22 BC F4 3B 98 00 00
 4.375827 1  43D             Rx   d 8 14 00 21 00 00 00 00 00
 4.394609 1  167             Rx   d 8 00 FF FF 00 00 02 0E 00
 4.414459 1  156             Rx   d 8 BA 00 00 00 00 00 00 00
 4.433559 1  42C             Rx   d 8 80 02 00 00 00 00 00 00
 4.454440 1  167             Rx   d 8 00 FF FF 00 00 02 0E 00
 4.464401 1  47              Rx   d 8 64 22 BC F4 3B 98 00 00
 4.483714 1  41              Rx   d 8 00 00 00 00 00 00 00 00
 4.501616 1  23A             Rx   d 8 FF FF FF FF F0 00 00 00
 4.514496 1  156             Rx   d 8 BA 00 00 00 00 00 00 00
 4.531717 1  3B4             Rx   d 8 34 21 11 FF 1E 1A 00 00
 4.554641 1  167             Rx   d 8 00 FF FF 00 00 02 0E 00
 4.574452 1  166             Rx   d 8 76 00 00 FF FF FF 00 00
 4.581813 1  41              Rx   d 8 00 00 00 00 00 00 00 00
 4.600989 1  41              Rx   d 8 00 00 00 00 00 00 00 00
 4.614442 1  156             Rx   d 8 BA 00 00 00 00 00 00 00
 4.634447 1  167             Rx   d 8 00 FF FF 00 00 02 0E 00
 4.654599 1  167             Rx   d 8 00 FF FF 00 00 02 0E 00
 4.674443 1  166             Rx   d 8 76 00 00 FF FF FF 00 00
 4.684391 1  47              Rx   d 8 64 22 BC F4 3B 98 00 00
 4.701870 1  23A             Rx   d 8 FF FF FF FF F0 00 00 00
 4.724432 1  47              Rx   d 8 64 22 BC F4 3B 98 00 00
 4.738642 1  41              Rx   d 8 00 00 00 00 00 00 00 00
 4.758421 1  41              Rx   d 8 00 00 00 00 00 00 00 00
 4.774644 1  166             Rx   d 8 76 00 00 FF FF FF 00 00
 4.784446 1  47              Rx   d 8 64 22 BC F4 3B 98 00 00
 4.801915 1  23A             Rx   d 8 FF FF FF FF F0 00 00 00
 4.816956 1  41              Rx   d 8 00 00 00 00 00 00 00 00
 4.834444 1  167             Rx   d 8 00 FF FF 00 00 02 0E 00
 4.854600 1  167             Rx   d 8 00 FF FF 00 00 02 0E 00
 4.874477 1  166             Rx   d 8 76 00 00 FF FF FF 00 00
 4.894635 1  167             Rx   d 8 00 FF FF 00 00 02 0E 00
 4.905317 1  200             Rx   d 8 00 00 80 26 80 26 F0 00
 4.924622 1  47              Rx   d 8 64 22 BC F4 3B 98 00 00
 4.944395 1  47              Rx   d 8 64 22 BC F4 3B 98 00 00
 4.954475 1  167             Rx   d 8 00 FF FF 00 00 02 0E 00
 4.974424 1  166             Rx   d 8 76 00 00 FF FF FF 00 00
 4.994602 1  41              Rx   d 8 00 00 00 00 00 00 00 00
 5.001880 1  23A             Rx   d 8 FF FF FF FF F0 00 00 00
 5.023230 1  42C             Rx   d 8 80 02 00 00 00 00 00 00
 5.045811 1  230             Rx   d 8 F0 1C 00 00 00 00 00 00
 5.064580 1  47              Rx   d 8 64 22 BC F4 3B 98 00 00
 5.073604 1  41              Rx   d 8 00 00 00 00 00 00 00 00
 5.084544 1  47              Rx   d 8 64 22 BC F4 3B 98 00 00
 5.094477 1  167             Rx   d 8 00 FF FF 00 00 02 0E 00
 5.113016 1  41              Rx   d 8 00 00 00 00 00 00 00 00
 5.131929 1  41              Rx   d 8 00 00 00 00 00 00 00 00
 5.144535 1  47              Rx   d 8 64 22 BC F4 3B 98 00 00
 5.144566 1  165             Rx   d 8 20 81 00 00 00 00 00 00
 5.144850 1  167             Rx   d 8 00 FF FF 00 00 02 0E 00
 5.164469 1  47              Rx   d 8 64 22 BC F4 3B 98 00 00
 5.176333 1  43D             Rx   d 8 14 00 21 00 00 00 00 00
 5.194342 1  167             Rx   d 8 00 FF FF 00 00 02 0E 00
 5.214446 1  156             Rx   d 8 BA 00 00 00 00 00 00 00
 5.230363 1  41              Rx   d 8 00 00 00 00 00 00 00 00
 5.264434 1  47              Rx   d 8 64 22 BC F4 3B 98 00 00
 5.270082 1  41              Rx   d 8 00 00 00 00 00 00 00 00
 5.289325 1  41              Rx   d 8 00 00 00 00 00 00 00 00
 5.302115 1  23A             Rx   d 8 FF FF FF FF F0 00 00 00
 5.325232 1  47              Rx   d 8 64 22 BC F4 3B 98 00 00
 5.328406 1  41              Rx   d 8 00 00 00 00 00 00 00 00
 5.334469 1  167             Rx   d 8 00 FF FF 00 00 02 0E 00
 5.334657 1  204             Rx   d 8 00 00 FF 00 00 00 00 00
 5.344569 1  47              Rx   d 8 64 22 BC F4 3B 98 00 00
 5.344614 1  165             Rx   d 8 20 81 00 00 00 00 00 00
 5.344931 1  167             Rx   d 8 00 FF FF 00 00 02 0E 00
 5.345131 1  200             Rx   d 8 00 00 80 26 80 26 F0 00
 5.345346 1  202             Rx   d 8 00 CC 00 00 00 00 00 00
 5.355301 1  204             Rx   d 8 00 00 FF 00 00 00 00 00
 5.375583 1  42D             Rx   d 8 00 03 FF 00 00 00 F0 00
 5.394750 1  167             Rx   d 8 00 FF FF 00 00 02 0E 00
 5.414484 1  156             Rx   d 8 BA 00 00 00 00 00 00 00
 5.434773 1  167             Rx   d 8 00 FF FF 00 00 02 0E 00
 5.446347 1  230             Rx   d 8 F0 1C 00 00 00 00 00 00
 5.452348 1  581             Rx   d 8 81 00 FF FF FF FF FF FF
 5.454435 1  167             Rx   d 8 00 FF FF 00 00 02 0E 00
 5.454617 1  204             Rx   d 8 00 00 FF 00 00 00 00 00
 5.464560 1  47              Rx   d 8 64 22 BC F4 3B 98 00 00
 5.464602 1  165             Rx   d 8 20 81 00 00 00 00 00 00
 5.465198 1  167             Rx   d 8 00 FF FF 00 00 02 0E 00
 5.465248 1  200             Rx   d 8 00 00 80 26 80 26 F0 00
 5.465895 1  202             Rx   d 8 00 CC 00 00 00 00 00 00
 5.465935 1  204             Rx   d 8 00 00 FF 00 00 00 00 00
 5.469427 1  447             Rx   d 8 20 00 00 4B 00 20 00 00
 5.494416 1  167             Rx   d 8 00 FF FF 00 00 02 0E 00
 5.505138 1  47              Rx   d 8 64 22 BC F4 3B 98 00 00
 5.524384 1  47              Rx   d 8 64 22 BC F4 3B 98 00 00
 5.544553 1  47              Rx   d 8 64 22 BC F4 3B 98 00 00
 5.554440 1  167             Rx   d 8 00 FF FF 00 00 02 0E 00
 5.574568 1  166             Rx   d 8 76 00 00 FF FF FF 00 00
 5.594435 1  167             Rx   d 8 00 FF FF 00 00 02 0E 00
 5.613233 1  42C             Rx   d 8 80 02 00 00 00 00 00 00
 5.625546 1  202             Rx   d 8 00 CC 00 00 00 00 00 00
 5.642640 1  41              Rx   d 8 00 00 00 00 00 00 00 00
 5.663021 1  41              Rx   d 8 00 00 00 00 00 00 00 00
 5.682315 1  41              Rx   d 8 00 00 00 00 00 00 00 00
 5.694495 1  167             Rx   d 8 00 FF FF 00 00 02 0E 00
 5.711332 1  331             Rx   d 8 C0 00 48 B9 02 00 00 00
 5.724452 1  47              Rx   d 8 64 22 BC F4 3B 98 00 00
 5.741498 1  242             Rx   d 8 FF FF 3F FF B6 00 03 01
 5.761132 1  41              Rx   d 8 00 00 00 00 00 00 00 00
 5.774443 1  166             Rx   d 8 76 00 00 FF FF FF 00 00
 5.794410 1  167             Rx   d 8 00 FF FF 00 00 02 0E 00
 5.809805 1  42C             Rx   d 8 80 02 00 00 00 00 00 00
 5.824825 1  167             Rx   d 8 00 FF FF 00 00 02 0E 00
 5.844539 1  47              Rx   d 8 64 22 BC F4 3B 98 00 00
 5.864417 1  47              Rx   d 8 64 22 BC F4 3B 98 00 00
 5.878704 1  41              Rx   d 8 00 00 00 00 00 00 00 00
 5.898677 1  41              Rx   d 8 00 00 00 00 00 00 00 00
 5.914624 1  156             Rx   d 8 BA 00 00 00 00 00 00 00
 5.924437 1  47              Rx   d 8 64 22 BC F4 3B 98 00 00
 5.944439 1  47              Rx   d 8 64 22 BC F4 3B 98 00 00
 5.954559 1  167             Rx   d 8 00 FF FF 00 00 02 0E 00
 5.974408 1  166             Rx   d 8 76 00 00 FF FF FF 00 00
 5.994595 1  167             Rx   d 8 00 FF FF 00 00 02 0E 00
 6.014447 1  156             Rx   d 8 BA 00 00 00 00 00 00 00
 6.024467 1  47              Rx   d 8 64 22 BC F4 3B 98 00 00
 6.044379 1  47              Rx   d 8 64 22 BC F4 3B 98 00 00
 6.064649 1  47              Rx   d 8 64 22 BC F4 3B 98 00 00
 6.074440 1  166             Rx   d 8 76 00 00 FF FF FF 00 00
 6.091735 1  59E             Rx   d 8 9E 00 FF FF FF FF FF FF
 6.114465 1  156             Rx   d 8 BA 00 00 00 00 00 00 00
 6.124400 1  47              Rx   d 8 64 22 BC F4 3B 98 00 00
 6.144573 1  47              Rx   d 8 64 22 BC F4 3B 98 00 00
 6.164425 1  47              Rx   d 8 64 22 BC F4 3B 98 00 00
 6.174387 1  166             Rx   d 8 76 00 00 FF FF FF 00 00
 6.193178 1  41              Rx   d 8 00 00 00 00 00 00 00 00
 6.213574 1  41              Rx   d 8 00 00 00 00 00 00 00 00
 6.224401 1  47              Rx   d 8 64 22 BC F4 3B 98 00 00
 6.244566 1  47              Rx   d 8 64 22 BC F4 3B 98 00 00
 6.264439 1  47              Rx   d 8 64 22 BC F4 3B 98 00 00
 6.275804 1  43D             Rx   d 8 14 00 21 00 00 00 00 00
 6.292062 1  41              Rx   d 8 00 00 00 00 00 00 00 00
 6.311443 1  41              Rx   d 8 00 00 00 00 00 00 00 00
 6.324631 1  47              Rx   d 8 64 22 BC F4 3B 98 00 00
 6.344392 1  47              Rx   d 8 64 22 BC F4 3B 98 00 00
 6.350985 1  41              Rx   d 8 00 00 00 00 00 00 00 00
 6.364462 1  47              Rx   d 8 64 22 BC F4 3B 98 00 00
 6.384398 1  47              Rx   d 8 64 22 BC F4 3B 98 00 00
 6.399412 1  42C             Rx   d 8 80 02 00 00 00 00 00 00
 6.424403 1  47              Rx   d 8 64 22 BC F4 3B 98 00 00
 6.434863 1  204             Rx   d 8 00 00 FF 00 00 00 00 00
 6.454387 1  167             Rx   d 8 00 FF FF 00 00 02 0E 00
 6.474583 1  166             Rx   d 8 76 00 00 FF FF FF 00 00
 6.488590 1  41              Rx   d 8 00 00 00 00 00 00 00 00
 6.505857 1  230             Rx   d 8 F0 1C 00 00 00 00 00 00
 6.524810 1  167             Rx   d 8 00 FF FF 00 00 02 0E 00
 6.544541 1  47              Rx   d 8 64 22 BC F4 3B 98 00 00
 6.564436 1  47              Rx   d 8 64 22 BC F4 3B 98 00 00
 6.574407 1  166             Rx   d 8 76 00 00 FF FF FF 00 00
 6.594477 1  167             Rx   d 8 00 FF FF 00 00 02 0E 00
 6.604559 1  165             Rx   d 8 20 81 00 00 00 00 00 00
 6.624556 1  47              Rx   d 8 64 22 BC F4 3B 98 00 00
 6.644394 1  47              Rx   d 8 64 22 BC F4 3B 98 00 00
 6.654574 1  167             Rx   d 8 00 FF FF 00 00 02 0E 00
 6.674408 1  166             Rx   d 8 76 00 00 FF FF FF 00 00
 6.694497 1  331             Rx   d 8 C0 00 48 BA 02 00 00 00
 6.702518 1  23A             Rx   d 8 FF FF FF FF F0 00 00 00
 6.724421 1  41              Rx   d 8 00 00 00 00 00 00 00 00
 6.744092 1  41              Rx   d 8 00 00 00 00 00 00 00 00
 6.763671 1  41              Rx   d 8 00 00 00 00 00 00 00 00
 6.774625 1  166             Rx   d 8 76 00 00 FF FF FF 00 00
 6.783268 1  41              Rx   d 8 00 00 00 00 00 00 00 00
 6.802523 1  23A             Rx   d 8 FF FF FF FF F0 00 00 00
 6.822290 1  41              Rx   d 8 00 00 00 00 00 00 00 00
 6.834636 1  204             Rx   d 8 00 00 FF 00 00 00 00 00
 6.854535 1  167             Rx   d 8 00 FF FF 00 00 02 0E 00
 6.874425 1  166             Rx   d 8 76 00 00 FF FF FF 00 00
 6.884566 1  47              Rx   d 8 64 22 BC F4 3B 98 00 00
 6.902465 1  23A             Rx   d 8 FF FF FF FF F0 00 00 00
 6.914463 1  156             Rx   d 8 BA 00 00 00 00 00 00 00
 6.934409 1  167             Rx   d 8 00 FF FF 00 00 02 0E 00
 6.954562 1  167             Rx   d 8 00 FF FF 00 00 02 0E 00
 6.964558 1  47              Rx   d 8 64 22 BC F4 3B 98 00 00
 6.984403 1  47              Rx   d 8 64 22 BC F4 3B 98 00 00
 6.999689 1  41              Rx   d 8 00 00 00 00 00 00 00 00
 7.019153 1  41              Rx   d 8 00 00 00 00 00 00 00 00
 7.034541 1  167             Rx   d 8 00 FF FF 00 00 02 0E 00
 7.054382 1  167             Rx   d 8 00 FF FF 00 00 02 0E 00
 7.074465 1  166             Rx   d 8 76 00 00 FF FF FF 00 00
 7.084391 1  47              Rx   d 8 64 22 BC F4 3B 98 00 00
 7.102764 1  23A             Rx   d 8 FF FF FF FF F0 00 00 00
 7.114572 1  156             Rx   d 8 BA 00 00 00 00 00 00 00
 7.134418 1  167             Rx   d 8 00 FF FF 00 00 02 0E 00
 7.154436 1  167             Rx   d 8 00 FF FF 00 00 02 0E 00
 7.174544 1  166             Rx   d 8 76 00 00 FF FF FF 00 00
 7.185859 1  47              Rx   d 8 64 22 BC F4 3B 98 00 00
 7.194774 1  167             Rx   d 8 00 FF FF 00 00 02 0E 00
 7.202683 1  23A             Rx   d 8 FF FF FF FF F0 00 00 00
 7.202876 1  430             Rx   d 8 00 00 00 00 FE 00 00 00
 7.203032 1  434             Rx   d 8 00 00 00 00 0F FF 00 10
 7.203292 1  435             Rx   d 8 00 00 00 00 00 00 00 00
 7.204354 1  47              Rx   d 8 64 22 BC F4 3B 98 00 00
 7.204825 1  167             Rx   d 8 00 FF FF 00 00 02 0E 00
 7.205550 1  204             Rx   d 8 00 00 FF 00 00 00 00 00
 7.214447 1  156             Rx   d 8 BA 00 00 00 00 00 00 00
 7.214647 1  167             Rx   d 8 00 FF FF 00 00 02 0E 00
 7.214821 1  171             Rx   d 8 F0 E0 00 00 00 00 00 00
 7.215071 1  178             Rx   d 8 00 00 02 00 02 54 C6 53
 7.215296 1  179             Rx   d 8 00 00 08 00 22 FF 00 00
 7.215552 1  17C             Rx   d 8 00 00 00 00 00 00 00 00
 7.215826 1  41              Rx   d 8 00 00 00 00 00 00 00 00
 7.216055 1  204             Rx   d 8 00 00 FF 00 00 00 00 00
 7.216289 1  42F             Rx   d 8 7D 02 05 4E 20 FF 00 00
 7.225312 1  47              Rx   d 8 64 22 BC F4 3B 98 00 00
 7.225371 1  165             Rx   d 8 20 81 00 00 00 00 00 00
 7.244409 1  47              Rx   d 8 64 22 BC F4 3B 98 00 00
 7.254591 1  167             Rx   d 8 00 FF FF 00 00 02 0E 00
 7.274405 1  166             Rx   d 8 76 00 00 FF FF FF 00 00
 7.294332 1  41              Rx   d 8 00 00 00 00 00 00 00 00
 7.303272 1  23A             Rx   d 8 FF FF FF FF F0 00 00 00
 7.324424 1  47              Rx   d 8 64 22 BC F4 3B 98 00 00
 7.344423 1  47              Rx   d 8 64 22 BC F4 3B 98 00 00
 7.364404 1  47              Rx   d 8 64 22 BC F4 3B 98 00 00
 7.373087 1  41              Rx   d 8 00 00 00 00 00 00 00 00
 7.393144 1  41              Rx   d 8 00 00 00 00 00 00 00 00
 7.412527 1  41              Rx   d 8 00 00 00 00 00 00 00 00
 7.425513 1  202             Rx   d 8 00 CC 00 00 00 00 00 00
 7.444641 1  47              Rx   d 8 64 22 BC F4 3B 98 00 00
 7.464372 1  47              Rx   d 8 64 22 BC F4 3B 98 00 00
 7.480968 1  3B4             Rx   d 8 34 21 11 FF 1E 1A 00 00
 7.502732 1  23A             Rx   d 8 FF FF FF FF F0 00 00 00
 7.511210 1  41              Rx   d 8 00 00 00 00 00 00 00 00
 7.511243 1  242             Rx   d 8 FF FF 3F FF B6 00 03 01
 7.511490 1  3C7             Rx   d 8 00 00 40 00 00 00 00 00
 7.514408 1  156             Rx   d 8 BA 00 00 00 00 00 00 00
 7.514585 1  167             Rx   d 8 00 FF FF 00 00 02 0E 00
 7.514818 1  171             Rx   d 8 F0 E0 00 00 00 00 00 00
 7.515036 1  178             Rx   d 8 00 00 02 00 02 54 C6 53
 7.515552 1  17C             Rx   d 8 00 00 00 00 00 00 00 00
 7.524573 1  47              Rx   d 8 64 22 BC F4 3B 98 00 00
 7.534780 1  167             Rx   d 8 00 FF FF 00 00 02 0E 00
 7.554353 1  167             Rx   d 8 00 FF FF 00 00 02 0E 00
 7.569564 1  41              Rx   d 8 00 00 00 00 00 00 00 00
 7.594422 1  167             Rx   d 8 00 FF FF 00 00 02 0E 00
 7.602812 1  23A             Rx   d 8 FF FF FF FF F0 00 00 00
 7.624342 1  47              Rx   d 8 64 22 BC F4 3B 98 00 00
 7.647892 1  41              Rx   d 8 00 00 00 00 00 00 00 00
 7.664600 1  165             Rx   d 8 20 81 00 00 00 00 00 00
 7.687670 1  41              Rx   d 8 00 00 00 00 00 00 00 00
 7.704852 1  167             Rx   d 8 00 FF FF 00 00 02 0E 00
 7.724670 1  47              Rx   d 8 64 22 BC F4 3B 98 00 00
 7.744432 1  47              Rx   d 8 64 22 BC F4 3B 98 00 00
 7.774383 1  166             Rx   d 8 76 00 00 FF FF FF 00 00
 7.786769 1  42F             Rx   d 8 7D 02 05 4E 20 FF 00 00
 7.804389 1  47              Rx   d 8 64 22 BC F4 3B 98 00 00
 7.824437 1  47              Rx   d 8 64 22 BC F4 3B 98 00 00
 7.834575 1  167             Rx   d 8 00 FF FF 00 00 02 0E 00
 7.834610 1  204             Rx   d 8 00 00 FF 00 00 00 00 00
 7.844370 1  47              Rx   d 8 64 22 BC F4 3B 98 00 00
 7.844545 1  41              Rx   d 8 00 00 00 00 00 00 00 00
 7.844791 1  165             Rx   d 8 20 81 00 00 00 00 00 00
 7.845018 1  167             Rx   d 8 00 FF FF 00 00 02 0E 00
 7.845257 1  171             Rx   d 8 F0 E0 00 00 00 00 00 00
 7.854418 1  167             Rx   d 8 00 FF FF 00 00 02 0E 00
 7.865580 1  202             Rx   d 8 00 CC 00 00 00 00 00 00
 7.884207 1  41              Rx   d 8 00 00 00 00 00 00 00 00
 7.903106 1  23A             Rx   d 8 FF FF FF FF F0 00 00 00
 7.914423 1  156             Rx   d 8 BA 00 00 00 00 00 00 00
 7.934403 1  167             Rx   d 8 00 FF FF 00 00 02 0E 00
 7.944559 1  47              Rx   d 8 64 22 BC F4 3B 98 00 00
 7.962479 1  41              Rx   d 8 00 00 00 00 00 00 00 00
 7.975101 1  204             Rx   d 8 00 00 FF 00 00 00 00 00
 7.982999 1  41              Rx   d 8 00 00 00 00 00 00 00 00
 7.994387 1  167             Rx   d 8 00 FF FF 00 00 02 0E 00
 8.002910 1  23A             Rx   d 8 FF FF FF FF F0 00 00 00
 8.014584 1  156             Rx   d 8 BA 00 00 00 00 00 00 00
 8.034364 1  167             Rx   d 8 00 FF FF 00 00 02 0E 00
 8.054550 1  167             Rx   d 8 00 FF FF 00 00 02 0E 00
 8.074359 1  166             Rx   d 8 76 00 00 FF FF FF 00 00
 8.092680 1  59E             Rx   d 8 9E 00 FF FF FF FF FF FF
 8.103279 1  23A             Rx   d 8 FF FF FF FF F0 00 00 00
 8.115297 1  179             Rx   d 8 00 00 08 00 22 FF 00 00
 8.120609 1  41              Rx   d 8 00 00 00 00 00 00 00 00
 8.120831 1  42C             Rx   d 8 80 02 00 00 00 00 00 00
 8.124420 1  47              Rx   d 8 64 22 BC F4 3B 98 00 00
 8.124618 1  165             Rx   d 8 20 81 00 00 00 00 00 00
 8.124878 1  167             Rx   d 8 00 FF FF 00 00 02 0E 00
 8.125047 1  200             Rx   d 8 00 00 80 26 80 26 F0 00
 8.125315 1  202             Rx   d 8 00 CC 00 00 00 00 00 00
 8.125576 1  204             Rx   d 8 00 00 FF 00 00 00 00 00
 8.125821 1  230             Rx   d 8 F0 1C 00 00 00 00 00 00
 8.134552 1  167             Rx   d 8 00 FF FF 00 00 02 0E 00
 8.144365 1  47              Rx   d 8 64 22 BC F4 3B 98 00 00
 8.144526 1  165             Rx   d 8 20 81 00 00 00 00 00 00
 8.154424 1  167             Rx   d 8 00 FF FF 00 00 02 0E 00
 8.168968 1  3B6             Rx   d 8 0A 00 00 00 00 00 00 00
 8.184304 1  47              Rx   d 8 64 22 BC F4 3B 98 00 00
 8.185817 1  230             Rx   d 8 F0 1C 00 00 00 00 00 00
 8.194603 1  167             Rx   d 8 00 FF FF 00 00 02 0E 00
 8.194648 1  204             Rx   d 8 00 00 FF 00 00 00 00 00
 8.198517 1  41              Rx   d 8 00 00 00 00 00 00 00 00
 8.214527 1  156             Rx   d 8 BA 00 00 00 00 00 00 00
 8.234406 1  167             Rx   d 8 00 FF FF 00 00 02 0E 00
 8.254448 1  167             Rx   d 8 00 FF FF 00 00 02 0E 00
 8.264371 1  47              Rx   d 8 64 22 BC F4 3B 98 00 00
 8.284595 1  47              Rx   d 8 64 22 BC F4 3B 98 00 00
 8.285397 1  202             Rx   d 8 00 CC 00 00 00 00 00 00
 8.297439 1  242             Rx   d 8 FF FF 3F FF B6 00 03 01
 8.304326 1  47              Rx   d 8 64 22 BC F4 3B 98 00 00
 8.317331 1  41              Rx   d 8 00 00 00 00 00 00 00 00
 8.334391 1  167             Rx   d 8 00 FF FF 00 00 02 0E 00
 8.344588 1  47              Rx   d 8 64 22 BC F4 3B 98 00 00
 8.344625 1  165             Rx   d 8 20 81 00 00 00 00 00 00
 8.345026 1  167             Rx   d 8 00 FF FF 00 00 02 0E 00
 8.345337 1  202             Rx   d 8 00 CC 00 00 00 00 00 00
 8.354823 1  167             Rx   d 8 00 FF FF 00 00 02 0E 00
 8.365879 1  204             Rx   d 8 00 00 FF 00 00 00 00 00
 8.384531 1  47              Rx   d 8 64 22 BC F4 3B 98 00 00
 8.385550 1  202             Rx   d 8 00 CC 00 00 00 00 00 00
 8.401544 1  581             Rx   d 8 81 00 FF FF FF FF FF FF
 8.416798 1  3B1             Rx   d 8 00 00 00 00 00 00 00 00
 8.424373 1  47              Rx   d 8 64 22 BC F4 3B 98 00 00
 8.444412 1  47              Rx   d 8 64 22 BC F4 3B 98 00 00
 8.444583 1  165             Rx   d 8 20 81 00 00 00 00 00 00
 8.463562 1  3B4             Rx   d 8 34 21 11 FF 1E 1A 00 00
 8.473799 1  41              Rx   d 8 00 00 00 00 00 00 00 00
 8.493898 1  41              Rx   d 8 00 00 00 00 00 00 00 00
 8.514032 1  41              Rx   d 8 00 00 00 00 00 00 00 00
 8.533240 1  41              Rx   d 8 00 00 00 00 00 00 00 00
 8.544507 1  47              Rx   d 8 64 22 BC F4 3B 98 00 00
 8.562110 1  42C             Rx   d 8 80 02 00 00 00 00 00 00
 8.572479 1  41              Rx   d 8 00 00 00 00 00 00 00 00
 8.584392 1  47              Rx   d 8 64 22 BC F4 3B 98 00 00
 8.603187 1  23A             Rx   d 8 FF FF FF FF F0 00 00 00
 8.624684 1  47              Rx   d 8 64 22 BC F4 3B 98 00 00
 8.644386 1  47              Rx   d 8 64 22 BC F4 3B 98 00 00
 8.651125 1  41              Rx   d 8 00 00 00 00 00 00 00 00
 8.670547 1  41              Rx   d 8 00 00 00 00 00 00 00 00
 8.684363 1  47              Rx   d 8 64 22 BC F4 3B 98 00 00
 8.703253 1  23A             Rx   d 8 FF FF FF FF F0 00 00 00
 8.710513 1  41              Rx   d 8 00 00 00 00 00 00 00 00
 8.729737 1  41              Rx   d 8 00 00 00 00 00 00 00 00
 8.745518 1  202             Rx   d 8 00 CC 00 00 00 00 00 00
 8.764357 1  47              Rx   d 8 64 22 BC F4 3B 98 00 00
 8.784895 1  47              Rx   d 8 64 22 BC F4 3B 98 00 00
 8.803226 1  23A             Rx   d 8 FF FF FF FF F0 00 00 00
 8.808819 1  41              Rx   d 8 00 00 00 00 00 00 00 00
 8.808997 1  242             Rx   d 8 FF FF 3F FF B6 00 03 01
 8.814708 1  156             Rx   d 8 BA 00 00 00 00 00 00 00
 8.814755 1  167             Rx   d 8 00 FF FF 00 00 02 0E 00
 8.815080 1  178             Rx   d 8 00 00 02 00 02 54 C6 53
 8.815390 1  17C             Rx   d 8 00 00 00 00 00 00 00 00
 8.824436 1  47              Rx   d 8 64 22 BC F4 3B 98 00 00
 8.844383 1  47              Rx   d 8 64 22 BC F4 3B 98 00 00
 8.864689 1  47              Rx   d 8 64 22 BC F4 3B 98 00 00
 8.865677 1  167             Rx   d 8 00 FF FF 00 00 02 0E 00
 8.884387 1  47              Rx   d 8 64 22 BC F4 3B 98 00 00
 8.894657 1  167             Rx   d 8 00 FF FF 00 00 02 0E 00
 8.903597 1  23A             Rx   d 8 FF FF FF FF F0 00 00 00
 8.924398 1  47              Rx   d 8 64 22 BC F4 3B 98 00 00
 8.944419 1  47              Rx   d 8 64 22 BC F4 3B 98 00 00
 8.954379 1  167             Rx   d 8 00 FF FF 00 00 02 0E 00
 8.984360 1  47              Rx   d 8 64 22 BC F4 3B 98 00 00
 8.994626 1  204             Rx   d 8 00 00 FF 00 00 00 00 00
 9.014709 1  156             Rx   d 8 BA 00 00 00 00 00 00 00
 9.024362 1  47              Rx   d 8 64 22 BC F4 3B 98 00 00
 9.044355 1  41              Rx   d 8 00 00 00 00 00 00 00 00
 9.063375 1  41              Rx   d 8 00 00 00 00 00 00 00 00
 9.075329 1  421             Rx   d 8 04 00 11 00 00 00 FF 00
 9.092927 1  59E             Rx   d 8 9E 00 FF FF FF FF FF FF
 9.107611 1  438             Rx   d 8 00 00 00 00 00 00 00 00
 9.124901 1  167             Rx   d 8 00 FF FF 00 00 02 0E 00
 9.144328 1  47              Rx   d 8 64 22 BC F4 3B 98 00 00
 9.162175 1  41              Rx   d 8 00 00 00 00 00 00 00 00
 9.174359 1  166             Rx   d 8 76 00 00 FF FF FF 00 00
 9.184364 1  47              Rx   d 8 64 22 BC F4 3B 98 00 00
 9.202102 1  41              Rx   d 8 00 00 00 00 00 00 00 00
 9.220778 1  41              Rx   d 8 00 00 00 00 00 00 00 00
 9.240909 1  41              Rx   d 8 00 00 00 00 00 00 00 00
 9.254344 1  167             Rx   d 8 00 FF FF 00 00 02 0E 00
 9.274412 1  166             Rx   d 8 76 00 00 FF FF FF 00 00
 9.284770 1  167             Rx   d 8 00 FF FF 00 00 02 0E 00
 9.303977 1  23A             Rx   d 8 FF FF FF FF F0 00 00 00
 9.324282 1  47              Rx   d 8 64 22 BC F4 3B 98 00 00
 9.339014 1  41              Rx   d 8 00 00 00 00 00 00 00 00
 9.359047 1  41              Rx   d 8 00 00 00 00 00 00 00 00
 9.374393 1  166             Rx   d 8 76 00 00 FF FF FF 00 00
 9.386419 1  230             Rx   d 8 F0 1C 00 00 00 00 00 00
 9.404509 1  47              Rx   d 8 64 22 BC F4 3B 98 00 00
 9.417872 1  41              Rx   d 8 00 00 00 00 00 00 00 00
 9.425313 1  47              Rx   d 8 64 22 BC F4 3B 98 00 00
 9.425372 1  165             Rx   d 8 20 81 00 00 00 00 00 00
 9.425377 1  167             Rx   d 8 00 FF FF 00 00 02 0E 00
 9.425381 1  200             Rx   d 8 00 00 80 26 80 26 F0 00
 9.434427 1  167             Rx   d 8 00 FF FF 00 00 02 0E 00
 9.454458 1  167             Rx   d 8 00 FF FF 00 00 02 0E 00
 9.474372 1  166             Rx   d 8 76 00 00 FF FF FF 00 00
 9.494561 1  167             Rx   d 8 00 FF FF 00 00 02 0E 00
 9.514365 1  156             Rx   d 8 BA 00 00 00 00 00 00 00
 9.524384 1  47              Rx   d 8 64 22 BC F4 3B 98 00 00
 9.544506 1  47              Rx   d 8 64 22 BC F4 3B 98 00 00
 9.545258 1  202             Rx   d 8 00 CC 00 00 00 00 00 00
 9.564373 1  47              Rx   d 8 64 22 BC F4 3B 98 00 00
 9.575559 1  424             Rx   d 8 00 00 00 03 00 00 00 00
 9.594368 1  167             Rx   d 8 00 FF FF 00 00 02 0E 00
 9.614382 1  41              Rx   d 8 00 00 00 00 00 00 00 00
 9.625010 1  200             Rx   d 8 00 00 80 26 80 26 F0 00
 9.643461 1  331             Rx   d 8 C0 00 48 BD 02 00 00 00
 9.664359 1  47              Rx   d 8 64 22 BC F4 3B 98 00 00
 9.673472 1  41              Rx   d 8 00 00 00 00 00 00 00 00
 9.693461 1  41              Rx   d 8 00 00 00 00 00 00 00 00
 9.703591 1  23A             Rx   d 8 FF FF FF FF F0 00 00 00
 9.724431 1  47              Rx   d 8 64 22 BC F4 3B 98 00 00
 9.741460 1  42C             Rx   d 8 80 02 00 00 00 00 00 00
 9.764909 1  47              Rx   d 8 64 22 BC F4 3B 98 00 00
 9.784426 1  47              Rx   d 8 64 22 BC F4 3B 98 00 00
 9.803959 1  23A             Rx   d 8 FF FF FF FF F0 00 00 00
 9.824369 1  47              Rx   d 8 64 22 BC F4 3B 98 00 00
 9.840152 1  42C             Rx   d 8 80 02 00 00 00 00 00 00
 9.854372 1  167             Rx   d 8 00 FF FF 00 00 02 0E 00
 9.870248 1  41              Rx   d 8 00 00 00 00 00 00 00 00
 9.885488 1  202             Rx   d 8 00 CC 00 00 00 00 00 00
 9.903922 1  23A             Rx   d 8 FF FF FF FF F0 00 00 00
 9.924387 1  47              Rx   d 8 64 22 BC F4 3B 98 00 00
 9.938285 1  42C             Rx   d 8 80 02 00 00 00 00 00 00
 9.954436 1  167             Rx   d 8 00 FF FF 00 00 02 0E 00
 9.967758 1  41              Rx   d 8 00 00 00 00 00 00 00 00
 9.984657 1  47              Rx   d 8 64 22 BC F4 3B 98 00 00
 10.003712 1  23A             Rx   d 8 FF FF FF FF F0 00 00 00
 10.025791 1  230             Rx   d 8 F0 1C 00 00 00 00 00 00
 10.034544 1  167             Rx   d 8 00 FF FF 00 00 02 0E 00
 10.034580 1  171             Rx   d 8 F0 E0 00 00 00 00 00 00
 10.036676 1  42C             Rx   d 8 80 02 00 00 00 00 00 00
 10.044524 1  47              Rx   d 8 64 22 BC F4 3B 98 00 00
 10.044558 1  165             Rx   d 8 20 81 00 00 00 00 00 00
 10.054658 1  167             Rx   d 8 00 FF FF 00 00 02 0E 00
 10.074524 1  166             Rx   d 8 76 00 00 FF FF FF 00 00
 10.093545 1  59E             Rx   d 8 9E 00 FF FF FF FF FF FF
 10.107474 1  435             Rx   d 8 00 00 00 00 00 00 00 00
 10.134750 1  167             Rx   d 8 00 FF FF 00 00 02 0E 00
 10.155137 1  167             Rx   d 8 00 FF FF 00 00 02 0E 00
 10.155190 1  171             Rx   d 8 F0 E0 00 00 00 00 00 00
 10.164881 1  41              Rx   d 8 00 00 00 00 00 00 00 00
 10.164951 1  47              Rx   d 8 64 22 BC F4 3B 98 00 00
 10.164961 1  165             Rx   d 8 20 81 00 00 00 00 00 00
 10.166122 1  167             Rx   d 8 00 FF FF 00 00 02 0E 00
 10.166196 1  200             Rx   d 8 00 00 80 26 80 26 F0 00
 10.166207 1  202             Rx   d 8 00 CC 00 00 00 00 00 00
 10.174543 1  166             Rx   d 8 76 00 00 FF FF FF 00 00
 10.175277 1  424             Rx   d 8 00 00 00 03 00 00 00 00
 10.194392 1  167             Rx   d 8 00 FF FF 00 00 02 0E 00
 10.214398 1  156             Rx   d 8 BA 00 00 00 00 00 00 00
 10.214594 1  167             Rx   d 8 00 FF FF 00 00 02 0E 00
 10.215086 1  178             Rx   d 8 00 00 02 00 02 54 C6 53
 10.223887 1  41              Rx   d 8 00 00 00 00 00 00 00 00
 10.224048 1  242             Rx   d 8 FF FF 3F FF B6 00 03 01
 10.224275 1  47              Rx   d 8 64 22 BC F4 3B 98 00 00
 10.233111 1  42C             Rx   d 8 80 02 00 00 00 00 00 00
 10.243021 1  41              Rx   d 8 00 00 00 00 00 00 00 00
 10.263434 1  41              Rx   d 8 00 00 00 00 00 00 00 00
 10.274421 1  166             Rx   d 8 76 00 00 FF FF FF 00 00
 10.292176 1  331             Rx   d 8 C0 00 48 BE 02 00 00 00
 10.302577 1  41              Rx   d 8 00 00 00 00 00 00 00 00
 10.304613 1  23A             Rx   d 8 FF FF FF FF F0 00 00 00
 10.322197 1  41              Rx   d 8 00 00 00 00 00 00 00 00
 10.322274 1  84              Rx   d 8 00 00 00 01 01 2B 0C 00
 10.324396 1  47              Rx   d 8 64 22 BC F4 3B 98 00 00
 10.331560 1  42C             Rx   d 8 80 02 00 00 00 00 00 00
 10.342198 1  41              Rx   d 8 00 00 00 00 00 00 00 00
 10.342227 1  242             Rx   d 8 FF FF 3F FF B6 00 03 01
 10.344688 1  47              Rx   d 8 64 22 BC F4 3B 98 00 00
 10.354399 1  167             Rx   d 8 00 FF FF 00 00 02 0E 00
 10.354572 1  204             Rx   d 8 00 00 FF 00 00 00 00 00
 10.361061 1  41              Rx   d 8 00 00 00 00 00 00 00 00
 10.364434 1  47              Rx   d 8 64 22 BC F4 3B 98 00 00
 10.364747 1  165             Rx   d 8 20 81 00 00 00 00 00 00
 10.364761 1  167             Rx   d 8 00 FF FF 00 00 02 0E 00
 10.367274 1  581             Rx   d 8 81 00 FF FF FF FF FF FF
 10.374589 1  166             Rx   d 8 76 00 00 FF FF FF 00 00
 10.395048 1  42F             Rx   d 8 7D 02 05 4E 20 FF 00 00
 10.400275 1  41              Rx   d 8 00 00 00 00 00 00 00 00
 10.404152 1  23A             Rx   d 8 FF FF FF FF F0 00 00 00
 10.420501 1  41              Rx   d 8 00 00 00 00 00 00 00 00
 10.434523 1  167             Rx   d 8 00 FF FF 00 00 02 0E 00
 10.434555 1  204             Rx   d 8 00 00 FF 00 00 00 00 00
 10.439816 1  41              Rx   d 8 00 00 00 00 00 00 00 00
 10.440024 1  3B5             Rx   d 8 FF FD FF FD FF FD FF FD
 10.444631 1  47              Rx   d 8 64 22 BC F4 3B 98 00 00
 10.444674 1  165             Rx   d 8 20 81 00 00 00 00 00 00
 10.445057 1  167             Rx   d 8 00 FF FF 00 00 02 0E 00
 10.454631 1  167             Rx   d 8 00 FF FF 00 00 02 0E 00
 10.464316 1  47              Rx   d 8 64 22 BC F4 3B 98 00 00
 10.465057 1  200             Rx   d 8 00 00 80 26 80 26 F0 00
 10.474399 1  166             Rx   d 8 76 00 00 FF FF FF 00 00
 10.474571 1  167             Rx   d 8 00 FF FF 00 00 02 0E 00
 10.474823 1  204             Rx   d 8 00 00 FF 00 00 00 00 00
 10.484532 1  47              Rx   d 8 64 22 BC F4 3B 98 00 00
 10.494716 1  167             Rx   d 8 00 FF FF 00 00 02 0E 00
 10.504249 1  23A             Rx   d 8 FF FF FF FF F0 00 00 00
 10.504493 1  47              Rx   d 8 64 22 BC F4 3B 98 00 00
 10.504656 1  165             Rx   d 8 20 81 00 00 00 00 00 00
 10.504936 1  167             Rx   d 8 00 FF FF 00 00 02 0E 00
 10.518889 1  41              Rx   d 8 00 00 00 00 00 00 00 00
 10.524654 1  47              Rx   d 8 64 22 BC F4 3B 98 00 00
 10.538483 1  41              Rx   d 8 00 00 00 00 00 00 00 00
 10.554421 1  167             Rx   d 8 00 FF FF 00 00 02 0E 00
 10.564402 1  47              Rx   d 8 64 22 BC F4 3B 98 00 00
 10.575758 1  42D             Rx   d 8 00 03 FF 00 00 00 F0 00
 10.594587 1  167             Rx   d 8 00 FF FF 00 00 02 0E 00
 10.614338 1  156             Rx   d 8 BA 00 00 00 00 00 00 00
 10.634558 1  167             Rx   d 8 00 FF FF 00 00 02 0E 00
 10.654347 1  167             Rx   d 8 00 FF FF 00 00 02 0E 00
 10.674530 1  166             Rx   d 8 76 00 00 FF FF FF 00 00
 10.694395 1  167             Rx   d 8 00 FF FF 00 00 02 0E 00
 10.714426 1  156             Rx   d 8 BA 00 00 00 00 00 00 00
 10.725231 1  200             Rx   d 8 00 00 80 26 80 26 F0 00
 10.744554 1  47              Rx   d 8 64 22 BC F4 3B 98 00 00
 10.764346 1  47              Rx   d 8 64 22 BC F4 3B 98 00 00
 10.784553 1  47              Rx   d 8 64 22 BC F4 3B 98 00 00
 10.793850 1  41              Rx   d 8 00 00 00 00 00 00 00 00
 10.813813 1  41              Rx   d 8 00 00 00 00 00 00 00 00
 10.833199 1  41              Rx   d 8 00 00 00 00 00 00 00 00
 10.853258 1  41              Rx   d 8 00 00 00 00 00 00 00 00
 10.864670 1  47              Rx   d 8 64 22 BC F4 3B 98 00 00
 10.884394 1  47              Rx   d 8 64 22 BC F4 3B 98 00 00
 10.904092 1  23A             Rx   d 8 FF FF FF FF F0 00 00 00
 10.921191 1  42C             Rx   d 8 80 02 00 00 00 00 00 00
 10.926026 1  43D             Rx   d 8 14 00 21 00 00 00 00 00
 10.931905 1  41              Rx   d 8 00 00 00 00 00 00 00 00
 10.935354 1  204             Rx   d 8 00 00 FF 00 00 00 00 00
 10.944391 1  47              Rx   d 8 64 22 BC F4 3B 98 00 00
 10.964400 1  47              Rx   d 8 64 22 BC F4 3B 98 00 00
 10.984399 1  47              Rx   d 8 64 22 BC F4 3B 98 00 00
 10.985290 1  202             Rx   d 8 00 CC 00 00 00 00 00 00
 10.994336 1  167             Rx   d 8 00 FF FF 00 00 02 0E 00
 11.004276 1  23A             Rx   d 8 FF FF FF FF F0 00 00 00
 11.019660 1  42C             Rx   d 8 80 02 00 00 00 00 00 00
 11.034389 1  167             Rx   d 8 00 FF FF 00 00 02 0E 00
 11.034554 1  204             Rx   d 8 00 00 FF 00 00 00 00 00
 11.049620 1  41              Rx   d 8 00 00 00 00 00 00 00 00
 11.069278 1  41              Rx   d 8 00 00 00 00 00 00 00 00
End TriggerBlock
