date Fri Mar 21 06:55:23.477 PM 2025
base hex  timestamps absolute
internal events logged
Begin Triggerblock Fri Mar 21 06:55:23.481 PM 2025
 0.000000 Start of measurement
 0.000000 1  3CA             Rx   d 8 04 00 00 00 00 00 00 00
 0.003798 1  167             Rx   d 8 00 FF FF 00 00 02 0E 00
 0.004213 1  202             Rx   d 8 00 CC 00 00 00 00 00 00
 0.004441 1  204             Rx   d 8 00 00 FF 00 00 00 00 00
 0.010096 1  76              Rx   d 8 00 00 1F F7 FC 00 00 F0
 0.010306 1  20A             Rx   d 8 F1 F8 00 00 00 00 4E 20
 0.013351 1  167             Rx   d 8 00 FF FF 00 00 02 0E 00
 0.013492 1  204             Rx   d 8 00 00 FF 00 00 00 00 00
 0.016916 1  287             Rx   d 8 00 00 00 00 00 00 00 00
 0.017091 1  30A             Rx   d 8 85 00 00 00 00 00 00 00
 0.017367 1  318             Rx   d 8 00 00 00 00 00 00 00 00
 0.017611 1  346             Rx   d 8 00 00 00 03 03 00 C0 00
 0.017894 1  348             Rx   d 8 00 00 00 01 00 00 00 00
 0.018136 1  430             Rx   d 8 48 00 40 9B 00 20 64 00
 0.018386 1  434             Rx   d 8 40 00 70 00 20 4D 28 00
 0.020466 1  412             Rx   d 8 7D 00 80 80 00 00 00 00
 0.020619 1  42F             Rx   d 8 7D 02 05 4E 26 0B 00 00
 0.023780 1  167             Rx   d 8 00 FF FF 00 00 02 0E 00
 0.023922 1  171             Rx   d 8 F0 E0 00 00 00 00 00 00
 0.024470 1  202             Rx   d 8 00 CC 00 00 00 00 00 00
 0.024690 1  204             Rx   d 8 00 00 FF 00 00 00 00 00
 0.029908 1  76              Rx   d 8 00 00 1F F7 FC 00 00 F0
 0.030062 1  20A             Rx   d 8 F1 F8 00 00 00 00 4E 20
 0.030302 1  3CA             Rx   d 8 04 00 00 00 00 00 00 00
 0.033308 1  167             Rx   d 8 00 FF FF 00 00 02 0E 00
 0.033443 1  204             Rx   d 8 00 00 FF 00 00 00 00 00
 0.040066 1  46B             Rx   d 8 B8 A0 48 00 00 00 D2 09
 0.043691 1  156             Rx   d 8 BA 00 00 00 00 00 00 00
 0.044258 1  166             Rx   d 8 76 00 00 FF FF FF 00 00
 0.044273 1  167             Rx   d 8 00 FF FF 00 00 02 0E 00
 0.044472 1  178             Rx   d 8 00 00 02 00 02 54 CA 53
 0.044733 1  179             Rx   d 8 00 00 08 00 22 FF 00 00
 0.044978 1  17C             Rx   d 8 00 00 00 00 00 00 00 00
 0.045691 1  202             Rx   d 8 00 CC 00 00 00 00 00 00
 0.045711 1  204             Rx   d 8 00 00 FF 00 00 00 00 00
 0.046220 1  421             Rx   d 8 04 00 11 00 00 00 FF 00
 0.046745 1  42D             Rx   d 8 00 03 FF 00 00 00 F0 00
 0.050289 1  76              Rx   d 8 00 00 1F F7 FC 00 00 F0
 0.050426 1  20A             Rx   d 8 F1 F8 00 00 00 00 4E 20
 0.053356 1  167             Rx   d 8 00 FF FF 00 00 02 0E 00
 0.053508 1  171             Rx   d 8 F0 E0 00 00 00 00 00 00
 0.053703 1  204             Rx   d 8 00 00 FF 00 00 00 00 00
 0.059983 1  3CA             Rx   d 8 04 00 00 00 00 00 00 00
 0.063826 1  167             Rx   d 8 00 FF FF 00 00 02 0E 00
 0.064226 1  202             Rx   d 8 00 CC 00 00 00 00 00 00
 0.064463 1  204             Rx   d 8 00 00 FF 00 00 00 00 00
 0.070284 1  48              Rx   d 8 00 00 00 00 07 00 E0 00
 0.070350 1  76              Rx   d 8 00 00 1F F7 FC 00 00 F0
 0.070360 1  20A             Rx   d 8 F1 F8 00 00 00 00 4E 20
 0.070865 1  412             Rx   d 8 7D 00 80 80 00 00 00 00
 0.070891 1  42C             Rx   d 8 30 31 C4 80 00 00 00 96
 0.071704 1  42F             Rx   d 8 7D 02 05 4E 26 0B 00 00
 0.071721 1  433             Rx   d 8 C0 00 00 00 00 A0 00 00
 0.071726 1  470             Rx   d 8 00 00 40 00 00 00 00 00
 0.073381 1  167             Rx   d 8 00 FF FF 00 00 02 0E 00
 0.073680 1  204             Rx   d 8 00 00 FF 00 00 00 00 00
 0.080091 1  46B             Rx   d 8 B7 A0 48 00 00 00 D2 09
 0.083792 1  167             Rx   d 8 00 FF FF 00 00 02 0E 00
 0.083927 1  171             Rx   d 8 F0 E0 00 00 00 00 00 00
 0.084445 1  202             Rx   d 8 00 CC 00 00 00 00 00 00
 0.084673 1  204             Rx   d 8 00 00 FF 00 00 00 00 00
 0.089935 1  76              Rx   d 8 00 00 1F F7 FC 00 00 F0
 0.090068 1  20A             Rx   d 8 F1 F8 00 00 00 00 4E 20
 0.090315 1  3CA             Rx   d 8 04 00 00 00 00 00 00 00
 0.093489 1  167             Rx   d 8 00 FF FF 00 00 02 0E 00
 0.093515 1  204             Rx   d 8 00 00 FF 00 00 00 00 00
 0.103841 1  167             Rx   d 8 00 FF FF 00 00 02 0E 00
 0.104645 1  202             Rx   d 8 00 CC 00 00 00 00 00 00
 0.104676 1  204             Rx   d 8 00 00 FF 00 00 00 00 00
 0.110199 1  76              Rx   d 8 00 00 1F F7 FC 00 00 F0
 0.110326 1  20A             Rx   d 8 F1 F8 00 00 00 00 4E 20
 0.113300 1  167             Rx   d 8 00 FF FF 00 00 02 0E 00
 0.113431 1  171             Rx   d 8 F0 E0 00 00 00 00 00 00
 0.113714 1  204             Rx   d 8 00 00 FF 00 00 00 00 00
 0.117028 1  318             Rx   d 8 00 00 00 00 00 00 00 00
 0.117160 1  346             Rx   d 8 00 00 00 03 03 00 C0 00
 0.117483 1  348             Rx   d 8 00 00 00 01 00 00 00 00
 0.117752 1  430             Rx   d 8 48 00 40 9B 00 20 64 00
 0.117953 1  434             Rx   d 8 40 00 70 00 20 4D 28 00
 0.120722 1  3CA             Rx   d 8 04 00 00 00 00 00 00 00
 0.120847 1  412             Rx   d 8 7D 00 80 80 00 00 00 00
 0.121107 1  42F             Rx   d 8 7D 02 05 4E 26 0B 00 00
 0.121351 1  479             Rx   d 8 00 00 00 00 00 00 00 00
 0.123757 1  167             Rx   d 8 00 FF FF 00 00 02 0E 00
 0.124243 1  202             Rx   d 8 00 CC 00 00 00 00 00 00
 0.124448 1  204             Rx   d 8 00 00 FF 00 00 00 00 00
 0.130035 1  76              Rx   d 8 00 00 1F F7 FC 00 00 F0
 0.130095 1  20A             Rx   d 8 F1 F8 00 00 00 00 4E 20
 0.133847 1  167             Rx   d 8 00 FF FF 00 00 02 0E 00
 0.133901 1  204             Rx   d 8 00 00 FF 00 00 00 00 00
 0.144083 1  156             Rx   d 8 BA 00 00 00 00 00 00 00
 0.144135 1  166             Rx   d 8 76 00 00 FF FF FF 00 00
 0.145098 1  167             Rx   d 8 00 FF FF 00 00 02 0E 00
 0.145137 1  171             Rx   d 8 F0 E0 00 00 00 00 00 00
 0.145148 1  178             Rx   d 8 00 00 02 00 02 54 CA 53
 0.145158 1  179             Rx   d 8 00 00 08 00 22 FF 00 00
 0.145494 1  17C             Rx   d 8 00 00 00 00 00 00 00 00
 0.145804 1  202             Rx   d 8 00 CC 00 00 00 00 00 00
 0.146143 1  204             Rx   d 8 00 00 FF 00 00 00 00 00
 0.146640 1  421             Rx   d 8 04 00 11 00 00 00 FF 00
 0.147092 1  42D             Rx   d 8 00 03 FF 00 00 00 F0 00
 0.151143 1  76              Rx   d 8 00 00 1F F7 FC 00 00 F0
 0.151210 1  20A             Rx   d 8 F1 F8 00 00 00 00 4E 20
 0.151222 1  3CA             Rx   d 8 04 00 00 00 00 00 00 00
 0.153686 1  167             Rx   d 8 00 FF FF 00 00 02 0E 00
 0.153719 1  204             Rx   d 8 00 00 FF 00 00 00 00 00
 0.157775 1  40A             Rx   d 8 C1 02 32 38 38 33 36 00
 0.164101 1  167             Rx   d 8 00 FF FF 00 00 02 0E 00
 0.164324 1  202             Rx   d 8 00 CC 00 00 00 00 00 00
 0.164466 1  204             Rx   d 8 00 00 FF 00 00 00 00 00
 0.169990 1  48              Rx   d 8 00 00 00 00 07 00 E0 00
 0.170027 1  76              Rx   d 8 00 00 1F F7 FC 00 00 F0
 0.170466 1  14C             Rx   d 8 08 00 00 01 00 00 00 00
 0.170493 1  20A             Rx   d 8 F1 F8 00 00 00 00 4E 20
 0.170922 1  412             Rx   d 8 7D 00 80 80 00 00 00 00
 0.170938 1  42F             Rx   d 8 7D 02 05 4E 26 0B 00 00
 0.171172 1  433             Rx   d 8 C0 00 00 00 00 A0 00 00
 0.171411 1  470             Rx   d 8 00 00 40 00 00 00 00 00
 0.173564 1  167             Rx   d 8 00 FF FF 00 00 02 0E 00
 0.173597 1  171             Rx   d 8 F0 E0 00 00 00 00 00 00
 0.173759 1  204             Rx   d 8 00 00 FF 00 00 00 00 00
 0.179784 1  3CA             Rx   d 8 04 00 00 00 00 00 00 00
 0.183883 1  167             Rx   d 8 00 FF FF 00 00 02 0E 00
 0.184276 1  202             Rx   d 8 00 CC 00 00 00 00 00 00
 0.184508 1  204             Rx   d 8 00 00 FF 00 00 00 00 00
 0.190246 1  76              Rx   d 8 00 00 1F F7 FC 00 00 F0
 0.190320 1  20A             Rx   d 8 F1 F8 00 00 00 00 4E 20
 0.193354 1  167             Rx   d 8 00 FF FF 00 00 02 0E 00
 0.193506 1  204             Rx   d 8 00 00 FF 00 00 00 00 00
 0.203943 1  167             Rx   d 8 00 FF FF 00 00 02 0E 00
 0.203978 1  171             Rx   d 8 F0 E0 00 00 00 00 00 00
 0.204496 1  202             Rx   d 8 00 CC 00 00 00 00 00 00
 0.204714 1  204             Rx   d 8 00 00 FF 00 00 00 00 00
 0.210570 1  76              Rx   d 8 00 00 1F F7 FC 00 00 F0
 0.210637 1  20A             Rx   d 8 F1 F8 00 00 00 00 4E 20
 0.210647 1  3CA             Rx   d 8 04 00 00 00 00 00 00 00
 0.214013 1  167             Rx   d 8 00 FF FF 00 00 02 0E 00
 0.214089 1  204             Rx   d 8 00 00 FF 00 00 00 00 00
 0.216988 1  287             Rx   d 8 00 00 00 00 00 00 00 00
 0.217185 1  30A             Rx   d 8 85 00 00 00 00 00 00 00
 0.217418 1  318             Rx   d 8 00 00 00 00 00 00 00 00
 0.217745 1  346             Rx   d 8 00 00 00 03 03 00 C0 00
 0.217930 1  348             Rx   d 8 00 00 00 01 00 00 00 00
 0.218175 1  430             Rx   d 8 48 00 40 9B 00 20 64 00
 0.218423 1  434             Rx   d 8 40 00 70 00 20 4D 28 00
 0.220720 1  412             Rx   d 8 7D 00 80 80 00 00 00 00
 0.220757 1  42F             Rx   d 8 7D 02 05 4E 26 0B 00 00
 0.223918 1  167             Rx   d 8 00 FF FF 00 00 02 0E 00
 0.224301 1  202             Rx   d 8 00 CC 00 00 00 00 00 00
 0.224450 1  204             Rx   d 8 00 00 FF 00 00 00 00 00
 0.229868 1  76              Rx   d 8 00 00 1F F7 FC 00 00 F0
 0.229909 1  20A             Rx   d 8 F1 F8 00 00 00 00 4E 20
 0.233808 1  167             Rx   d 8 00 FF FF 00 00 02 0E 00
 0.233858 1  171             Rx   d 8 F0 E0 00 00 00 00 00 00
 0.233868 1  204             Rx   d 8 00 00 FF 00 00 00 00 00
 0.240067 1  3CA             Rx   d 8 04 00 00 00 00 00 00 00
 0.243510 1  156             Rx   d 8 BA 00 00 00 00 00 00 00
 0.243991 1  166             Rx   d 8 76 00 00 FF FF FF 00 00
 0.244189 1  167             Rx   d 8 00 FF FF 00 00 02 0E 00
 0.244440 1  178             Rx   d 8 00 00 02 00 02 54 CA 53
 0.244714 1  179             Rx   d 8 00 00 08 00 22 FF 00 00
 0.244972 1  17C             Rx   d 8 00 00 00 00 00 00 00 00
 0.245540 1  202             Rx   d 8 00 CC 00 00 00 00 00 00
 0.245700 1  204             Rx   d 8 00 00 FF 00 00 00 00 00
 0.246183 1  421             Rx   d 8 04 00 11 00 00 00 FF 00
 0.246683 1  42D             Rx   d 8 00 03 FF 00 00 00 F0 00
 0.250351 1  76              Rx   d 8 00 00 1F F7 FC 00 00 F0
 0.250514 1  20A             Rx   d 8 F1 F8 00 00 00 00 4E 20
 0.253508 1  167             Rx   d 8 00 FF FF 00 00 02 0E 00
 0.253533 1  204             Rx   d 8 00 00 FF 00 00 00 00 00
 0.264057 1  167             Rx   d 8 00 FF FF 00 00 02 0E 00
 0.264112 1  171             Rx   d 8 F0 E0 00 00 00 00 00 00
 0.264543 1  202             Rx   d 8 00 CC 00 00 00 00 00 00
 0.264740 1  204             Rx   d 8 00 00 FF 00 00 00 00 00
 0.270025 1  48              Rx   d 8 00 00 00 00 07 00 E0 00
 0.270165 1  76              Rx   d 8 00 00 1F F7 FC 00 00 F0
 0.270368 1  20A             Rx   d 8 F1 F8 00 00 00 00 4E 20
 0.270613 1  3CA             Rx   d 8 04 00 00 00 00 00 00 00
 0.270907 1  412             Rx   d 8 7D 00 80 80 00 00 00 00
 0.271135 1  42F             Rx   d 8 7D 02 05 4E 26 0B 00 00
 0.271419 1  433             Rx   d 8 C0 00 00 00 00 A0 00 00
 0.271655 1  470             Rx   d 8 00 00 40 00 00 00 00 00
 0.271871 1  479             Rx   d 8 00 00 00 00 00 00 00 00
 0.273232 1  167             Rx   d 8 00 FF FF 00 00 02 0E 00
 0.273448 1  204             Rx   d 8 00 00 FF 00 00 00 00 00
 0.283775 1  167             Rx   d 8 00 FF FF 00 00 02 0E 00
 0.284172 1  202             Rx   d 8 00 CC 00 00 00 00 00 00
 0.284439 1  204             Rx   d 8 00 00 FF 00 00 00 00 00
 0.290115 1  76              Rx   d 8 00 00 1F F7 FC 00 00 F0
 0.290170 1  20A             Rx   d 8 F1 F8 00 00 00 00 4E 20
 0.293493 1  167             Rx   d 8 00 FF FF 00 00 02 0E 00
 0.293522 1  171             Rx   d 8 F0 E0 00 00 00 00 00 00
 0.293988 1  204             Rx   d 8 00 00 FF 00 00 00 00 00
 0.299891 1  3CA             Rx   d 8 04 00 00 00 00 00 00 00
 0.304177 1  167             Rx   d 8 00 FF FF 00 00 02 0E 00
 0.304418 1  202             Rx   d 8 00 CC 00 00 00 00 00 00
 0.304635 1  204             Rx   d 8 00 00 FF 00 00 00 00 00
 0.309882 1  76              Rx   d 8 00 00 1F F7 FC 00 00 F0
 0.310077 1  20A             Rx   d 8 F1 F8 00 00 00 00 4E 20
 0.313293 1  167             Rx   d 8 00 FF FF 00 00 02 0E 00
 0.313476 1  204             Rx   d 8 00 00 FF 00 00 00 00 00
 0.316923 1  318             Rx   d 8 00 00 00 00 00 00 00 00
 0.317122 1  346             Rx   d 8 00 00 00 03 03 00 C0 00
 0.317410 1  348             Rx   d 8 00 00 00 01 00 00 00 00
 0.317598 1  430             Rx   d 8 48 00 40 9B 00 20 64 00
 0.317870 1  434             Rx   d 8 40 00 70 00 20 4D 28 00
 0.320446 1  412             Rx   d 8 7D 00 80 80 00 00 00 00
 0.320668 1  42C             Rx   d 8 30 31 C4 80 00 00 00 96
 0.320887 1  42F             Rx   d 8 7D 02 05 4E 26 0B 00 00
 0.322759 1  84              Rx   d 8 00 00 00 01 0A 3B 0C 00
 0.323786 1  167             Rx   d 8 00 FF FF 00 00 02 0E 00
 0.323936 1  171             Rx   d 8 F0 E0 00 00 00 00 00 00
 0.324492 1  202             Rx   d 8 00 CC 00 00 00 00 00 00
 0.324719 1  204             Rx   d 8 00 00 FF 00 00 00 00 00
 0.330373 1  76              Rx   d 8 00 00 1F F7 FC 00 00 F0
 0.330450 1  20A             Rx   d 8 F1 F8 00 00 00 00 4E 20
 0.330863 1  3CA             Rx   d 8 04 00 00 00 00 00 00 00
 0.333482 1  167             Rx   d 8 00 FF FF 00 00 02 0E 00
 0.333516 1  204             Rx   d 8 00 00 FF 00 00 00 00 00
 0.343570 1  156             Rx   d 8 BA 00 00 00 00 00 00 00
 0.343911 1  166             Rx   d 8 76 00 00 FF FF FF 00 00
 0.344186 1  167             Rx   d 8 00 FF FF 00 00 02 0E 00
 0.344479 1  178             Rx   d 8 00 00 02 00 02 54 CA 53
 0.344702 1  179             Rx   d 8 00 00 08 00 22 FF 00 00
 0.344930 1  17C             Rx   d 8 00 00 00 00 00 00 00 00
 0.345470 1  202             Rx   d 8 00 CC 00 00 00 00 00 00
 0.345722 1  204             Rx   d 8 00 00 FF 00 00 00 00 00
 0.346169 1  421             Rx   d 8 04 00 11 00 00 00 FF 00
 0.346702 1  42D             Rx   d 8 00 03 FF 00 00 00 F0 00
 0.350377 1  76              Rx   d 8 00 00 1F F7 FC 00 00 F0
 0.350551 1  20A             Rx   d 8 F1 F8 00 00 00 00 4E 20
 0.353267 1  167             Rx   d 8 00 FF FF 00 00 02 0E 00
 0.353440 1  171             Rx   d 8 F0 E0 00 00 00 00 00 00
 0.353930 1  204             Rx   d 8 00 00 FF 00 00 00 00 00
 0.354411 1  38D             Rx   d 8 20 00 00 00 00 00 00 F0
 0.355423 1  3B8             Rx   d 8 FF FF FF FF 00 00 00 00
 0.355648 1  3E3             Rx   d 8 00 00 00 00 80 00 00 00
 0.356149 1  3EC             Rx   d 8 00 04 04 00 00 00 00 00
 0.356381 1  40A             Rx   d 8 C1 04 01 8A 07 54 85 41
 0.357158 1  447             Rx   d 8 20 00 00 4B 00 20 00 00
 0.360292 1  3CA             Rx   d 8 04 00 00 00 00 00 00 00
 0.363832 1  167             Rx   d 8 00 FF FF 00 00 02 0E 00
 0.364244 1  202             Rx   d 8 00 CC 00 00 00 00 00 00
 0.364523 1  204             Rx   d 8 00 00 FF 00 00 00 00 00
 0.370330 1  48              Rx   d 8 00 00 00 00 07 00 E0 00
 0.370391 1  76              Rx   d 8 00 00 1F F7 FC 00 00 F0
 0.370396 1  14C             Rx   d 8 08 00 00 01 00 00 00 00
 0.370989 1  20A             Rx   d 8 F1 F8 00 00 00 00 4E 20
 0.371018 1  412             Rx   d 8 7D 00 80 80 00 00 00 00
 0.371027 1  42F             Rx   d 8 7D 02 05 4E 26 0B 00 00
 0.371292 1  433             Rx   d 8 C0 00 00 00 00 A0 00 00
 0.371565 1  470             Rx   d 8 00 00 40 00 00 00 00 00
 0.373669 1  167             Rx   d 8 00 FF FF 00 00 02 0E 00
 0.373723 1  204             Rx   d 8 00 00 FF 00 00 00 00 00
 0.383835 1  167             Rx   d 8 00 FF FF 00 00 02 0E 00
 0.384003 1  171             Rx   d 8 F0 E0 00 00 00 00 00 00
 0.384453 1  202             Rx   d 8 00 CC 00 00 00 00 00 00
 0.384697 1  204             Rx   d 8 00 00 FF 00 00 00 00 00
 0.386830 1  591             Rx   d 8 91 00 FF FF FF FF FF FF
 0.389991 1  76              Rx   d 8 00 00 1F F7 FC 00 00 F0
 0.390180 1  20A             Rx   d 8 F1 F8 00 00 00 00 4E 20
 0.390427 1  3CA             Rx   d 8 04 00 00 00 00 00 00 00
 0.393248 1  167             Rx   d 8 00 FF FF 00 00 02 0E 00
 0.393492 1  204             Rx   d 8 00 00 FF 00 00 00 00 00
 0.401515 1  3B4             Rx   d 8 34 21 11 FF 1E 1A 00 00
 0.403813 1  167             Rx   d 8 00 FF FF 00 00 02 0E 00
 0.404263 1  202             Rx   d 8 00 CC 00 00 00 00 00 00
 0.404682 1  204             Rx   d 8 00 00 FF 00 00 00 00 00
 0.409764 1  76              Rx   d 8 00 00 1F F7 FC 00 00 F0
 0.409925 1  20A             Rx   d 8 F1 F8 00 00 00 00 4E 20
 0.411646 1  3B5             Rx   d 8 FF FD FF FD FF FD FF FD
 0.413238 1  167             Rx   d 8 00 FF FF 00 00 02 0E 00
 0.413491 1  171             Rx   d 8 F0 E0 00 00 00 00 00 00
 0.413720 1  204             Rx   d 8 00 00 FF 00 00 00 00 00
 0.417084 1  18B             Rx   d 8 00 00 00 1E 00 00 00 00
 0.417266 1  19A             Rx   d 8 00 00 00 02 40 00 00 00
 0.417495 1  220             Rx   d 8 10 01 00 00 00 00 00 00
 0.417800 1  225             Rx   d 8 A0 81 00 00 00 00 00 00
 0.418000 1  287             Rx   d 8 00 00 00 00 00 00 00 00
 0.418251 1  2F4             Rx   d 8 10 01 00 00 00 00 00 00
 0.418516 1  2FD             Rx   d 8 09 00 00 04 FD 00 00 00
 0.418779 1  30A             Rx   d 8 85 00 00 00 00 00 00 00
 0.419038 1  315             Rx   d 8 00 00 00 00 00 00 00 00
 0.419322 1  318             Rx   d 8 00 00 00 00 00 00 00 00
 0.419562 1  346             Rx   d 8 00 00 00 03 03 00 C0 00
 0.419874 1  348             Rx   d 8 00 00 00 01 00 00 00 00
 0.420092 1  350             Rx   d 8 40 00 00 00 00 00 00 00
 0.420326 1  3CA             Rx   d 8 04 00 00 00 00 00 00 00
 0.420577 1  353             Rx   d 8 00 00 00 00 00 00 00 00
 0.420820 1  412             Rx   d 8 7D 00 80 80 00 00 00 00
 0.421091 1  3C8             Rx   d 8 00 00 00 EC 00 00 00 00
 0.421295 1  42F             Rx   d 8 7D 02 05 4E 26 0B 00 00
 0.421560 1  3E0             Rx   d 8 00 00 00 00 80 00 00 00
 0.421783 1  479             Rx   d 8 00 00 00 00 00 00 00 00
 0.422033 1  3FB             Rx   d 8 00 00 00 00 04 00 00 00
 0.422282 1  430             Rx   d 8 48 00 40 9B 00 20 64 00
 0.422533 1  434             Rx   d 8 40 00 70 00 20 4D 28 00
 0.423699 1  167             Rx   d 8 00 FF FF 00 00 02 0E 00
 0.424160 1  202             Rx   d 8 00 CC 00 00 00 00 00 00
 0.424438 1  204             Rx   d 8 00 00 FF 00 00 00 00 00
 0.430028 1  76              Rx   d 8 00 00 1F F7 FC 00 00 F0
 0.430075 1  20A             Rx   d 8 F1 F8 00 00 00 00 4E 20
 0.433449 1  167             Rx   d 8 00 FF FF 00 00 02 0E 00
 0.433489 1  204             Rx   d 8 00 00 FF 00 00 00 00 00
 0.443521 1  156             Rx   d 8 BA 00 00 00 00 00 00 00
 0.443933 1  166             Rx   d 8 76 00 00 FF FF FF 00 00
 0.444207 1  167             Rx   d 8 00 FF FF 00 00 02 0E 00
 0.450575 1  76              Rx   d 8 00 00 1F F7 FC 00 00 F0
 0.463894 1  167             Rx   d 8 00 FF FF 00 00 02 0E 00
 0.479867 1  3CA             Rx   d 8 04 00 00 00 00 00 00 00
 0.493249 1  167             Rx   d 8 00 FF FF 00 00 02 0E 00
 0.510109 1  76              Rx   d 8 00 00 1F F7 FC 00 00 F0
 0.520579 1  412             Rx   d 8 7D 00 80 80 00 00 00 00
 0.529816 1  76              Rx   d 8 00 00 1F F7 FC 00 00 F0
 0.540207 1  3CA             Rx   d 8 04 00 00 00 00 00 00 00
 0.545139 1  167             Rx   d 8 00 FF FF 00 00 02 0E 00
 0.550472 1  40A             Rx   d 8 C1 10 40 84 20 08 80 00
 0.559610 1  59E             Rx   d 8 9E 00 FF FF FF FF FF FF
 0.570196 1  48              Rx   d 8 00 00 00 00 07 00 E0 00
 0.593283 1  167             Rx   d 8 00 FF FF 00 00 02 0E 00
 0.603974 1  167             Rx   d 8 00 FF FF 00 00 02 0E 00
 0.613774 1  167             Rx   d 8 00 FF FF 00 00 02 0E 00
 0.613826 1  204             Rx   d 8 00 00 FF 00 00 00 00 00
 0.618061 1  287             Rx   d 8 00 00 00 00 00 00 00 00
 0.618114 1  30A             Rx   d 8 85 00 00 00 00 00 00 00
 0.620697 1  412             Rx   d 8 7D 00 80 80 00 00 00 00
 0.620832 1  42F             Rx   d 8 7D 02 05 4E 26 0B 00 00
 0.623752 1  167             Rx   d 8 00 FF FF 00 00 02 0E 00
 0.624013 1  171             Rx   d 8 F0 E0 00 00 00 00 00 00
 0.624534 1  202             Rx   d 8 00 CC 00 00 00 00 00 00
 0.624716 1  204             Rx   d 8 00 00 FF 00 00 00 00 00
 0.630491 1  76              Rx   d 8 00 00 1F F7 FC 00 00 F0
 0.633280 1  167             Rx   d 8 00 FF FF 00 00 02 0E 00
 0.643646 1  156             Rx   d 8 BA 00 00 00 00 00 00 00
 0.653284 1  167             Rx   d 8 00 FF FF 00 00 02 0E 00
 0.670645 1  20A             Rx   d 8 F1 F8 00 00 00 00 4E 20
 0.673373 1  167             Rx   d 8 00 FF FF 00 00 02 0E 00
 0.690139 1  76              Rx   d 8 00 00 1F F7 FC 00 00 F0
 0.703769 1  167             Rx   d 8 00 FF FF 00 00 02 0E 00
 0.710484 1  76              Rx   d 8 00 00 1F F7 FC 00 00 F0
 0.713536 1  167             Rx   d 8 00 FF FF 00 00 02 0E 00
 0.723727 1  167             Rx   d 8 00 FF FF 00 00 02 0E 00
 0.743652 1  156             Rx   d 8 BA 00 00 00 00 00 00 00
 0.751394 1  76              Rx   d 8 00 00 1F F7 FC 00 00 F0
 0.763814 1  167             Rx   d 8 00 FF FF 00 00 02 0E 00
 0.764224 1  202             Rx   d 8 00 CC 00 00 00 00 00 00
 0.764438 1  204             Rx   d 8 00 00 FF 00 00 00 00 00
 0.770345 1  14C             Rx   d 8 08 00 00 01 00 00 00 00
 0.773235 1  167             Rx   d 8 00 FF FF 00 00 02 0E 00
 0.793241 1  167             Rx   d 8 00 FF FF 00 00 02 0E 00
 0.810199 1  76              Rx   d 8 00 00 1F F7 FC 00 00 F0
 0.823824 1  167             Rx   d 8 00 FF FF 00 00 02 0E 00
 0.833737 1  204             Rx   d 8 00 00 FF 00 00 00 00 00
 0.843450 1  156             Rx   d 8 BA 00 00 00 00 00 00 00
 0.848138 1  42D             Rx   d 8 00 03 FF 00 00 00 F0 00
 0.863782 1  167             Rx   d 8 00 FF FF 00 00 02 0E 00
 0.870203 1  48              Rx   d 8 00 00 00 00 07 00 E0 00
 0.884126 1  167             Rx   d 8 00 FF FF 00 00 02 0E 00
 0.899981 1  3CA             Rx   d 8 04 00 00 00 00 00 00 00
 0.913260 1  167             Rx   d 8 00 FF FF 00 00 02 0E 00
 0.930150 1  76              Rx   d 8 00 00 1F F7 FC 00 00 F0
 0.943742 1  156             Rx   d 8 BA 00 00 00 00 00 00 00
 0.944108 1  166             Rx   d 8 76 00 00 FF FF FF 00 00
 0.960029 1  3CA             Rx   d 8 04 00 00 00 00 00 00 00
 0.983919 1  167             Rx   d 8 00 FF FF 00 00 02 0E 00
 1.003779 1  167             Rx   d 8 00 FF FF 00 00 02 0E 00
 1.013270 1  167             Rx   d 8 00 FF FF 00 00 02 0E 00
 1.021093 1  3CA             Rx   d 8 04 00 00 00 00 00 00 00
 1.043524 1  156             Rx   d 8 BA 00 00 00 00 00 00 00
 1.043910 1  166             Rx   d 8 76 00 00 FF FF FF 00 00
 1.063931 1  167             Rx   d 8 00 FF FF 00 00 02 0E 00
 1.073211 1  167             Rx   d 8 00 FF FF 00 00 02 0E 00
 1.093502 1  167             Rx   d 8 00 FF FF 00 00 02 0E 00
 1.103809 1  167             Rx   d 8 00 FF FF 00 00 02 0E 00
 1.113271 1  167             Rx   d 8 00 FF FF 00 00 02 0E 00
 1.130332 1  76              Rx   d 8 00 00 1F F7 FC 00 00 F0
 1.140056 1  40A             Rx   d 8 C1 01 47 41 48 4A 48 45
 1.153237 1  167             Rx   d 8 00 FF FF 00 00 02 0E 00
 1.164441 1  167             Rx   d 8 00 FF FF 00 00 02 0E 00
 1.173257 1  167             Rx   d 8 00 FF FF 00 00 02 0E 00
 1.183810 1  167             Rx   d 8 00 FF FF 00 00 02 0E 00
 1.190346 1  76              Rx   d 8 00 00 1F F7 FC 00 00 F0
 1.200186 1  3CA             Rx   d 8 04 00 00 00 00 00 00 00
 1.210034 1  76              Rx   d 8 00 00 1F F7 FC 00 00 F0
 1.221179 1  412             Rx   d 8 7D 00 80 80 00 00 00 00
 1.230243 1  76              Rx   d 8 00 00 1F F7 FC 00 00 F0
 1.250725 1  76              Rx   d 8 00 00 1F F7 FC 00 00 F0
 1.263920 1  167             Rx   d 8 00 FF FF 00 00 02 0E 00
 1.283820 1  167             Rx   d 8 00 FF FF 00 00 02 0E 00
 1.283962 1  171             Rx   d 8 F0 E0 00 00 00 00 00 00
 1.303865 1  167             Rx   d 8 00 FF FF 00 00 02 0E 00
 1.304201 1  202             Rx   d 8 00 CC 00 00 00 00 00 00
 1.316321 1  84              Rx   d 8 00 00 00 01 0B 00 0C 00
 1.330110 1  76              Rx   d 8 00 00 1F F7 FC 00 00 F0
 1.343603 1  156             Rx   d 8 BA 00 00 00 00 00 00 00
 1.363765 1  167             Rx   d 8 00 FF FF 00 00 02 0E 00
 1.370296 1  48              Rx   d 8 00 00 00 00 07 00 E0 00
 1.380729 1  3CA             Rx   d 8 04 00 00 00 00 00 00 00
 1.383775 1  167             Rx   d 8 00 FF FF 00 00 02 0E 00
 1.384207 1  202             Rx   d 8 00 CC 00 00 00 00 00 00
 1.384468 1  204             Rx   d 8 00 00 FF 00 00 00 00 00
 1.384882 1  3B4             Rx   d 8 34 21 11 FF 1E 1A 00 00
 1.386881 1  591             Rx   d 8 91 00 FF FF FF FF FF FF
 1.390138 1  76              Rx   d 8 00 00 1F F7 FC 00 00 F0
 1.390274 1  20A             Rx   d 8 F1 F8 00 00 00 00 4E 20
 1.393270 1  167             Rx   d 8 00 FF FF 00 00 02 0E 00
 1.403997 1  167             Rx   d 8 00 FF FF 00 00 02 0E 00
 1.413502 1  167             Rx   d 8 00 FF FF 00 00 02 0E 00
 1.418891 1  315             Rx   d 8 00 00 00 00 00 00 00 00
 1.430144 1  76              Rx   d 8 00 00 1F F7 FC 00 00 F0
 1.443522 1  156             Rx   d 8 BA 00 00 00 00 00 00 00
 1.453250 1  167             Rx   d 8 00 FF FF 00 00 02 0E 00
 1.463773 1  167             Rx   d 8 00 FF FF 00 00 02 0E 00
 1.470432 1  48              Rx   d 8 00 00 00 00 07 00 E0 00
 1.484068 1  167             Rx   d 8 00 FF FF 00 00 02 0E 00
 1.493682 1  167             Rx   d 8 00 FF FF 00 00 02 0E 00
 1.493708 1  171             Rx   d 8 F0 E0 00 00 00 00 00 00
 1.493973 1  204             Rx   d 8 00 00 FF 00 00 00 00 00
 1.510467 1  76              Rx   d 8 00 00 1F F7 FC 00 00 F0
 1.524408 1  202             Rx   d 8 00 CC 00 00 00 00 00 00
 1.543658 1  156             Rx   d 8 BA 00 00 00 00 00 00 00
 1.559840 1  59E             Rx   d 8 9E 00 FF FF FF FF FF FF
 1.571890 1  275             Rx   d 8 00 00 00 00 00 00 00 00
 1.573871 1  3D0             Rx   d 8 01 0F 49 03 80 00 1F FE
 1.576382 1  46A             Rx   d 8 00 00 00 88 00 10 C0 00
 1.590209 1  76              Rx   d 8 00 00 1F F7 FC 00 00 F0
 1.610270 1  76              Rx   d 8 00 00 1F F7 FC 00 00 F0
 1.630203 1  76              Rx   d 8 00 00 1F F7 FC 00 00 F0
 1.643953 1  166             Rx   d 8 76 00 00 FF FF FF 00 00
 1.663761 1  167             Rx   d 8 00 FF FF 00 00 02 0E 00
 1.680821 1  3CA             Rx   d 8 04 00 00 00 00 00 00 00
 1.703811 1  167             Rx   d 8 00 FF FF 00 00 02 0E 00
 1.713344 1  167             Rx   d 8 00 FF FF 00 00 02 0E 00
 1.730140 1  40A             Rx   d 8 C1 10 40 84 20 08 80 00
 1.743475 1  156             Rx   d 8 BA 00 00 00 00 00 00 00
 1.763800 1  167             Rx   d 8 00 FF FF 00 00 02 0E 00
 1.783853 1  167             Rx   d 8 00 FF FF 00 00 02 0E 00
 1.800395 1  3CA             Rx   d 8 04 00 00 00 00 00 00 00
 1.816911 1  287             Rx   d 8 00 00 00 00 00 00 00 00
 1.833324 1  167             Rx   d 8 00 FF FF 00 00 02 0E 00
 1.851043 1  76              Rx   d 8 00 00 1F F7 FC 00 00 F0
 1.870323 1  48              Rx   d 8 00 00 00 00 07 00 E0 00
 1.884436 1  202             Rx   d 8 00 CC 00 00 00 00 00 00
 1.903786 1  167             Rx   d 8 00 FF FF 00 00 02 0E 00
 1.921141 1  3CA             Rx   d 8 04 00 00 00 00 00 00 00
 1.943620 1  156             Rx   d 8 BA 00 00 00 00 00 00 00
 1.963870 1  167             Rx   d 8 00 FF FF 00 00 02 0E 00
 1.972038 1  470             Rx   d 8 00 00 40 00 00 00 00 00
 1.990338 1  76              Rx   d 8 00 00 1F F7 FC 00 00 F0
 2.010365 1  76              Rx   d 8 00 00 1F F7 FC 00 00 F0
 2.024481 1  202             Rx   d 8 00 CC 00 00 00 00 00 00
 2.043533 1  156             Rx   d 8 BA 00 00 00 00 00 00 00
 2.063909 1  167             Rx   d 8 00 FF FF 00 00 02 0E 00
 2.070519 1  48              Rx   d 8 00 00 00 00 07 00 E0 00
 2.083916 1  167             Rx   d 8 00 FF FF 00 00 02 0E 00
 2.103871 1  167             Rx   d 8 00 FF FF 00 00 02 0E 00
 2.130451 1  76              Rx   d 8 00 00 1F F7 FC 00 00 F0
 2.143624 1  156             Rx   d 8 BA 00 00 00 00 00 00 00
 2.143930 1  166             Rx   d 8 76 00 00 FF FF FF 00 00
 2.160526 1  3CA             Rx   d 8 04 00 00 00 00 00 00 00
 2.163823 1  167             Rx   d 8 00 FF FF 00 00 02 0E 00
 2.164271 1  202             Rx   d 8 00 CC 00 00 00 00 00 00
 2.164424 1  204             Rx   d 8 00 00 FF 00 00 00 00 00
 2.170573 1  48              Rx   d 8 00 00 00 00 07 00 E0 00
 2.170612 1  76              Rx   d 8 00 00 1F F7 FC 00 00 F0
 2.170834 1  14C             Rx   d 8 08 00 00 01 00 00 00 00
 2.171074 1  20A             Rx   d 8 F1 F8 00 00 00 00 4E 20
 2.183794 1  167             Rx   d 8 00 FF FF 00 00 02 0E 00
 2.203826 1  167             Rx   d 8 00 FF FF 00 00 02 0E 00
 2.216922 1  287             Rx   d 8 00 00 00 00 00 00 00 00
 2.233251 1  167             Rx   d 8 00 FF FF 00 00 02 0E 00
 2.251113 1  76              Rx   d 8 00 00 1F F7 FC 00 00 F0
 2.270903 1  48              Rx   d 8 00 00 00 00 07 00 E0 00
 2.290508 1  76              Rx   d 8 00 00 1F F7 FC 00 00 F0
 2.303903 1  167             Rx   d 8 00 FF FF 00 00 02 0E 00
 2.321005 1  3B8             Rx   d 8 FF FF FF FF 00 00 00 00
 2.340616 1  3CA             Rx   d 8 04 00 00 00 00 00 00 00
 2.363802 1  167             Rx   d 8 00 FF FF 00 00 02 0E 00
 2.373205 1  167             Rx   d 8 00 FF FF 00 00 02 0E 00
 2.393195 1  167             Rx   d 8 00 FF FF 00 00 02 0E 00
 2.410549 1  76              Rx   d 8 00 00 1F F7 FC 00 00 F0
 2.430551 1  76              Rx   d 8 00 00 1F F7 FC 00 00 F0
 2.444657 1  179             Rx   d 8 00 00 08 00 22 FF 00 00
 2.460646 1  3CA             Rx   d 8 04 00 00 00 00 00 00 00
 2.470543 1  48              Rx   d 8 00 00 00 00 07 00 E0 00
 2.490688 1  76              Rx   d 8 00 00 1F F7 FC 00 00 F0
 2.503772 1  167             Rx   d 8 00 FF FF 00 00 02 0E 00
 2.513307 1  167             Rx   d 8 00 FF FF 00 00 02 0E 00
 2.522141 1  3CA             Rx   d 8 04 00 00 00 00 00 00 00
 2.530596 1  76              Rx   d 8 00 00 1F F7 FC 00 00 F0
 2.563763 1  167             Rx   d 8 00 FF FF 00 00 02 0E 00
 2.580732 1  3CA             Rx   d 8 04 00 00 00 00 00 00 00
 2.590611 1  76              Rx   d 8 00 00 1F F7 FC 00 00 F0
 2.603779 1  167             Rx   d 8 00 FF FF 00 00 02 0E 00
 2.603952 1  171             Rx   d 8 F0 E0 00 00 00 00 00 00
 2.604456 1  202             Rx   d 8 00 CC 00 00 00 00 00 00
 2.611018 1  3CA             Rx   d 8 04 00 00 00 00 00 00 00
 2.613286 1  167             Rx   d 8 00 FF FF 00 00 02 0E 00
 2.613505 1  204             Rx   d 8 00 00 FF 00 00 00 00 00
 2.630980 1  76              Rx   d 8 00 00 1F F7 FC 00 00 F0
 2.643477 1  156             Rx   d 8 BA 00 00 00 00 00 00 00
 2.664189 1  167             Rx   d 8 00 FF FF 00 00 02 0E 00
 2.664256 1  171             Rx   d 8 F0 E0 00 00 00 00 00 00
 2.664863 1  202             Rx   d 8 00 CC 00 00 00 00 00 00
 2.672021 1  42F             Rx   d 8 7D 02 05 4E 26 0B 00 00
 2.684247 1  202             Rx   d 8 00 CC 00 00 00 00 00 00
 2.700895 1  3CA             Rx   d 8 04 00 00 00 00 00 00 00
 2.710633 1  76              Rx   d 8 00 00 1F F7 FC 00 00 F0
 2.721561 1  412             Rx   d 8 7D 00 80 80 00 00 00 00
 2.743536 1  156             Rx   d 8 BA 00 00 00 00 00 00 00
 2.760804 1  3CA             Rx   d 8 04 00 00 00 00 00 00 00
 2.770721 1  48              Rx   d 8 00 00 00 00 07 00 E0 00
 2.771899 1  42F             Rx   d 8 7D 02 05 4E 26 0B 00 00
 2.783772 1  167             Rx   d 8 00 FF FF 00 00 02 0E 00
 2.803984 1  167             Rx   d 8 00 FF FF 00 00 02 0E 00
 2.821502 1  3CA             Rx   d 8 04 00 00 00 00 00 00 00
 2.843491 1  156             Rx   d 8 BA 00 00 00 00 00 00 00
 2.863870 1  167             Rx   d 8 00 FF FF 00 00 02 0E 00
 2.873594 1  167             Rx   d 8 00 FF FF 00 00 02 0E 00
 2.893260 1  167             Rx   d 8 00 FF FF 00 00 02 0E 00
 2.909642 1  3B2             Rx   d 8 44 8C C0 0C E6 00 03 3E
 2.923696 1  167             Rx   d 8 00 FF FF 00 00 02 0E 00
 2.943505 1  156             Rx   d 8 BA 00 00 00 00 00 00 00
 2.963977 1  167             Rx   d 8 00 FF FF 00 00 02 0E 00
 2.983828 1  167             Rx   d 8 00 FF FF 00 00 02 0E 00
 2.984180 1  202             Rx   d 8 00 CC 00 00 00 00 00 00
 3.004209 1  167             Rx   d 8 00 FF FF 00 00 02 0E 00
 3.021632 1  412             Rx   d 8 7D 00 80 80 00 00 00 00
 3.043747 1  156             Rx   d 8 BA 00 00 00 00 00 00 00
 3.051116 1  76              Rx   d 8 00 00 1F F7 FC 00 00 F0
 3.070942 1  48              Rx   d 8 00 00 00 00 07 00 E0 00
 3.083766 1  167             Rx   d 8 00 FF FF 00 00 02 0E 00
 3.083909 1  171             Rx   d 8 F0 E0 00 00 00 00 00 00
 3.084423 1  202             Rx   d 8 00 CC 00 00 00 00 00 00
 3.084651 1  204             Rx   d 8 00 00 FF 00 00 00 00 00
 3.090987 1  76              Rx   d 8 00 00 1F F7 FC 00 00 F0
 3.103857 1  167             Rx   d 8 00 FF FF 00 00 02 0E 00
 3.111076 1  20A             Rx   d 8 F1 F8 00 00 00 00 4E 20
 3.124194 1  202             Rx   d 8 00 CC 00 00 00 00 00 00
 3.143719 1  156             Rx   d 8 BA 00 00 00 00 00 00 00
 3.143925 1  166             Rx   d 8 76 00 00 FF FF FF 00 00
 3.151542 1  76              Rx   d 8 00 00 1F F7 FC 00 00 F0
 3.171016 1  48              Rx   d 8 00 00 00 00 07 00 E0 00
 3.183997 1  167             Rx   d 8 00 FF FF 00 00 02 0E 00
 3.203803 1  167             Rx   d 8 00 FF FF 00 00 02 0E 00
 3.213283 1  167             Rx   d 8 00 FF FF 00 00 02 0E 00
 3.230973 1  76              Rx   d 8 00 00 1F F7 FC 00 00 F0
 3.231132 1  20A             Rx   d 8 F1 F8 00 00 00 00 4E 20
 3.233239 1  167             Rx   d 8 00 FF FF 00 00 02 0E 00
 3.240959 1  3CA             Rx   d 8 04 00 00 00 00 00 00 00
 3.263803 1  167             Rx   d 8 00 FF FF 00 00 02 0E 00
 3.263994 1  171             Rx   d 8 F0 E0 00 00 00 00 00 00
 3.264524 1  202             Rx   d 8 00 CC 00 00 00 00 00 00
 3.264712 1  204             Rx   d 8 00 00 FF 00 00 00 00 00
 3.270864 1  48              Rx   d 8 00 00 00 00 07 00 E0 00
 3.271015 1  76              Rx   d 8 00 00 1F F7 FC 00 00 F0
 3.272512 1  470             Rx   d 8 00 00 40 00 00 00 00 00
 3.290871 1  76              Rx   d 8 00 00 1F F7 FC 00 00 F0
 3.293200 1  167             Rx   d 8 00 FF FF 00 00 02 0E 00
 3.310881 1  76              Rx   d 8 00 00 1F F7 FC 00 00 F0
 3.317842 1  430             Rx   d 8 48 00 40 9B 00 20 64 00
 3.324640 1  204             Rx   d 8 00 00 FF 00 00 00 00 00
 3.343641 1  156             Rx   d 8 BA 00 00 00 00 00 00 00
 3.360735 1  3B5             Rx   d 8 FF FD FF FD FF FD FF FD
 3.373484 1  204             Rx   d 8 00 00 FF 00 00 00 00 00
 3.393248 1  167             Rx   d 8 00 FF FF 00 00 02 0E 00
 3.410882 1  76              Rx   d 8 00 00 1F F7 FC 00 00 F0
 3.443507 1  156             Rx   d 8 BA 00 00 00 00 00 00 00
 3.452169 1  76              Rx   d 8 00 00 1F F7 FC 00 00 F0
 3.452216 1  20A             Rx   d 8 F1 F8 00 00 00 00 4E 20
 3.463811 1  167             Rx   d 8 00 FF FF 00 00 02 0E 00
 3.464178 1  202             Rx   d 8 00 CC 00 00 00 00 00 00
 3.464455 1  204             Rx   d 8 00 00 FF 00 00 00 00 00
 3.470936 1  48              Rx   d 8 00 00 00 00 07 00 E0 00
 3.471078 1  76              Rx   d 8 00 00 1F F7 FC 00 00 F0
 3.471346 1  20A             Rx   d 8 F1 F8 00 00 00 00 4E 20
 3.471548 1  412             Rx   d 8 7D 00 80 80 00 00 00 00
 3.471802 1  42F             Rx   d 8 7D 02 05 4E 26 0B 00 00
 3.472054 1  433             Rx   d 8 C0 00 00 00 00 A0 00 00
 3.472302 1  470             Rx   d 8 00 00 40 00 00 00 00 00
 3.483907 1  167             Rx   d 8 00 FF FF 00 00 02 0E 00
 3.503735 1  167             Rx   d 8 00 FF FF 00 00 02 0E 00
 3.521888 1  412             Rx   d 8 7D 00 80 80 00 00 00 00
 3.541268 1  3CA             Rx   d 8 04 00 00 00 00 00 00 00
 3.560789 1  59E             Rx   d 8 9E 00 FF FF FF FF FF FF
 3.570980 1  48              Rx   d 8 00 00 00 00 07 00 E0 00
 3.591282 1  76              Rx   d 8 00 00 1F F7 FC 00 00 F0
 3.603820 1  167             Rx   d 8 00 FF FF 00 00 02 0E 00
 3.631528 1  76              Rx   d 8 00 00 1F F7 FC 00 00 F0
 3.653245 1  167             Rx   d 8 00 FF FF 00 00 02 0E 00
 3.671729 1  48              Rx   d 8 00 00 00 00 07 00 E0 00
 3.690983 1  76              Rx   d 8 00 00 1F F7 FC 00 00 F0
 3.693290 1  167             Rx   d 8 00 FF FF 00 00 02 0E 00
 3.713192 1  167             Rx   d 8 00 FF FF 00 00 02 0E 00
 3.731145 1  76              Rx   d 8 00 00 1F F7 FC 00 00 F0
 3.751834 1  76              Rx   d 8 00 00 1F F7 FC 00 00 F0
 3.771194 1  48              Rx   d 8 00 00 00 00 07 00 E0 00
 3.791064 1  76              Rx   d 8 00 00 1F F7 FC 00 00 F0
 3.811207 1  76              Rx   d 8 00 00 1F F7 FC 00 00 F0
 3.823750 1  167             Rx   d 8 00 FF FF 00 00 02 0E 00
 3.843544 1  156             Rx   d 8 BA 00 00 00 00 00 00 00
 3.863766 1  167             Rx   d 8 00 FF FF 00 00 02 0E 00
 3.883754 1  167             Rx   d 8 00 FF FF 00 00 02 0E 00
 3.892594 1  3B2             Rx   d 8 44 8C C0 0C E6 00 03 3E
 3.911498 1  76              Rx   d 8 00 00 1F F7 FC 00 00 F0
 3.931094 1  76              Rx   d 8 00 00 1F F7 FC 00 00 F0
 3.943597 1  156             Rx   d 8 BA 00 00 00 00 00 00 00
 3.961157 1  3CA             Rx   d 8 04 00 00 00 00 00 00 00
 3.983918 1  167             Rx   d 8 00 FF FF 00 00 02 0E 00
 3.993221 1  167             Rx   d 8 00 FF FF 00 00 02 0E 00
 4.011582 1  76              Rx   d 8 00 00 1F F7 FC 00 00 F0
 4.021932 1  3CA             Rx   d 8 04 00 00 00 00 00 00 00
 4.033218 1  167             Rx   d 8 00 FF FF 00 00 02 0E 00
 4.053681 1  167             Rx   d 8 00 FF FF 00 00 02 0E 00
 4.071177 1  48              Rx   d 8 00 00 00 00 07 00 E0 00
 4.089154 1  40A             Rx   d 8 C1 10 40 84 20 08 80 00
 4.103767 1  167             Rx   d 8 00 FF FF 00 00 02 0E 00
 4.113426 1  167             Rx   d 8 00 FF FF 00 00 02 0E 00
 4.131426 1  76              Rx   d 8 00 00 1F F7 FC 00 00 F0
 4.145399 1  202             Rx   d 8 00 CC 00 00 00 00 00 00
 4.163759 1  167             Rx   d 8 00 FF FF 00 00 02 0E 00
 4.184009 1  167             Rx   d 8 00 FF FF 00 00 02 0E 00
 4.201229 1  3CA             Rx   d 8 04 00 00 00 00 00 00 00
 4.222244 1  412             Rx   d 8 7D 00 80 80 00 00 00 00
 4.233177 1  167             Rx   d 8 00 FF FF 00 00 02 0E 00
 4.251571 1  76              Rx   d 8 00 00 1F F7 FC 00 00 F0
 4.263685 1  167             Rx   d 8 00 FF FF 00 00 02 0E 00
 4.283918 1  167             Rx   d 8 00 FF FF 00 00 02 0E 00
 4.303784 1  167             Rx   d 8 00 FF FF 00 00 02 0E 00
 4.322567 1  3CA             Rx   d 8 04 00 00 00 00 00 00 00
 4.333295 1  167             Rx   d 8 00 FF FF 00 00 02 0E 00
 4.333528 1  204             Rx   d 8 00 00 FF 00 00 00 00 00
 4.343807 1  156             Rx   d 8 BA 00 00 00 00 00 00 00
 4.344199 1  166             Rx   d 8 76 00 00 FF FF FF 00 00
 4.344498 1  167             Rx   d 8 00 FF FF 00 00 02 0E 00
 4.344715 1  171             Rx   d 8 F0 E0 00 00 00 00 00 00
 4.344913 1  178             Rx   d 8 00 00 02 00 02 54 CA 53
 4.345172 1  179             Rx   d 8 00 00 08 00 22 FF 00 00
 4.345413 1  17C             Rx   d 8 00 00 00 00 00 00 00 00
 4.345885 1  202             Rx   d 8 00 CC 00 00 00 00 00 00
 4.346115 1  204             Rx   d 8 00 00 FF 00 00 00 00 00
 4.346587 1  3B5             Rx   d 8 FF FD FF FD FF FD FF FD
 4.346845 1  421             Rx   d 8 04 00 11 00 00 00 FF 00
 4.347356 1  42D             Rx   d 8 00 03 FF 00 00 00 F0 00
 4.351955 1  76              Rx   d 8 00 00 1F F7 FC 00 00 F0
 4.351994 1  20A             Rx   d 8 F1 F8 00 00 00 00 4E 20
 4.364285 1  167             Rx   d 8 00 FF FF 00 00 02 0E 00
 4.381390 1  3CA             Rx   d 8 04 00 00 00 00 00 00 00
 4.384003 1  167             Rx   d 8 00 FF FF 00 00 02 0E 00
 4.384464 1  202             Rx   d 8 00 CC 00 00 00 00 00 00
 4.385388 1  3C3             Rx   d 8 5C 80 10 C1 01 00 00 00
 4.393336 1  167             Rx   d 8 00 FF FF 00 00 02 0E 00
 4.403917 1  167             Rx   d 8 00 FF FF 00 00 02 0E 00
 4.404069 1  171             Rx   d 8 F0 E0 00 00 00 00 00 00
 4.411313 1  76              Rx   d 8 00 00 1F F7 FC 00 00 F0
 4.411498 1  20A             Rx   d 8 F1 F8 00 00 00 00 4E 20
 4.418047 1  2F4             Rx   d 8 10 01 00 00 00 00 00 00
 4.431552 1  76              Rx   d 8 00 00 1F F7 FC 00 00 F0
 4.441316 1  3CA             Rx   d 8 04 00 00 00 00 00 00 00
 4.464075 1  167             Rx   d 8 00 FF FF 00 00 02 0E 00
 4.473705 1  204             Rx   d 8 00 00 FF 00 00 00 00 00
 4.482410 1  40A             Rx   d 8 C1 00 57 46 30 4A 58 58
 4.493302 1  167             Rx   d 8 00 FF FF 00 00 02 0E 00
 4.511286 1  76              Rx   d 8 00 00 1F F7 FC 00 00 F0
 4.522395 1  412             Rx   d 8 7D 00 80 80 00 00 00 00
 4.524635 1  204             Rx   d 8 00 00 FF 00 00 00 00 00
 4.543528 1  156             Rx   d 8 BA 00 00 00 00 00 00 00
 4.551349 1  76              Rx   d 8 00 00 1F F7 FC 00 00 F0
 4.571500 1  48              Rx   d 8 00 00 00 00 07 00 E0 00
 4.577464 1  46B             Rx   d 8 B7 A0 48 00 00 00 D2 09
 4.584479 1  202             Rx   d 8 00 CC 00 00 00 00 00 00
 4.591493 1  76              Rx   d 8 00 00 1F F7 FC 00 00 F0
 4.604204 1  167             Rx   d 8 00 FF FF 00 00 02 0E 00
 4.604259 1  202             Rx   d 8 00 CC 00 00 00 00 00 00
 4.604501 1  204             Rx   d 8 00 00 FF 00 00 00 00 00
 4.611662 1  76              Rx   d 8 00 00 1F F7 FC 00 00 F0
 4.613291 1  167             Rx   d 8 00 FF FF 00 00 02 0E 00
 4.613550 1  171             Rx   d 8 F0 E0 00 00 00 00 00 00
 4.622217 1  3CA             Rx   d 8 04 00 00 00 00 00 00 00
 4.622405 1  412             Rx   d 8 7D 00 80 80 00 00 00 00
 4.622669 1  42F             Rx   d 8 7D 02 05 4E 26 0B 00 00
 4.631927 1  76              Rx   d 8 00 00 1F F7 FC 00 00 F0
 4.631967 1  20A             Rx   d 8 F1 F8 00 00 00 00 4E 20
 4.643582 1  156             Rx   d 8 BA 00 00 00 00 00 00 00
 4.644757 1  166             Rx   d 8 76 00 00 FF FF FF 00 00
 4.644803 1  167             Rx   d 8 00 FF FF 00 00 02 0E 00
 4.644809 1  171             Rx   d 8 F0 E0 00 00 00 00 00 00
 4.664461 1  204             Rx   d 8 00 00 FF 00 00 00 00 00
 4.691388 1  76              Rx   d 8 00 00 1F F7 FC 00 00 F0
 4.703932 1  167             Rx   d 8 00 FF FF 00 00 02 0E 00
 4.722409 1  412             Rx   d 8 7D 00 80 80 00 00 00 00
 4.741631 1  3CA             Rx   d 8 04 00 00 00 00 00 00 00
 4.751590 1  76              Rx   d 8 00 00 1F F7 FC 00 00 F0
 4.771490 1  48              Rx   d 8 00 00 00 00 07 00 E0 00
 4.783831 1  167             Rx   d 8 00 FF FF 00 00 02 0E 00
 4.801441 1  3CA             Rx   d 8 04 00 00 00 00 00 00 00
 4.817030 1  287             Rx   d 8 00 00 00 00 00 00 00 00
 4.835905 1  3B5             Rx   d 8 FF FD FF FD FF FD FF FD
 4.851586 1  76              Rx   d 8 00 00 1F F7 FC 00 00 F0
 4.871665 1  48              Rx   d 8 00 00 00 00 07 00 E0 00
 4.883800 1  167             Rx   d 8 00 FF FF 00 00 02 0E 00
 4.903758 1  167             Rx   d 8 00 FF FF 00 00 02 0E 00
 4.917981 1  434             Rx   d 8 40 00 70 00 20 4D 28 00
 4.943539 1  156             Rx   d 8 BA 00 00 00 00 00 00 00
 4.951766 1  76              Rx   d 8 00 00 1F F7 FC 00 00 F0
 4.963777 1  167             Rx   d 8 00 FF FF 00 00 02 0E 00
 4.981652 1  3CA             Rx   d 8 04 00 00 00 00 00 00 00
 4.991680 1  76              Rx   d 8 00 00 1F F7 FC 00 00 F0
 4.991709 1  20A             Rx   d 8 F1 F8 00 00 00 00 4E 20
 4.993257 1  167             Rx   d 8 00 FF FF 00 00 02 0E 00
 5.011678 1  76              Rx   d 8 00 00 1F F7 FC 00 00 F0
 5.011710 1  20A             Rx   d 8 F1 F8 00 00 00 00 4E 20
 5.011968 1  3CA             Rx   d 8 04 00 00 00 00 00 00 00
 5.031709 1  76              Rx   d 8 00 00 1F F7 FC 00 00 F0
 5.046135 1  421             Rx   d 8 04 00 11 00 00 00 FF 00
 5.064181 1  167             Rx   d 8 00 FF FF 00 00 02 0E 00
 5.083800 1  167             Rx   d 8 00 FF FF 00 00 02 0E 00
 5.102051 1  3CA             Rx   d 8 04 00 00 00 00 00 00 00
 5.103758 1  167             Rx   d 8 00 FF FF 00 00 02 0E 00
 5.122848 1  412             Rx   d 8 7D 00 80 80 00 00 00 00
 5.133795 1  167             Rx   d 8 00 FF FF 00 00 02 0E 00
 5.152049 1  76              Rx   d 8 00 00 1F F7 FC 00 00 F0
 5.161855 1  3CA             Rx   d 8 04 00 00 00 00 00 00 00
 5.163868 1  167             Rx   d 8 00 FF FF 00 00 02 0E 00
 5.184019 1  167             Rx   d 8 00 FF FF 00 00 02 0E 00
 5.184069 1  171             Rx   d 8 F0 E0 00 00 00 00 00 00
 5.192021 1  76              Rx   d 8 00 00 1F F7 FC 00 00 F0
 5.192057 1  20A             Rx   d 8 F1 F8 00 00 00 00 4E 20
 5.192409 1  3CA             Rx   d 8 04 00 00 00 00 00 00 00
 5.193245 1  167             Rx   d 8 00 FF FF 00 00 02 0E 00
 5.193432 1  204             Rx   d 8 00 00 FF 00 00 00 00 00
 5.203737 1  167             Rx   d 8 00 FF FF 00 00 02 0E 00
 5.204157 1  202             Rx   d 8 00 CC 00 00 00 00 00 00
 5.204383 1  204             Rx   d 8 00 00 FF 00 00 00 00 00
 5.211531 1  76              Rx   d 8 00 00 1F F7 FC 00 00 F0
 5.211728 1  20A             Rx   d 8 F1 F8 00 00 00 00 4E 20
 5.213233 1  167             Rx   d 8 00 FF FF 00 00 02 0E 00
 5.216794 1  287             Rx   d 8 00 00 00 00 00 00 00 00
 5.231809 1  76              Rx   d 8 00 00 1F F7 FC 00 00 F0
 5.251650 1  76              Rx   d 8 00 00 1F F7 FC 00 00 F0
 5.263746 1  167             Rx   d 8 00 FF FF 00 00 02 0E 00
 5.281823 1  3CA             Rx   d 8 04 00 00 00 00 00 00 00
 5.304853 1  167             Rx   d 8 00 FF FF 00 00 02 0E 00
 5.312135 1  76              Rx   d 8 00 00 1F F7 FC 00 00 F0
 5.331900 1  76              Rx   d 8 00 00 1F F7 FC 00 00 F0
 5.347586 1  42D             Rx   d 8 00 03 FF 00 00 00 F0 00
 5.366543 1  3B2             Rx   d 8 44 8C C0 0C E6 00 03 3E
 5.383819 1  167             Rx   d 8 00 FF FF 00 00 02 0E 00
 5.401706 1  3CA             Rx   d 8 04 00 00 00 00 00 00 00
 5.420314 1  353             Rx   d 8 00 00 00 00 00 00 00 00
 5.432068 1  3CA             Rx   d 8 04 00 00 00 00 00 00 00
 5.443578 1  156             Rx   d 8 BA 00 00 00 00 00 00 00
 5.444011 1  166             Rx   d 8 76 00 00 FF FF FF 00 00
 5.444129 1  167             Rx   d 8 00 FF FF 00 00 02 0E 00
 5.461724 1  3CA             Rx   d 8 04 00 00 00 00 00 00 00
 5.483797 1  167             Rx   d 8 00 FF FF 00 00 02 0E 00
 5.493192 1  167             Rx   d 8 00 FF FF 00 00 02 0E 00
 5.513344 1  167             Rx   d 8 00 FF FF 00 00 02 0E 00
 5.531696 1  76              Rx   d 8 00 00 1F F7 FC 00 00 F0
 5.552019 1  76              Rx   d 8 00 00 1F F7 FC 00 00 F0
 5.561426 1  59E             Rx   d 8 9E 00 FF FF FF FF FF FF
 5.563841 1  167             Rx   d 8 00 FF FF 00 00 02 0E 00
 5.564287 1  202             Rx   d 8 00 CC 00 00 00 00 00 00
 5.564523 1  204             Rx   d 8 00 00 FF 00 00 00 00 00
 5.571756 1  48              Rx   d 8 00 00 00 00 07 00 E0 00
 5.571904 1  76              Rx   d 8 00 00 1F F7 FC 00 00 F0
 5.572142 1  77              Rx   d 8 1F FE 0F FE 00 01 00 00
 5.572391 1  108             Rx   d 8 00 04 00 00 80 00 72 64
 5.572647 1  109             Rx   d 8 00 00 EE 00 00 00 04 01
 5.572877 1  14C             Rx   d 8 08 00 00 01 00 00 00 00
 5.573139 1  20A             Rx   d 8 F1 F8 00 00 00 00 4E 20
 5.581914 1  3CA             Rx   d 8 04 00 00 00 00 00 00 00
 5.603752 1  167             Rx   d 8 00 FF FF 00 00 02 0E 00
 5.617361 1  318             Rx   d 8 00 00 00 00 00 00 00 00
 5.641755 1  3CA             Rx   d 8 04 00 00 00 00 00 00 00
 5.662032 1  40A             Rx   d 8 C1 00 57 46 30 4A 58 58
 5.672126 1  20A             Rx   d 8 F1 F8 00 00 00 00 4E 20
 5.692154 1  76              Rx   d 8 00 00 1F F7 FC 00 00 F0
 5.703701 1  167             Rx   d 8 00 FF FF 00 00 02 0E 00
 5.722728 1  412             Rx   d 8 7D 00 80 80 00 00 00 00
 5.743516 1  156             Rx   d 8 BA 00 00 00 00 00 00 00
 5.760652 1  3B8             Rx   d 8 FF FF FF FF 00 00 00 00
 5.783775 1  167             Rx   d 8 00 FF FF 00 00 02 0E 00
 5.791833 1  76              Rx   d 8 00 00 1F F7 FC 00 00 F0
 5.812078 1  76              Rx   d 8 00 00 1F F7 FC 00 00 F0
 5.843475 1  156             Rx   d 8 BA 00 00 00 00 00 00 00
 5.851796 1  76              Rx   d 8 00 00 1F F7 FC 00 00 F0
 5.871824 1  48              Rx   d 8 00 00 00 00 07 00 E0 00
 5.883721 1  167             Rx   d 8 00 FF FF 00 00 02 0E 00
 5.904057 1  167             Rx   d 8 00 FF FF 00 00 02 0E 00
 5.922590 1  412             Rx   d 8 7D 00 80 80 00 00 00 00
 5.933225 1  167             Rx   d 8 00 FF FF 00 00 02 0E 00
 5.951856 1  76              Rx   d 8 00 00 1F F7 FC 00 00 F0
 5.971996 1  48              Rx   d 8 00 00 00 00 07 00 E0 00
 5.991861 1  76              Rx   d 8 00 00 1F F7 FC 00 00 F0
 6.011884 1  76              Rx   d 8 00 00 1F F7 FC 00 00 F0
 6.024397 1  202             Rx   d 8 00 CC 00 00 00 00 00 00
 6.043469 1  156             Rx   d 8 BA 00 00 00 00 00 00 00
 6.061960 1  3CA             Rx   d 8 04 00 00 00 00 00 00 00
 6.083740 1  167             Rx   d 8 00 FF FF 00 00 02 0E 00
 6.093210 1  167             Rx   d 8 00 FF FF 00 00 02 0E 00
 6.112069 1  76              Rx   d 8 00 00 1F F7 FC 00 00 F0
 6.124158 1  202             Rx   d 8 00 CC 00 00 00 00 00 00
 6.143687 1  156             Rx   d 8 BA 00 00 00 00 00 00 00
 6.163757 1  167             Rx   d 8 00 FF FF 00 00 02 0E 00
 6.181986 1  3CA             Rx   d 8 04 00 00 00 00 00 00 00
 6.191952 1  76              Rx   d 8 00 00 1F F7 FC 00 00 F0
 6.212249 1  76              Rx   d 8 00 00 1F F7 FC 00 00 F0
 6.231941 1  76              Rx   d 8 00 00 1F F7 FC 00 00 F0
 6.243440 1  156             Rx   d 8 BA 00 00 00 00 00 00 00
 6.263760 1  167             Rx   d 8 00 FF FF 00 00 02 0E 00
 6.283972 1  167             Rx   d 8 00 FF FF 00 00 02 0E 00
 6.292238 1  76              Rx   d 8 00 00 1F F7 FC 00 00 F0
 6.312055 1  76              Rx   d 8 00 00 1F F7 FC 00 00 F0
 6.332375 1  76              Rx   d 8 00 00 1F F7 FC 00 00 F0
 6.353801 1  167             Rx   d 8 00 FF FF 00 00 02 0E 00
 6.372329 1  48              Rx   d 8 00 00 00 00 07 00 E0 00
 6.384031 1  167             Rx   d 8 00 FF FF 00 00 02 0E 00
 6.412275 1  76              Rx   d 8 00 00 1F F7 FC 00 00 F0
 6.432045 1  76              Rx   d 8 00 00 1F F7 FC 00 00 F0
 6.443461 1  156             Rx   d 8 BA 00 00 00 00 00 00 00
 6.464053 1  167             Rx   d 8 00 FF FF 00 00 02 0E 00
 6.472055 1  48              Rx   d 8 00 00 00 00 07 00 E0 00
 6.483981 1  167             Rx   d 8 00 FF FF 00 00 02 0E 00
 6.492204 1  76              Rx   d 8 00 00 1F F7 FC 00 00 F0
 6.492239 1  20A             Rx   d 8 F1 F8 00 00 00 00 4E 20
 6.493226 1  167             Rx   d 8 00 FF FF 00 00 02 0E 00
 6.493516 1  204             Rx   d 8 00 00 FF 00 00 00 00 00
 6.503714 1  167             Rx   d 8 00 FF FF 00 00 02 0E 00
 6.523025 1  412             Rx   d 8 7D 00 80 80 00 00 00 00
 6.542136 1  3CA             Rx   d 8 04 00 00 00 00 00 00 00
 6.562175 1  59E             Rx   d 8 9E 00 FF FF FF FF FF FF
 6.572090 1  48              Rx   d 8 00 00 00 00 07 00 E0 00
 6.592551 1  76              Rx   d 8 00 00 1F F7 FC 00 00 F0
 6.612174 1  76              Rx   d 8 00 00 1F F7 FC 00 00 F0
 6.623690 1  167             Rx   d 8 00 FF FF 00 00 02 0E 00
 6.643445 1  156             Rx   d 8 BA 00 00 00 00 00 00 00
 6.662258 1  3CA             Rx   d 8 04 00 00 00 00 00 00 00
 6.684003 1  167             Rx   d 8 00 FF FF 00 00 02 0E 00
 6.688254 1  46B             Rx   d 8 B7 A0 48 00 00 00 D2 09
 6.703816 1  167             Rx   d 8 00 FF FF 00 00 02 0E 00
 6.722916 1  3CA             Rx   d 8 04 00 00 00 00 00 00 00
 6.743233 1  3B8             Rx   d 8 FF FF FF FF 00 00 00 00
 6.752184 1  76              Rx   d 8 00 00 1F F7 FC 00 00 F0
 6.763767 1  167             Rx   d 8 00 FF FF 00 00 02 0E 00
 6.782224 1  3CA             Rx   d 8 04 00 00 00 00 00 00 00
 6.802066 1  3B5             Rx   d 8 FF FD FF FD FF FD FF FD
 6.804019 1  167             Rx   d 8 00 FF FF 00 00 02 0E 00
 6.812289 1  76              Rx   d 8 00 00 1F F7 FC 00 00 F0
 6.832171 1  76              Rx   d 8 00 00 1F F7 FC 00 00 F0
 6.841730 1  3B2             Rx   d 8 44 8C C0 0C E6 00 03 3E
 6.852210 1  76              Rx   d 8 00 00 1F F7 FC 00 00 F0
 6.872424 1  48              Rx   d 8 00 00 00 00 07 00 E0 00
 6.883801 1  167             Rx   d 8 00 FF FF 00 00 02 0E 00
 6.902316 1  3CA             Rx   d 8 04 00 00 00 00 00 00 00
 6.909688 1  720             Rx   d 8 02 10 03 00 00 00 00 00
 6.917500 1  430             Rx   d 8 48 00 40 9B 00 20 64 00
 6.943590 1  156             Rx   d 8 BA 00 00 00 00 00 00 00
 6.943886 1  166             Rx   d 8 76 00 00 FF FF FF 00 00
 6.962545 1  3CA             Rx   d 8 04 00 00 00 00 00 00 00
 6.972364 1  48              Rx   d 8 00 00 00 00 07 00 E0 00
 6.983952 1  167             Rx   d 8 00 FF FF 00 00 02 0E 00
 7.003710 1  167             Rx   d 8 00 FF FF 00 00 02 0E 00
 7.012439 1  76              Rx   d 8 00 00 1F F7 FC 00 00 F0
 7.023133 1  3CA             Rx   d 8 04 00 00 00 00 00 00 00
 7.038166 1  40A             Rx   d 8 C1 01 47 41 48 4A 48 45
 7.063779 1  167             Rx   d 8 00 FF FF 00 00 02 0E 00
 7.072243 1  48              Rx   d 8 00 00 00 00 07 00 E0 00
 7.092393 1  76              Rx   d 8 00 00 1F F7 FC 00 00 F0
 7.103726 1  167             Rx   d 8 00 FF FF 00 00 02 0E 00
 7.112347 1  76              Rx   d 8 00 00 1F F7 FC 00 00 F0
 7.123694 1  167             Rx   d 8 00 FF FF 00 00 02 0E 00
 7.136811 1  728             Rx   d 8 10 12 67 03 1F 4B E8 4E
 7.142298 1  3CA             Rx   d 8 04 00 00 00 00 00 00 00
 7.152519 1  76              Rx   d 8 00 00 1F F7 FC 00 00 F0
 7.172316 1  48              Rx   d 8 00 00 00 00 07 00 E0 00
 7.184458 1  204             Rx   d 8 00 00 FF 00 00 00 00 00
 7.202373 1  3CA             Rx   d 8 04 00 00 00 00 00 00 00
 7.216817 1  287             Rx   d 8 00 00 00 00 00 00 00 00
 7.232347 1  76              Rx   d 8 00 00 1F F7 FC 00 00 F0
 7.234883 1  38D             Rx   d 8 20 00 00 00 00 00 00 F0
 7.248634 1  720             Rx   d 8 21 64 CA A5 4E 27 37 68
 7.262435 1  3CA             Rx   d 8 04 00 00 00 00 00 00 00
 7.263743 1  167             Rx   d 8 00 FF FF 00 00 02 0E 00
 7.282524 1  3B4             Rx   d 8 34 21 11 FF 1E 1A 00 00
 7.292403 1  76              Rx   d 8 00 00 1F F7 FC 00 00 F0
 7.303744 1  167             Rx   d 8 00 FF FF 00 00 02 0E 00
 7.312389 1  76              Rx   d 8 00 00 1F F7 FC 00 00 F0
 7.323532 1  42C             Rx   d 8 30 31 C4 80 00 00 00 97
 7.343476 1  156             Rx   d 8 BA 00 00 00 00 00 00 00
 7.363764 1  167             Rx   d 8 00 FF FF 00 00 02 0E 00
 7.372407 1  48              Rx   d 8 00 00 00 00 07 00 E0 00
 7.384153 1  202             Rx   d 8 00 CC 00 00 00 00 00 00
 7.403729 1  167             Rx   d 8 00 FF FF 00 00 02 0E 00
 7.416761 1  18B             Rx   d 8 00 00 00 1E 00 00 00 00
 7.431666 1  40A             Rx   d 8 C1 04 01 8A 07 54 85 41
 7.452367 1  76              Rx   d 8 00 00 1F F7 FC 00 00 F0
 7.463920 1  167             Rx   d 8 00 FF FF 00 00 02 0E 00
 7.479088 1  331             Rx   d 8 C0 00 49 08 04 00 00 00
 7.502566 1  3CA             Rx   d 8 04 00 00 00 00 00 00 00
 7.509703 1  331             Rx   d 8 C0 00 49 09 04 00 00 00
 7.532760 1  76              Rx   d 8 00 00 1F F7 FC 00 00 F0
 7.543478 1  156             Rx   d 8 BA 00 00 00 00 00 00 00
 7.562203 1  59E             Rx   d 8 9E 00 FF FF FF FF FF FF
 7.573121 1  108             Rx   d 8 00 04 00 00 80 00 72 64
 7.574611 1  275             Rx   d 8 00 00 00 00 00 00 00 00
 7.592980 1  76              Rx   d 8 00 00 1F F7 FC 00 00 F0
 7.604038 1  167             Rx   d 8 00 FF FF 00 00 02 0E 00
 7.612489 1  76              Rx   d 8 00 00 1F F7 FC 00 00 F0
 7.623248 1  3CA             Rx   d 8 04 00 00 00 00 00 00 00
 7.632721 1  76              Rx   d 8 00 00 1F F7 FC 00 00 F0
 7.645581 1  202             Rx   d 8 00 CC 00 00 00 00 00 00
 7.652674 1  76              Rx   d 8 00 00 1F F7 FC 00 00 F0
 7.664033 1  167             Rx   d 8 00 FF FF 00 00 02 0E 00
 7.664648 1  202             Rx   d 8 00 CC 00 00 00 00 00 00
 7.672633 1  48              Rx   d 8 00 00 00 00 07 00 E0 00
 7.672673 1  76              Rx   d 8 00 00 1F F7 FC 00 00 F0
 7.672890 1  20A             Rx   d 8 F1 F8 00 00 00 00 4E 20
 7.693166 1  167             Rx   d 8 00 FF FF 00 00 02 0E 00
 7.712592 1  76              Rx   d 8 00 00 1F F7 FC 00 00 F0
 7.724154 1  202             Rx   d 8 00 CC 00 00 00 00 00 00
 7.742704 1  3CA             Rx   d 8 04 00 00 00 00 00 00 00
 7.763724 1  167             Rx   d 8 00 FF FF 00 00 02 0E 00
 7.774950 1  470             Rx   d 8 00 00 40 00 00 00 00 00
 7.793201 1  167             Rx   d 8 00 FF FF 00 00 02 0E 00
 7.812832 1  76              Rx   d 8 00 00 1F F7 FC 00 00 F0
 7.817768 1  348             Rx   d 8 00 00 00 01 00 00 00 00
 7.824665 1  202             Rx   d 8 00 CC 00 00 00 00 00 00
 7.843524 1  156             Rx   d 8 BA 00 00 00 00 00 00 00
 7.844015 1  166             Rx   d 8 76 00 00 FF FF FF 00 00
 7.845656 1  202             Rx   d 8 00 CC 00 00 00 00 00 00
 7.852579 1  76              Rx   d 8 00 00 1F F7 FC 00 00 F0
 7.862663 1  3CA             Rx   d 8 04 00 00 00 00 00 00 00
 7.863795 1  167             Rx   d 8 00 FF FF 00 00 02 0E 00
 7.864247 1  202             Rx   d 8 00 CC 00 00 00 00 00 00
 7.873101 1  48              Rx   d 8 00 00 00 00 07 00 E0 00
 7.884082 1  167             Rx   d 8 00 FF FF 00 00 02 0E 00
 7.884421 1  202             Rx   d 8 00 CC 00 00 00 00 00 00
 7.903758 1  167             Rx   d 8 00 FF FF 00 00 02 0E 00
 7.923712 1  167             Rx   d 8 00 FF FF 00 00 02 0E 00
 7.932616 1  76              Rx   d 8 00 00 1F F7 FC 00 00 F0
 7.944484 1  171             Rx   d 8 F0 E0 00 00 00 00 00 00
 7.947073 1  421             Rx   d 8 04 00 11 00 00 00 FF 00
 7.957082 1  728             Rx   d 8 04 62 D1 00 03 00 00 00
 7.977028 1  728             Rx   d 8 06 50 01 00 32 01 F4 00
 7.992642 1  76              Rx   d 8 00 00 1F F7 FC 00 00 F0
 8.003734 1  167             Rx   d 8 00 FF FF 00 00 02 0E 00
 8.021097 1  40A             Rx   d 8 C1 00 57 46 30 4A 58 58
 8.032628 1  76              Rx   d 8 00 00 1F F7 FC 00 00 F0
 8.052756 1  76              Rx   d 8 00 00 1F F7 FC 00 00 F0
 8.083829 1  167             Rx   d 8 00 FF FF 00 00 02 0E 00
 8.092952 1  76              Rx   d 8 00 00 1F F7 FC 00 00 F0
 8.102982 1  3CA             Rx   d 8 04 00 00 00 00 00 00 00
 8.123930 1  167             Rx   d 8 00 FF FF 00 00 02 0E 00
 8.152901 1  76              Rx   d 8 00 00 1F F7 FC 00 00 F0
 8.172692 1  48              Rx   d 8 00 00 00 00 07 00 E0 00
 8.183760 1  167             Rx   d 8 00 FF FF 00 00 02 0E 00
 8.203813 1  167             Rx   d 8 00 FF FF 00 00 02 0E 00
 8.219069 1  46B             Rx   d 8 B8 A0 48 00 00 00 D2 09
 8.243505 1  156             Rx   d 8 BA 00 00 00 00 00 00 00
 8.258246 1  46B             Rx   d 8 B7 A0 48 00 00 00 D2 09
 8.272869 1  48              Rx   d 8 00 00 00 00 07 00 E0 00
 8.292759 1  76              Rx   d 8 00 00 1F F7 FC 00 00 F0
 8.303833 1  167             Rx   d 8 00 FF FF 00 00 02 0E 00
 8.323617 1  412             Rx   d 8 7D 00 80 80 00 00 00 00
 8.338372 1  46B             Rx   d 8 B8 A0 48 00 00 00 D2 09
 8.363883 1  167             Rx   d 8 00 FF FF 00 00 02 0E 00
 8.373482 1  167             Rx   d 8 00 FF FF 00 00 02 0E 00
 8.392791 1  76              Rx   d 8 00 00 1F F7 FC 00 00 F0
 8.403656 1  167             Rx   d 8 00 FF FF 00 00 02 0E 00
 8.420882 1  3E0             Rx   d 8 00 00 00 00 80 00 00 00
 8.433225 1  167             Rx   d 8 00 FF FF 00 00 02 0E 00
 8.452760 1  76              Rx   d 8 00 00 1F F7 FC 00 00 F0
 8.472914 1  48              Rx   d 8 00 00 00 00 07 00 E0 00
 8.483752 1  167             Rx   d 8 00 FF FF 00 00 02 0E 00
 8.501501 1  331             Rx   d 8 C0 00 49 0A 04 00 00 00
 8.517468 1  348             Rx   d 8 00 00 00 01 00 00 00 00
 8.543512 1  156             Rx   d 8 BA 00 00 00 00 00 00 00
 8.552861 1  76              Rx   d 8 00 00 1F F7 FC 00 00 F0
 8.573264 1  48              Rx   d 8 00 00 00 00 07 00 E0 00
 8.582942 1  3CA             Rx   d 8 04 00 00 00 00 00 00 00
 8.603859 1  167             Rx   d 8 00 FF FF 00 00 02 0E 00
 8.611112 1  40A             Rx   d 8 C1 04 01 8A 07 54 85 41
 8.614311 1  167             Rx   d 8 00 FF FF 00 00 02 0E 00
 8.614365 1  204             Rx   d 8 00 00 FF 00 00 00 00 00
 8.614375 1  76              Rx   d 8 00 00 1F F7 FC 00 00 F0
 8.617342 1  287             Rx   d 8 00 00 00 00 00 00 00 00
 8.632816 1  76              Rx   d 8 00 00 1F F7 FC 00 00 F0
 8.642984 1  3CA             Rx   d 8 04 00 00 00 00 00 00 00
 8.644119 1  167             Rx   d 8 00 FF FF 00 00 02 0E 00
 8.663716 1  167             Rx   d 8 00 FF FF 00 00 02 0E 00
 8.672998 1  48              Rx   d 8 00 00 00 00 07 00 E0 00
 8.683948 1  167             Rx   d 8 00 FF FF 00 00 02 0E 00
 8.693927 1  204             Rx   d 8 00 00 FF 00 00 00 00 00
 8.709552 1  3B8             Rx   d 8 FF FF FF FF 00 00 00 00
 8.713890 1  20A             Rx   d 8 F1 F8 00 00 00 00 4E 20
 8.732875 1  76              Rx   d 8 00 00 1F F7 FC 00 00 F0
 8.743693 1  156             Rx   d 8 BA 00 00 00 00 00 00 00
 8.753153 1  76              Rx   d 8 00 00 1F F7 FC 00 00 F0
 8.772901 1  48              Rx   d 8 00 00 00 00 07 00 E0 00
 8.783758 1  167             Rx   d 8 00 FF FF 00 00 02 0E 00
 8.803720 1  167             Rx   d 8 00 FF FF 00 00 02 0E 00
 8.813078 1  76              Rx   d 8 00 00 1F F7 FC 00 00 F0
 8.824877 1  42C             Rx   d 8 30 31 C4 80 00 00 00 96
 8.832947 1  76              Rx   d 8 00 00 1F F7 FC 00 00 F0
 8.843971 1  166             Rx   d 8 76 00 00 FF FF FF 00 00
 8.846848 1  421             Rx   d 8 04 00 11 00 00 00 FF 00
 8.853902 1  3CA             Rx   d 8 04 00 00 00 00 00 00 00
 8.863774 1  167             Rx   d 8 00 FF FF 00 00 02 0E 00
 8.864137 1  202             Rx   d 8 00 CC 00 00 00 00 00 00
 8.864406 1  204             Rx   d 8 00 00 FF 00 00 00 00 00
 8.883048 1  3CA             Rx   d 8 04 00 00 00 00 00 00 00
 8.903749 1  167             Rx   d 8 00 FF FF 00 00 02 0E 00
 8.912982 1  76              Rx   d 8 00 00 1F F7 FC 00 00 F0
 8.932937 1  76              Rx   d 8 00 00 1F F7 FC 00 00 F0
 8.943025 1  3CA             Rx   d 8 04 00 00 00 00 00 00 00
 8.944878 1  179             Rx   d 8 00 00 08 00 22 FF 00 00
 8.953495 1  76              Rx   d 8 00 00 1F F7 FC 00 00 F0
 8.953843 1  204             Rx   d 8 00 00 FF 00 00 00 00 00
 8.963722 1  167             Rx   d 8 00 FF FF 00 00 02 0E 00
 8.974164 1  20A             Rx   d 8 F1 F8 00 00 00 00 4E 20
 8.984035 1  167             Rx   d 8 00 FF FF 00 00 02 0E 00
 8.993646 1  171             Rx   d 8 F0 E0 00 00 00 00 00 00
 9.013022 1  76              Rx   d 8 00 00 1F F7 FC 00 00 F0
 9.013660 1  204             Rx   d 8 00 00 FF 00 00 00 00 00
 9.023931 1  167             Rx   d 8 00 FF FF 00 00 02 0E 00
 9.033034 1  76              Rx   d 8 00 00 1F F7 FC 00 00 F0
 9.044907 1  17C             Rx   d 8 00 00 00 00 00 00 00 00
 9.063172 1  3CA             Rx   d 8 04 00 00 00 00 00 00 00
 9.083543 1  46B             Rx   d 8 B7 A0 48 00 00 00 D2 09
 9.094164 1  3CA             Rx   d 8 04 00 00 00 00 00 00 00
 9.113090 1  76              Rx   d 8 00 00 1F F7 FC 00 00 F0
 9.133824 1  76              Rx   d 8 00 00 1F F7 FC 00 00 F0
 9.143487 1  156             Rx   d 8 BA 00 00 00 00 00 00 00
 9.163802 1  167             Rx   d 8 00 FF FF 00 00 02 0E 00
 9.173089 1  48              Rx   d 8 00 00 00 00 07 00 E0 00
 9.193208 1  76              Rx   d 8 00 00 1F F7 FC 00 00 F0
 9.200845 1  38D             Rx   d 8 20 00 00 00 00 00 00 F0
 9.216916 1  287             Rx   d 8 00 00 00 00 00 00 00 00
 9.224219 1  202             Rx   d 8 00 CC 00 00 00 00 00 00
 9.243397 1  3CA             Rx   d 8 04 00 00 00 00 00 00 00
 9.248593 1  3B4             Rx   d 8 34 21 11 FF 1E 1A 00 00
 9.259070 1  3B5             Rx   d 8 FF FD FF FD FF FD FF FD
 9.273797 1  204             Rx   d 8 00 00 FF 00 00 00 00 00
 9.293097 1  76              Rx   d 8 00 00 1F F7 FC 00 00 F0
 9.293785 1  204             Rx   d 8 00 00 FF 00 00 00 00 00
 9.313082 1  76              Rx   d 8 00 00 1F F7 FC 00 00 F0
 9.318152 1  84              Rx   d 8 00 00 00 01 0B 08 0C 00
 9.323239 1  412             Rx   d 8 7D 00 80 80 00 00 00 00
 9.333282 1  76              Rx   d 8 00 00 1F F7 FC 00 00 F0
 9.345695 1  202             Rx   d 8 00 CC 00 00 00 00 00 00
 9.353292 1  167             Rx   d 8 00 FF FF 00 00 02 0E 00
 9.373359 1  48              Rx   d 8 00 00 00 00 07 00 E0 00
 9.373401 1  76              Rx   d 8 00 00 1F F7 FC 00 00 F0
 9.383713 1  167             Rx   d 8 00 FF FF 00 00 02 0E 00
 9.393168 1  76              Rx   d 8 00 00 1F F7 FC 00 00 F0
 9.413696 1  76              Rx   d 8 00 00 1F F7 FC 00 00 F0
 9.423678 1  167             Rx   d 8 00 FF FF 00 00 02 0E 00
 9.443699 1  156             Rx   d 8 BA 00 00 00 00 00 00 00
 9.463761 1  167             Rx   d 8 00 FF FF 00 00 02 0E 00
 9.464143 1  202             Rx   d 8 00 CC 00 00 00 00 00 00
 9.464391 1  204             Rx   d 8 00 00 FF 00 00 00 00 00
 9.473384 1  167             Rx   d 8 00 FF FF 00 00 02 0E 00
 9.473433 1  48              Rx   d 8 00 00 00 00 07 00 E0 00
 9.493180 1  76              Rx   d 8 00 00 1F F7 FC 00 00 F0
 9.493363 1  167             Rx   d 8 00 FF FF 00 00 02 0E 00
 9.493622 1  204             Rx   d 8 00 00 FF 00 00 00 00 00
 9.505149 1  331             Rx   d 8 C0 00 49 0B 04 00 00 00
 9.523693 1  167             Rx   d 8 00 FF FF 00 00 02 0E 00
 9.543268 1  3CA             Rx   d 8 04 00 00 00 00 00 00 00
 9.553508 1  167             Rx   d 8 00 FF FF 00 00 02 0E 00
 9.562905 1  59E             Rx   d 8 9E 00 FF FF FF FF FF FF
 9.563824 1  167             Rx   d 8 00 FF FF 00 00 02 0E 00
 9.574469 1  14C             Rx   d 8 08 00 00 01 00 00 00 00
 9.577296 1  3CA             Rx   d 8 04 00 00 00 00 00 00 00
 9.579337 1  46A             Rx   d 8 00 00 00 88 00 10 C0 00
 9.593195 1  167             Rx   d 8 00 FF FF 00 00 02 0E 00
 9.603348 1  3CA             Rx   d 8 04 00 00 00 00 00 00 00
 9.603615 1  167             Rx   d 8 00 FF FF 00 00 02 0E 00
 9.604100 1  202             Rx   d 8 00 CC 00 00 00 00 00 00
 9.604397 1  204             Rx   d 8 00 00 FF 00 00 00 00 00
 9.613681 1  167             Rx   d 8 00 FF FF 00 00 02 0E 00
 9.613724 1  76              Rx   d 8 00 00 1F F7 FC 00 00 F0
 9.613728 1  204             Rx   d 8 00 00 FF 00 00 00 00 00
 9.624272 1  167             Rx   d 8 00 FF FF 00 00 02 0E 00
 9.624484 1  171             Rx   d 8 F0 E0 00 00 00 00 00 00
 9.633388 1  167             Rx   d 8 00 FF FF 00 00 02 0E 00
 9.633419 1  204             Rx   d 8 00 00 FF 00 00 00 00 00
 9.643445 1  156             Rx   d 8 BA 00 00 00 00 00 00 00
 9.643884 1  166             Rx   d 8 76 00 00 FF FF FF 00 00
 9.644113 1  167             Rx   d 8 00 FF FF 00 00 02 0E 00
 9.644424 1  178             Rx   d 8 00 00 02 00 02 54 CA 53
 9.644867 1  17C             Rx   d 8 00 00 00 00 00 00 00 00
 9.663367 1  3CA             Rx   d 8 04 00 00 00 00 00 00 00
 9.663663 1  167             Rx   d 8 00 FF FF 00 00 02 0E 00
 9.664122 1  202             Rx   d 8 00 CC 00 00 00 00 00 00
 9.664437 1  204             Rx   d 8 00 00 FF 00 00 00 00 00
 9.673249 1  167             Rx   d 8 00 FF FF 00 00 02 0E 00
 9.683953 1  167             Rx   d 8 00 FF FF 00 00 02 0E 00
 9.692581 1  3B8             Rx   d 8 FF FF FF FF 00 00 00 00
 9.713373 1  167             Rx   d 8 00 FF FF 00 00 02 0E 00
 9.723787 1  3CA             Rx   d 8 04 00 00 00 00 00 00 00
 9.743480 1  156             Rx   d 8 BA 00 00 00 00 00 00 00
 9.751169 1  3B5             Rx   d 8 FF FD FF FD FF FD FF FD
 9.764004 1  167             Rx   d 8 00 FF FF 00 00 02 0E 00
 9.783505 1  3CA             Rx   d 8 04 00 00 00 00 00 00 00
 9.783719 1  167             Rx   d 8 00 FF FF 00 00 02 0E 00
 9.793235 1  167             Rx   d 8 00 FF FF 00 00 02 0E 00
 9.813233 1  167             Rx   d 8 00 FF FF 00 00 02 0E 00
 9.817262 1  30A             Rx   d 8 85 00 00 00 00 00 00 00
 9.833766 1  167             Rx   d 8 00 FF FF 00 00 02 0E 00
 9.843842 1  166             Rx   d 8 76 00 00 FF FF FF 00 00
 9.863744 1  167             Rx   d 8 00 FF FF 00 00 02 0E 00
 9.873215 1  167             Rx   d 8 00 FF FF 00 00 02 0E 00
 9.883720 1  167             Rx   d 8 00 FF FF 00 00 02 0E 00
 9.894276 1  20A             Rx   d 8 F1 F8 00 00 00 00 4E 20
 9.913260 1  167             Rx   d 8 00 FF FF 00 00 02 0E 00
 9.933770 1  167             Rx   d 8 00 FF FF 00 00 02 0E 00
 9.943471 1  156             Rx   d 8 BA 00 00 00 00 00 00 00
 9.963654 1  3CA             Rx   d 8 04 00 00 00 00 00 00 00
 9.973230 1  167             Rx   d 8 00 FF FF 00 00 02 0E 00
 9.983746 1  167             Rx   d 8 00 FF FF 00 00 02 0E 00
 9.993262 1  167             Rx   d 8 00 FF FF 00 00 02 0E 00
 10.013273 1  167             Rx   d 8 00 FF FF 00 00 02 0E 00
 10.018480 1  430             Rx   d 8 48 00 40 9B 00 20 64 00
 10.033696 1  167             Rx   d 8 00 FF FF 00 00 02 0E 00
 10.053477 1  167             Rx   d 8 00 FF FF 00 00 02 0E 00
 10.064019 1  167             Rx   d 8 00 FF FF 00 00 02 0E 00
 10.064491 1  202             Rx   d 8 00 CC 00 00 00 00 00 00
 10.073757 1  167             Rx   d 8 00 FF FF 00 00 02 0E 00
 10.093465 1  167             Rx   d 8 00 FF FF 00 00 02 0E 00
 10.093494 1  204             Rx   d 8 00 00 FF 00 00 00 00 00
 10.103984 1  167             Rx   d 8 00 FF FF 00 00 02 0E 00
 10.104032 1  171             Rx   d 8 F0 E0 00 00 00 00 00 00
 10.104883 1  202             Rx   d 8 00 CC 00 00 00 00 00 00
 10.109694 1  46B             Rx   d 8 B8 A0 48 00 00 00 D2 09
 10.124016 1  412             Rx   d 8 7D 00 80 80 00 00 00 00
 10.143611 1  156             Rx   d 8 BA 00 00 00 00 00 00 00
 10.163950 1  167             Rx   d 8 00 FF FF 00 00 02 0E 00
 10.164010 1  171             Rx   d 8 F0 E0 00 00 00 00 00 00
 10.164649 1  202             Rx   d 8 00 CC 00 00 00 00 00 00
 10.193245 1  167             Rx   d 8 00 FF FF 00 00 02 0E 00
 10.193432 1  171             Rx   d 8 F0 E0 00 00 00 00 00 00
 10.203547 1  3CA             Rx   d 8 04 00 00 00 00 00 00 00
 10.213207 1  167             Rx   d 8 00 FF FF 00 00 02 0E 00
 10.213394 1  204             Rx   d 8 00 00 FF 00 00 00 00 00
 10.224465 1  202             Rx   d 8 00 CC 00 00 00 00 00 00
 10.241605 1  3B5             Rx   d 8 FF FD FF FD FF FD FF FD
 10.253152 1  167             Rx   d 8 00 FF FF 00 00 02 0E 00
 10.273567 1  167             Rx   d 8 00 FF FF 00 00 02 0E 00
 10.281770 1  3B2             Rx   d 8 44 8C C0 0C E6 00 03 3E
 10.303803 1  167             Rx   d 8 00 FF FF 00 00 02 0E 00
 10.313350 1  167             Rx   d 8 00 FF FF 00 00 02 0E 00
 10.324923 1  42C             Rx   d 8 30 31 C4 80 00 00 00 97
 10.333680 1  167             Rx   d 8 00 FF FF 00 00 02 0E 00
 10.347004 1  42D             Rx   d 8 00 03 FF 00 00 00 F0 00
 10.363802 1  167             Rx   d 8 00 FF FF 00 00 02 0E 00
 10.364368 1  202             Rx   d 8 00 CC 00 00 00 00 00 00
 10.374051 1  167             Rx   d 8 00 FF FF 00 00 02 0E 00
 10.374108 1  171             Rx   d 8 F0 E0 00 00 00 00 00 00
 10.380642 1  40A             Rx   d 8 C1 00 57 46 30 4A 58 58
 10.393403 1  167             Rx   d 8 00 FF FF 00 00 02 0E 00
 10.393434 1  204             Rx   d 8 00 00 FF 00 00 00 00 00
 10.393910 1  76              Rx   d 8 00 00 1F F7 FC 00 00 F0
 10.403872 1  167             Rx   d 8 00 FF FF 00 00 02 0E 00
 10.403907 1  171             Rx   d 8 F0 E0 00 00 00 00 00 00
 10.404393 1  202             Rx   d 8 00 CC 00 00 00 00 00 00
 10.404600 1  204             Rx   d 8 00 00 FF 00 00 00 00 00
 10.413474 1  167             Rx   d 8 00 FF FF 00 00 02 0E 00
 10.413516 1  204             Rx   d 8 00 00 FF 00 00 00 00 00
 10.413838 1  76              Rx   d 8 00 00 1F F7 FC 00 00 F0
 10.420098 1  350             Rx   d 8 40 00 00 00 00 00 00 00
 10.433235 1  167             Rx   d 8 00 FF FF 00 00 02 0E 00
 10.433380 1  171             Rx   d 8 F0 E0 00 00 00 00 00 00
 10.433647 1  204             Rx   d 8 00 00 FF 00 00 00 00 00
 10.433916 1  76              Rx   d 8 00 00 1F F7 FC 00 00 F0
 10.443478 1  156             Rx   d 8 BA 00 00 00 00 00 00 00
 10.443788 1  3CA             Rx   d 8 04 00 00 00 00 00 00 00
 10.443933 1  166             Rx   d 8 76 00 00 FF FF FF 00 00
 10.444256 1  167             Rx   d 8 00 FF FF 00 00 02 0E 00
 10.453668 1  167             Rx   d 8 00 FF FF 00 00 02 0E 00
 10.453726 1  204             Rx   d 8 00 00 FF 00 00 00 00 00
 10.454185 1  76              Rx   d 8 00 00 1F F7 FC 00 00 F0
 10.464122 1  167             Rx   d 8 00 FF FF 00 00 02 0E 00
 10.473365 1  167             Rx   d 8 00 FF FF 00 00 02 0E 00
 10.473394 1  204             Rx   d 8 00 00 FF 00 00 00 00 00
 10.473842 1  48              Rx   d 8 00 00 00 00 07 00 E0 00
 10.483722 1  167             Rx   d 8 00 FF FF 00 00 02 0E 00
 10.484218 1  202             Rx   d 8 00 CC 00 00 00 00 00 00
 10.484375 1  204             Rx   d 8 00 00 FF 00 00 00 00 00
 10.493772 1  167             Rx   d 8 00 FF FF 00 00 02 0E 00
 10.493814 1  171             Rx   d 8 F0 E0 00 00 00 00 00 00
 10.493819 1  204             Rx   d 8 00 00 FF 00 00 00 00 00
 10.503733 1  167             Rx   d 8 00 FF FF 00 00 02 0E 00
 10.503874 1  3CA             Rx   d 8 04 00 00 00 00 00 00 00
 10.504116 1  202             Rx   d 8 00 CC 00 00 00 00 00 00
 10.524124 1  167             Rx   d 8 00 FF FF 00 00 02 0E 00
 10.533668 1  167             Rx   d 8 00 FF FF 00 00 02 0E 00
 10.553183 1  167             Rx   d 8 00 FF FF 00 00 02 0E 00
 10.573240 1  167             Rx   d 8 00 FF FF 00 00 02 0E 00
 10.584432 1  202             Rx   d 8 00 CC 00 00 00 00 00 00
 10.593452 1  167             Rx   d 8 00 FF FF 00 00 02 0E 00
 10.593982 1  76              Rx   d 8 00 00 1F F7 FC 00 00 F0
 10.603773 1  167             Rx   d 8 00 FF FF 00 00 02 0E 00
 10.604521 1  202             Rx   d 8 00 CC 00 00 00 00 00 00
 10.616865 1  287             Rx   d 8 00 00 00 00 00 00 00 00
 10.643411 1  156             Rx   d 8 BA 00 00 00 00 00 00 00
 10.653223 1  167             Rx   d 8 00 FF FF 00 00 02 0E 00
 10.673531 1  167             Rx   d 8 00 FF FF 00 00 02 0E 00
 10.683708 1  167             Rx   d 8 00 FF FF 00 00 02 0E 00
 10.703879 1  167             Rx   d 8 00 FF FF 00 00 02 0E 00
 10.713252 1  167             Rx   d 8 00 FF FF 00 00 02 0E 00
 10.733474 1  167             Rx   d 8 00 FF FF 00 00 02 0E 00
 10.743986 1  166             Rx   d 8 76 00 00 FF FF FF 00 00
 10.745614 1  204             Rx   d 8 00 00 FF 00 00 00 00 00
 10.753412 1  167             Rx   d 8 00 FF FF 00 00 02 0E 00
 10.764462 1  202             Rx   d 8 00 CC 00 00 00 00 00 00
 10.773602 1  167             Rx   d 8 00 FF FF 00 00 02 0E 00
 10.793207 1  167             Rx   d 8 00 FF FF 00 00 02 0E 00
 10.793342 1  171             Rx   d 8 F0 E0 00 00 00 00 00 00
 10.793603 1  204             Rx   d 8 00 00 FF 00 00 00 00 00
 10.794287 1  20A             Rx   d 8 F1 F8 00 00 00 00 4E 20
 10.813714 1  167             Rx   d 8 00 FF FF 00 00 02 0E 00
 10.816710 1  287             Rx   d 8 00 00 00 00 00 00 00 00
 10.833395 1  167             Rx   d 8 00 FF FF 00 00 02 0E 00
 10.833985 1  76              Rx   d 8 00 00 1F F7 FC 00 00 F0
 10.843466 1  156             Rx   d 8 BA 00 00 00 00 00 00 00
 10.863738 1  167             Rx   d 8 00 FF FF 00 00 02 0E 00
 10.864034 1  3CA             Rx   d 8 04 00 00 00 00 00 00 00
 10.864277 1  202             Rx   d 8 00 CC 00 00 00 00 00 00
 10.864519 1  204             Rx   d 8 00 00 FF 00 00 00 00 00
 10.873372 1  167             Rx   d 8 00 FF FF 00 00 02 0E 00
 10.884608 1  204             Rx   d 8 00 00 FF 00 00 00 00 00
 10.903716 1  167             Rx   d 8 00 FF FF 00 00 02 0E 00
 10.914082 1  76              Rx   d 8 00 00 1F F7 FC 00 00 F0
 10.933236 1  167             Rx   d 8 00 FF FF 00 00 02 0E 00
 10.943521 1  156             Rx   d 8 BA 00 00 00 00 00 00 00
 10.953547 1  167             Rx   d 8 00 FF FF 00 00 02 0E 00
 10.963693 1  167             Rx   d 8 00 FF FF 00 00 02 0E 00
 10.983914 1  167             Rx   d 8 00 FF FF 00 00 02 0E 00
 11.003691 1  167             Rx   d 8 00 FF FF 00 00 02 0E 00
 11.014337 1  76              Rx   d 8 00 00 1F F7 FC 00 00 F0
 11.023708 1  167             Rx   d 8 00 FF FF 00 00 02 0E 00
 11.043499 1  156             Rx   d 8 BA 00 00 00 00 00 00 00
 11.053724 1  167             Rx   d 8 00 FF FF 00 00 02 0E 00
 11.073200 1  167             Rx   d 8 00 FF FF 00 00 02 0E 00
 11.083802 1  167             Rx   d 8 00 FF FF 00 00 02 0E 00
 11.103723 1  167             Rx   d 8 00 FF FF 00 00 02 0E 00
 11.113418 1  167             Rx   d 8 00 FF FF 00 00 02 0E 00
 11.129606 1  46B             Rx   d 8 B7 A0 48 00 00 00 D2 09
 11.143518 1  156             Rx   d 8 BA 00 00 00 00 00 00 00
 11.145394 1  202             Rx   d 8 00 CC 00 00 00 00 00 00
 11.153459 1  167             Rx   d 8 00 FF FF 00 00 02 0E 00
 11.163678 1  167             Rx   d 8 00 FF FF 00 00 02 0E 00
 11.183945 1  167             Rx   d 8 00 FF FF 00 00 02 0E 00
 11.193259 1  167             Rx   d 8 00 FF FF 00 00 02 0E 00
 11.194424 1  76              Rx   d 8 00 00 1F F7 FC 00 00 F0
 11.213237 1  167             Rx   d 8 00 FF FF 00 00 02 0E 00
 11.224453 1  204             Rx   d 8 00 00 FF 00 00 00 00 00
 11.243437 1  156             Rx   d 8 BA 00 00 00 00 00 00 00
 11.253517 1  167             Rx   d 8 00 FF FF 00 00 02 0E 00
 11.273207 1  167             Rx   d 8 00 FF FF 00 00 02 0E 00
 11.283780 1  167             Rx   d 8 00 FF FF 00 00 02 0E 00
 11.294676 1  76              Rx   d 8 00 00 1F F7 FC 00 00 F0
 11.313236 1  167             Rx   d 8 00 FF FF 00 00 02 0E 00
 11.324264 1  84              Rx   d 8 00 00 00 01 0B 0A 0C 00
 11.333246 1  167             Rx   d 8 00 FF FF 00 00 02 0E 00
 11.334256 1  76              Rx   d 8 00 00 1F F7 FC 00 00 F0
 11.346030 1  421             Rx   d 8 04 00 11 00 00 00 FF 00
 11.364141 1  167             Rx   d 8 00 FF FF 00 00 02 0E 00
 11.364190 1  171             Rx   d 8 F0 E0 00 00 00 00 00 00
 11.383689 1  167             Rx   d 8 00 FF FF 00 00 02 0E 00
 11.403705 1  167             Rx   d 8 00 FF FF 00 00 02 0E 00
 11.413196 1  167             Rx   d 8 00 FF FF 00 00 02 0E 00
 11.433542 1  167             Rx   d 8 00 FF FF 00 00 02 0E 00
 11.433597 1  204             Rx   d 8 00 00 FF 00 00 00 00 00
 11.443435 1  156             Rx   d 8 BA 00 00 00 00 00 00 00
 11.444848 1  17C             Rx   d 8 00 00 00 00 00 00 00 00
 11.453200 1  167             Rx   d 8 00 FF FF 00 00 02 0E 00
 11.464215 1  167             Rx   d 8 00 FF FF 00 00 02 0E 00
 11.473232 1  167             Rx   d 8 00 FF FF 00 00 02 0E 00
 11.483690 1  167             Rx   d 8 00 FF FF 00 00 02 0E 00
 11.493649 1  167             Rx   d 8 00 FF FF 00 00 02 0E 00
 11.493688 1  204             Rx   d 8 00 00 FF 00 00 00 00 00
 11.503907 1  167             Rx   d 8 00 FF FF 00 00 02 0E 00
 11.523711 1  167             Rx   d 8 00 FF FF 00 00 02 0E 00
 11.524914 1  3CA             Rx   d 8 04 00 00 00 00 00 00 00
 11.533760 1  167             Rx   d 8 00 FF FF 00 00 02 0E 00
 11.543468 1  156             Rx   d 8 BA 00 00 00 00 00 00 00
 11.546811 1  42D             Rx   d 8 00 03 FF 00 00 00 F0 00
 11.553374 1  167             Rx   d 8 00 FF FF 00 00 02 0E 00
 11.554375 1  20A             Rx   d 8 F1 F8 00 00 00 00 4E 20
 11.563773 1  59E             Rx   d 8 9E 00 FF FF FF FF FF FF
 11.574593 1  48              Rx   d 8 00 00 00 00 07 00 E0 00
 11.593189 1  167             Rx   d 8 00 FF FF 00 00 02 0E 00
 11.603735 1  167             Rx   d 8 00 FF FF 00 00 02 0E 00
 11.623685 1  167             Rx   d 8 00 FF FF 00 00 02 0E 00
 11.643667 1  156             Rx   d 8 BA 00 00 00 00 00 00 00
 11.663721 1  167             Rx   d 8 00 FF FF 00 00 02 0E 00
 11.683688 1  167             Rx   d 8 00 FF FF 00 00 02 0E 00
 11.703802 1  167             Rx   d 8 00 FF FF 00 00 02 0E 00
 11.723664 1  167             Rx   d 8 00 FF FF 00 00 02 0E 00
 11.743545 1  156             Rx   d 8 BA 00 00 00 00 00 00 00
 11.763723 1  167             Rx   d 8 00 FF FF 00 00 02 0E 00
 11.773482 1  167             Rx   d 8 00 FF FF 00 00 02 0E 00
 11.793172 1  167             Rx   d 8 00 FF FF 00 00 02 0E 00
 11.813410 1  167             Rx   d 8 00 FF FF 00 00 02 0E 00
 11.824083 1  202             Rx   d 8 00 CC 00 00 00 00 00 00
 11.843472 1  156             Rx   d 8 BA 00 00 00 00 00 00 00
 11.863742 1  167             Rx   d 8 00 FF FF 00 00 02 0E 00
 11.864170 1  202             Rx   d 8 00 CC 00 00 00 00 00 00
 11.864437 1  204             Rx   d 8 00 00 FF 00 00 00 00 00
 11.873249 1  167             Rx   d 8 00 FF FF 00 00 02 0E 00
 11.873473 1  171             Rx   d 8 F0 E0 00 00 00 00 00 00
 11.873625 1  204             Rx   d 8 00 00 FF 00 00 00 00 00
 11.874899 1  48              Rx   d 8 00 00 00 00 07 00 E0 00
 11.874935 1  76              Rx   d 8 00 00 1F F7 FC 00 00 F0
 11.875212 1  20A             Rx   d 8 F1 F8 00 00 00 00 4E 20
 11.875390 1  412             Rx   d 8 7D 00 80 80 00 00 00 00
 11.875673 1  42F             Rx   d 8 7D 02 05 4E 26 0B 00 00
 11.875914 1  433             Rx   d 8 C0 00 00 00 00 A0 00 00
 11.883738 1  167             Rx   d 8 00 FF FF 00 00 02 0E 00
 11.893191 1  167             Rx   d 8 00 FF FF 00 00 02 0E 00
 11.913551 1  167             Rx   d 8 00 FF FF 00 00 02 0E 00
 11.933250 1  167             Rx   d 8 00 FF FF 00 00 02 0E 00
 11.945185 1  17C             Rx   d 8 00 00 00 00 00 00 00 00
 11.963710 1  167             Rx   d 8 00 FF FF 00 00 02 0E 00
 11.973243 1  167             Rx   d 8 00 FF FF 00 00 02 0E 00
 11.993760 1  167             Rx   d 8 00 FF FF 00 00 02 0E 00
 12.013222 1  167             Rx   d 8 00 FF FF 00 00 02 0E 00
 12.023803 1  167             Rx   d 8 00 FF FF 00 00 02 0E 00
 12.043427 1  156             Rx   d 8 BA 00 00 00 00 00 00 00
 12.063907 1  167             Rx   d 8 00 FF FF 00 00 02 0E 00
 12.083736 1  167             Rx   d 8 00 FF FF 00 00 02 0E 00
 12.103687 1  167             Rx   d 8 00 FF FF 00 00 02 0E 00
 12.113228 1  167             Rx   d 8 00 FF FF 00 00 02 0E 00
 12.133417 1  167             Rx   d 8 00 FF FF 00 00 02 0E 00
 12.149883 1  38D             Rx   d 8 20 00 00 00 00 00 00 F0
 12.163793 1  167             Rx   d 8 00 FF FF 00 00 02 0E 00
 12.183725 1  167             Rx   d 8 00 FF FF 00 00 02 0E 00
 12.197743 1  3B4             Rx   d 8 34 21 11 FF 1E 1A 00 00
 12.214560 1  20A             Rx   d 8 F1 F8 00 00 00 00 4E 20
 12.233354 1  167             Rx   d 8 00 FF FF 00 00 02 0E 00
 12.253226 1  167             Rx   d 8 00 FF FF 00 00 02 0E 00
 12.273398 1  167             Rx   d 8 00 FF FF 00 00 02 0E 00
 12.283677 1  167             Rx   d 8 00 FF FF 00 00 02 0E 00
 12.293214 1  167             Rx   d 8 00 FF FF 00 00 02 0E 00
 12.313258 1  167             Rx   d 8 00 FF FF 00 00 02 0E 00
 12.333249 1  167             Rx   d 8 00 FF FF 00 00 02 0E 00
 12.344656 1  179             Rx   d 8 00 00 08 00 22 FF 00 00
 12.363690 1  167             Rx   d 8 00 FF FF 00 00 02 0E 00
 12.384006 1  167             Rx   d 8 00 FF FF 00 00 02 0E 00
 12.403728 1  167             Rx   d 8 00 FF FF 00 00 02 0E 00
 12.416935 1  18B             Rx   d 8 00 00 00 1E 00 00 00 00
 12.443463 1  156             Rx   d 8 BA 00 00 00 00 00 00 00
 12.463939 1  167             Rx   d 8 00 FF FF 00 00 02 0E 00
 12.483755 1  167             Rx   d 8 00 FF FF 00 00 02 0E 00
 12.503874 1  167             Rx   d 8 00 FF FF 00 00 02 0E 00
 12.512126 1  331             Rx   d 8 C0 00 49 0E 04 00 00 00
 12.523744 1  167             Rx   d 8 00 FF FF 00 00 02 0E 00
 12.542852 1  40A             Rx   d 8 C0 00 00 23 61 26 85 00
 12.553350 1  167             Rx   d 8 00 FF FF 00 00 02 0E 00
 12.573191 1  167             Rx   d 8 00 FF FF 00 00 02 0E 00
 12.577389 1  3A8             Rx   d 8 06 00 00 00 00 00 00 00
 12.595245 1  76              Rx   d 8 00 00 1F F7 FC 00 00 F0
 12.613176 1  167             Rx   d 8 00 FF FF 00 00 02 0E 00
 12.624068 1  167             Rx   d 8 00 FF FF 00 00 02 0E 00
 12.624138 1  171             Rx   d 8 F0 E0 00 00 00 00 00 00
 12.624848 1  202             Rx   d 8 00 CC 00 00 00 00 00 00
 12.625787 1  412             Rx   d 8 7D 00 80 80 00 00 00 00
 12.633443 1  167             Rx   d 8 00 FF FF 00 00 02 0E 00
 12.633474 1  204             Rx   d 8 00 00 FF 00 00 00 00 00
 12.634530 1  76              Rx   d 8 00 00 1F F7 FC 00 00 F0
 12.634718 1  20A             Rx   d 8 F1 F8 00 00 00 00 4E 20
 12.645345 1  202             Rx   d 8 00 CC 00 00 00 00 00 00
 12.653740 1  167             Rx   d 8 00 FF FF 00 00 02 0E 00
 12.664199 1  167             Rx   d 8 00 FF FF 00 00 02 0E 00
 12.664258 1  202             Rx   d 8 00 CC 00 00 00 00 00 00
 12.664684 1  204             Rx   d 8 00 00 FF 00 00 00 00 00
 12.675674 1  42F             Rx   d 8 7D 02 05 4E 26 0B 00 00
 12.693511 1  167             Rx   d 8 00 FF FF 00 00 02 0E 00
 12.703954 1  167             Rx   d 8 00 FF FF 00 00 02 0E 00
 12.713210 1  167             Rx   d 8 00 FF FF 00 00 02 0E 00
 12.725127 1  3CA             Rx   d 8 04 00 00 00 00 00 00 00
 12.739660 1  3B2             Rx   d 8 44 8C C0 0C E6 00 03 3E
 12.754551 1  76              Rx   d 8 00 00 1F F7 FC 00 00 F0
 12.773369 1  167             Rx   d 8 00 FF FF 00 00 02 0E 00
 12.793183 1  167             Rx   d 8 00 FF FF 00 00 02 0E 00
 12.803839 1  167             Rx   d 8 00 FF FF 00 00 02 0E 00
 12.813231 1  167             Rx   d 8 00 FF FF 00 00 02 0E 00
 12.833476 1  167             Rx   d 8 00 FF FF 00 00 02 0E 00
 12.843628 1  156             Rx   d 8 BA 00 00 00 00 00 00 00
 12.853188 1  167             Rx   d 8 00 FF FF 00 00 02 0E 00
 12.864598 1  204             Rx   d 8 00 00 FF 00 00 00 00 00
 12.883678 1  167             Rx   d 8 00 FF FF 00 00 02 0E 00
 12.893200 1  167             Rx   d 8 00 FF FF 00 00 02 0E 00
 12.913691 1  167             Rx   d 8 00 FF FF 00 00 02 0E 00
 12.914832 1  76              Rx   d 8 00 00 1F F7 FC 00 00 F0
 12.933211 1  167             Rx   d 8 00 FF FF 00 00 02 0E 00
 12.945011 1  167             Rx   d 8 00 FF FF 00 00 02 0E 00
 12.963750 1  167             Rx   d 8 00 FF FF 00 00 02 0E 00
 12.973500 1  167             Rx   d 8 00 FF FF 00 00 02 0E 00
 12.993200 1  167             Rx   d 8 00 FF FF 00 00 02 0E 00
 12.994737 1  76              Rx   d 8 00 00 1F F7 FC 00 00 F0
 13.003709 1  167             Rx   d 8 00 FF FF 00 00 02 0E 00
 13.004101 1  202             Rx   d 8 00 CC 00 00 00 00 00 00
 13.004330 1  204             Rx   d 8 00 00 FF 00 00 00 00 00
 13.013799 1  167             Rx   d 8 00 FF FF 00 00 02 0E 00
 13.013863 1  171             Rx   d 8 F0 E0 00 00 00 00 00 00
 13.013874 1  204             Rx   d 8 00 00 FF 00 00 00 00 00
 13.015279 1  76              Rx   d 8 00 00 1F F7 FC 00 00 F0
 13.015380 1  20A             Rx   d 8 F1 F8 00 00 00 00 4E 20
 13.015511 1  46B             Rx   d 8 B7 A0 48 00 00 00 D2 09
 13.016787 1  287             Rx   d 8 00 00 00 00 00 00 00 00
 13.016978 1  30A             Rx   d 8 85 00 00 00 00 00 00 00
 13.017231 1  318             Rx   d 8 00 00 00 00 00 00 00 00
 13.017483 1  346             Rx   d 8 00 00 00 03 03 00 C0 00
 13.017792 1  348             Rx   d 8 00 00 00 01 00 00 00 00
 13.018005 1  430             Rx   d 8 48 00 40 9B 00 20 64 00
 13.018288 1  434             Rx   d 8 40 00 70 00 20 4D 28 00
 13.023686 1  167             Rx   d 8 00 FF FF 00 00 02 0E 00
 13.043453 1  156             Rx   d 8 BA 00 00 00 00 00 00 00
 13.063678 1  167             Rx   d 8 00 FF FF 00 00 02 0E 00
 13.083779 1  167             Rx   d 8 00 FF FF 00 00 02 0E 00
 13.093474 1  167             Rx   d 8 00 FF FF 00 00 02 0E 00
 13.113384 1  167             Rx   d 8 00 FF FF 00 00 02 0E 00
 13.132833 1  38D             Rx   d 8 20 00 00 00 00 00 00 F0
 13.143432 1  156             Rx   d 8 BA 00 00 00 00 00 00 00
 13.163691 1  167             Rx   d 8 00 FF FF 00 00 02 0E 00
 13.173215 1  167             Rx   d 8 00 FF FF 00 00 02 0E 00
 13.183818 1  167             Rx   d 8 00 FF FF 00 00 02 0E 00
 13.203691 1  167             Rx   d 8 00 FF FF 00 00 02 0E 00
 13.223883 1  167             Rx   d 8 00 FF FF 00 00 02 0E 00
 13.243435 1  156             Rx   d 8 BA 00 00 00 00 00 00 00
 13.253461 1  167             Rx   d 8 00 FF FF 00 00 02 0E 00
 13.273164 1  167             Rx   d 8 00 FF FF 00 00 02 0E 00
 13.293343 1  167             Rx   d 8 00 FF FF 00 00 02 0E 00
 13.313208 1  167             Rx   d 8 00 FF FF 00 00 02 0E 00
 13.329427 1  40A             Rx   d 8 C1 04 01 8A 07 54 85 41
 13.343440 1  156             Rx   d 8 BA 00 00 00 00 00 00 00
 13.353183 1  167             Rx   d 8 00 FF FF 00 00 02 0E 00
 13.373202 1  167             Rx   d 8 00 FF FF 00 00 02 0E 00
 13.393242 1  167             Rx   d 8 00 FF FF 00 00 02 0E 00
 13.403711 1  167             Rx   d 8 00 FF FF 00 00 02 0E 00
 13.419839 1  350             Rx   d 8 40 00 00 00 00 00 00 00
 13.443397 1  156             Rx   d 8 BA 00 00 00 00 00 00 00
 13.463859 1  167             Rx   d 8 00 FF FF 00 00 02 0E 00
 13.473364 1  167             Rx   d 8 00 FF FF 00 00 02 0E 00
 13.474777 1  48              Rx   d 8 00 00 00 00 07 00 E0 00
 13.503929 1  167             Rx   d 8 00 FF FF 00 00 02 0E 00
 13.504199 1  202             Rx   d 8 00 CC 00 00 00 00 00 00
 13.513182 1  167             Rx   d 8 00 FF FF 00 00 02 0E 00
 13.533468 1  167             Rx   d 8 00 FF FF 00 00 02 0E 00
 13.553180 1  167             Rx   d 8 00 FF FF 00 00 02 0E 00
 13.573543 1  167             Rx   d 8 00 FF FF 00 00 02 0E 00
 13.573585 1  204             Rx   d 8 00 00 FF 00 00 00 00 00
 13.576791 1  48              Rx   d 8 00 00 00 00 07 00 E0 00
 13.578182 1  279             Rx   d 8 00 50 00 3C A8 96 01 00
 13.593192 1  167             Rx   d 8 00 FF FF 00 00 02 0E 00
 13.593329 1  204             Rx   d 8 00 00 FF 00 00 00 00 00
 13.603856 1  167             Rx   d 8 00 FF FF 00 00 02 0E 00
 13.604446 1  202             Rx   d 8 00 CC 00 00 00 00 00 00
 13.604605 1  204             Rx   d 8 00 00 FF 00 00 00 00 00
 13.605931 1  46B             Rx   d 8 B8 A0 48 00 00 00 D2 09
 13.623896 1  167             Rx   d 8 00 FF FF 00 00 02 0E 00
 13.643549 1  156             Rx   d 8 BA 00 00 00 00 00 00 00
 13.663730 1  167             Rx   d 8 00 FF FF 00 00 02 0E 00
 13.676289 1  38A             Rx   d 8 4E 00 00 01 00 46 00 00
 13.694945 1  76              Rx   d 8 00 00 1F F7 FC 00 00 F0
 13.713213 1  167             Rx   d 8 00 FF FF 00 00 02 0E 00
 13.733182 1  167             Rx   d 8 00 FF FF 00 00 02 0E 00
 13.753181 1  167             Rx   d 8 00 FF FF 00 00 02 0E 00
 13.773528 1  167             Rx   d 8 00 FF FF 00 00 02 0E 00
 13.793149 1  167             Rx   d 8 00 FF FF 00 00 02 0E 00
 13.816790 1  287             Rx   d 8 00 00 00 00 00 00 00 00
 13.834940 1  76              Rx   d 8 00 00 1F F7 FC 00 00 F0
 13.853666 1  167             Rx   d 8 00 FF FF 00 00 02 0E 00
 13.873207 1  167             Rx   d 8 00 FF FF 00 00 02 0E 00
 13.893175 1  167             Rx   d 8 00 FF FF 00 00 02 0E 00
 13.903698 1  167             Rx   d 8 00 FF FF 00 00 02 0E 00
 13.923929 1  167             Rx   d 8 00 FF FF 00 00 02 0E 00
 13.943457 1  156             Rx   d 8 BA 00 00 00 00 00 00 00
 13.960135 1  46B             Rx   d 8 B8 A0 48 00 00 00 D2 09
 13.973212 1  167             Rx   d 8 00 FF FF 00 00 02 0E 00
 13.993468 1  167             Rx   d 8 00 FF FF 00 00 02 0E 00
 14.013399 1  167             Rx   d 8 00 FF FF 00 00 02 0E 00
 14.033205 1  167             Rx   d 8 00 FF FF 00 00 02 0E 00
 14.044806 1  17C             Rx   d 8 00 00 00 00 00 00 00 00
 14.063678 1  167             Rx   d 8 00 FF FF 00 00 02 0E 00
 14.083813 1  167             Rx   d 8 00 FF FF 00 00 02 0E 00
 14.093703 1  167             Rx   d 8 00 FF FF 00 00 02 0E 00
 14.113168 1  167             Rx   d 8 00 FF FF 00 00 02 0E 00
 14.133186 1  167             Rx   d 8 00 FF FF 00 00 02 0E 00
 14.153441 1  167             Rx   d 8 00 FF FF 00 00 02 0E 00
 14.163847 1  167             Rx   d 8 00 FF FF 00 00 02 0E 00
 14.183676 1  167             Rx   d 8 00 FF FF 00 00 02 0E 00
 14.203671 1  167             Rx   d 8 00 FF FF 00 00 02 0E 00
 14.216729 1  287             Rx   d 8 00 00 00 00 00 00 00 00
 14.235390 1  76              Rx   d 8 00 00 1F F7 FC 00 00 F0
 14.253192 1  167             Rx   d 8 00 FF FF 00 00 02 0E 00
 14.273181 1  167             Rx   d 8 00 FF FF 00 00 02 0E 00
 14.283652 1  167             Rx   d 8 00 FF FF 00 00 02 0E 00
 14.303699 1  167             Rx   d 8 00 FF FF 00 00 02 0E 00
 14.312441 1  40A             Rx   d 8 C1 02 32 38 38 33 36 00
 14.333692 1  167             Rx   d 8 00 FF FF 00 00 02 0E 00
 14.345335 1  202             Rx   d 8 00 CC 00 00 00 00 00 00
 14.364031 1  167             Rx   d 8 00 FF FF 00 00 02 0E 00
 14.383690 1  167             Rx   d 8 00 FF FF 00 00 02 0E 00
 14.403893 1  167             Rx   d 8 00 FF FF 00 00 02 0E 00
 14.419515 1  348             Rx   d 8 00 00 00 01 00 00 00 00
 14.443409 1  156             Rx   d 8 BA 00 00 00 00 00 00 00
 14.463784 1  167             Rx   d 8 00 FF FF 00 00 02 0E 00
 14.473399 1  167             Rx   d 8 00 FF FF 00 00 02 0E 00
 14.493186 1  167             Rx   d 8 00 FF FF 00 00 02 0E 00
 14.503767 1  167             Rx   d 8 00 FF FF 00 00 02 0E 00
 14.523664 1  167             Rx   d 8 00 FF FF 00 00 02 0E 00
 14.543515 1  156             Rx   d 8 BA 00 00 00 00 00 00 00
 14.563679 1  167             Rx   d 8 00 FF FF 00 00 02 0E 00
 14.573356 1  167             Rx   d 8 00 FF FF 00 00 02 0E 00
 14.593192 1  167             Rx   d 8 00 FF FF 00 00 02 0E 00
 14.593331 1  204             Rx   d 8 00 00 FF 00 00 00 00 00
 14.595343 1  76              Rx   d 8 00 00 1F F7 FC 00 00 F0
 14.595490 1  20A             Rx   d 8 F1 F8 00 00 00 00 4E 20
 14.603870 1  167             Rx   d 8 00 FF FF 00 00 02 0E 00
 14.603914 1  171             Rx   d 8 F0 E0 00 00 00 00 00 00
 14.604391 1  202             Rx   d 8 00 CC 00 00 00 00 00 00
 14.604569 1  204             Rx   d 8 00 00 FF 00 00 00 00 00
 14.607458 1  3B8             Rx   d 8 FF FF FF FF 00 00 00 00
 14.613655 1  167             Rx   d 8 00 FF FF 00 00 02 0E 00
 14.613713 1  204             Rx   d 8 00 00 FF 00 00 00 00 00
 14.633191 1  167             Rx   d 8 00 FF FF 00 00 02 0E 00
 14.645576 1  202             Rx   d 8 00 CC 00 00 00 00 00 00
 14.663665 1  167             Rx   d 8 00 FF FF 00 00 02 0E 00
 14.683897 1  167             Rx   d 8 00 FF FF 00 00 02 0E 00
 14.713323 1  167             Rx   d 8 00 FF FF 00 00 02 0E 00
 14.733232 1  167             Rx   d 8 00 FF FF 00 00 02 0E 00
 14.733456 1  204             Rx   d 8 00 00 FF 00 00 00 00 00
 14.735375 1  76              Rx   d 8 00 00 1F F7 FC 00 00 F0
 14.735535 1  20A             Rx   d 8 F1 F8 00 00 00 00 4E 20
 14.735770 1  3CA             Rx   d 8 04 00 00 00 00 00 00 00
 14.743520 1  156             Rx   d 8 BA 00 00 00 00 00 00 00
 14.743806 1  166             Rx   d 8 76 00 00 FF FF FF 00 00
 14.744433 1  167             Rx   d 8 00 FF FF 00 00 02 0E 00
 14.744624 1  178             Rx   d 8 00 00 02 00 02 54 CA 53
 14.744936 1  179             Rx   d 8 00 00 08 00 22 FF 00 00
 14.745181 1  17C             Rx   d 8 00 00 00 00 00 00 00 00
 14.755962 1  76              Rx   d 8 00 00 1F F7 FC 00 00 F0
 14.763962 1  167             Rx   d 8 00 FF FF 00 00 02 0E 00
 14.764404 1  202             Rx   d 8 00 CC 00 00 00 00 00 00
 14.764555 1  204             Rx   d 8 00 00 FF 00 00 00 00 00
 14.766006 1  3CA             Rx   d 8 04 00 00 00 00 00 00 00
 14.773212 1  167             Rx   d 8 00 FF FF 00 00 02 0E 00
 14.773503 1  204             Rx   d 8 00 00 FF 00 00 00 00 00
 14.775580 1  48              Rx   d 8 00 00 00 00 07 00 E0 00
 14.775641 1  76              Rx   d 8 00 00 1F F7 FC 00 00 F0
 14.775805 1  14C             Rx   d 8 08 00 00 01 00 00 00 00
 14.776032 1  20A             Rx   d 8 F1 F8 00 00 00 00 4E 20
 14.776354 1  412             Rx   d 8 7D 00 80 80 00 00 00 00
 14.776502 1  42F             Rx   d 8 7D 02 05 4E 26 0B 00 00
 14.784066 1  167             Rx   d 8 00 FF FF 00 00 02 0E 00
 14.793163 1  167             Rx   d 8 00 FF FF 00 00 02 0E 00
 14.813398 1  167             Rx   d 8 00 FF FF 00 00 02 0E 00
 14.823920 1  167             Rx   d 8 00 FF FF 00 00 02 0E 00
 14.843439 1  156             Rx   d 8 BA 00 00 00 00 00 00 00
 14.863680 1  167             Rx   d 8 00 FF FF 00 00 02 0E 00
 14.883780 1  167             Rx   d 8 00 FF FF 00 00 02 0E 00
 14.893664 1  167             Rx   d 8 00 FF FF 00 00 02 0E 00
 14.893713 1  204             Rx   d 8 00 00 FF 00 00 00 00 00
 14.895587 1  76              Rx   d 8 00 00 1F F7 FC 00 00 F0
 14.895612 1  20A             Rx   d 8 F1 F8 00 00 00 00 4E 20
 14.902256 1  40A             Rx   d 8 C0 00 00 23 61 26 9C 00
 14.903638 1  167             Rx   d 8 00 FF FF 00 00 02 0E 00
 14.903818 1  171             Rx   d 8 F0 E0 00 00 00 00 00 00
 14.915572 1  76              Rx   d 8 00 00 1F F7 FC 00 00 F0
 14.933200 1  167             Rx   d 8 00 FF FF 00 00 02 0E 00
 14.943418 1  156             Rx   d 8 BA 00 00 00 00 00 00 00
 14.953342 1  167             Rx   d 8 00 FF FF 00 00 02 0E 00
 14.973182 1  167             Rx   d 8 00 FF FF 00 00 02 0E 00
 14.993223 1  167             Rx   d 8 00 FF FF 00 00 02 0E 00
 15.023933 1  167             Rx   d 8 00 FF FF 00 00 02 0E 00
 15.033518 1  167             Rx   d 8 00 FF FF 00 00 02 0E 00
 15.033565 1  204             Rx   d 8 00 00 FF 00 00 00 00 00
 15.036035 1  76              Rx   d 8 00 00 1F F7 FC 00 00 F0
 15.036093 1  20A             Rx   d 8 F1 F8 00 00 00 00 4E 20
 15.043486 1  156             Rx   d 8 BA 00 00 00 00 00 00 00
 15.045594 1  202             Rx   d 8 00 CC 00 00 00 00 00 00
 15.053224 1  167             Rx   d 8 00 FF FF 00 00 02 0E 00
 15.055873 1  76              Rx   d 8 00 00 1F F7 FC 00 00 F0
 15.063707 1  167             Rx   d 8 00 FF FF 00 00 02 0E 00
 15.064425 1  204             Rx   d 8 00 00 FF 00 00 00 00 00
 15.073486 1  167             Rx   d 8 00 FF FF 00 00 02 0E 00
 15.075734 1  48              Rx   d 8 00 00 00 00 07 00 E0 00
 15.095959 1  76              Rx   d 8 00 00 1F F7 FC 00 00 F0
 15.104687 1  167             Rx   d 8 00 FF FF 00 00 02 0E 00
 15.113473 1  167             Rx   d 8 00 FF FF 00 00 02 0E 00
 15.126551 1  42F             Rx   d 8 7D 02 05 4E 26 0B 00 00
 15.143557 1  156             Rx   d 8 BA 00 00 00 00 00 00 00
 15.153501 1  167             Rx   d 8 00 FF FF 00 00 02 0E 00
 15.155798 1  76              Rx   d 8 00 00 1F F7 FC 00 00 F0
 15.157562 1  3B5             Rx   d 8 FF FD FF FD FF FD FF FD
 15.163853 1  167             Rx   d 8 00 FF FF 00 00 02 0E 00
 15.164364 1  202             Rx   d 8 00 CC 00 00 00 00 00 00
