date Fri Mar 21 06:53:38.675 PM 2025
base hex  timestamps absolute
internal events logged
Begin Triggerblock Fri Mar 21 06:53:38.675 PM 2025
 0.000000 Start of measurement
 0.000000 1  167             Rx   d 8 00 FF FF 00 00 02 0E 00
 0.000211 1  204             Rx   d 8 00 00 FF 00 00 00 00 00
 0.006246 1  3CA             Rx   d 8 04 00 00 00 00 00 00 00
 0.010569 1  167             Rx   d 8 00 FF FF 00 00 02 0E 00
 0.010599 1  171             Rx   d 8 F0 E0 00 00 00 00 00 00
 0.011143 1  202             Rx   d 8 00 CC 00 00 00 00 00 00
 0.011334 1  204             Rx   d 8 00 00 FF 00 00 00 00 00
 0.016492 1  76              Rx   d 8 00 00 1F F7 FC 00 00 F0
 0.016656 1  20A             Rx   d 8 F1 F8 00 00 00 00 4E 20
 0.019929 1  167             Rx   d 8 00 FF FF 00 00 02 0E 00
 0.020141 1  204             Rx   d 8 00 00 FF 00 00 00 00 00
 0.022657 1  287             Rx   d 8 00 00 00 00 00 00 00 00
 0.022837 1  30A             Rx   d 8 85 00 00 00 00 00 00 00
 0.023107 1  318             Rx   d 8 00 00 00 00 00 00 00 00
 0.023499 1  346             Rx   d 8 00 00 00 03 03 00 C0 00
 0.023634 1  348             Rx   d 8 00 00 00 01 00 00 00 00
 0.023894 1  430             Rx   d 8 48 00 40 9B 00 20 64 00
 0.024134 1  434             Rx   d 8 40 00 70 00 20 4D 28 00
 0.026012 1  3B4             Rx   d 8 34 21 11 FF 1E 1A 00 00
 0.030464 1  167             Rx   d 8 00 FF FF 00 00 02 0E 00
 0.030859 1  202             Rx   d 8 00 CC 00 00 00 00 00 00
 0.031108 1  204             Rx   d 8 00 00 FF 00 00 00 00 00
 0.036526 1  48              Rx   d 8 00 00 00 00 07 00 E0 00
 0.036556 1  76              Rx   d 8 00 00 1F F7 FC 00 00 F0
 0.036808 1  20A             Rx   d 8 F1 F8 00 00 00 00 4E 20
 0.037029 1  3B5             Rx   d 8 FF FD FF FD FF FD FF FD
 0.037274 1  3CA             Rx   d 8 04 00 00 00 00 00 00 00
 0.037524 1  412             Rx   d 8 7D 00 80 80 00 00 00 00
 0.037768 1  42F             Rx   d 8 7D 02 05 4E 26 0B 00 00
 0.038013 1  433             Rx   d 8 C0 00 00 00 00 A0 00 00
 0.038267 1  470             Rx   d 8 00 00 40 00 00 00 00 00
 0.038522 1  479             Rx   d 8 00 00 00 00 00 00 00 00
 0.040001 1  167             Rx   d 8 00 FF FF 00 00 02 0E 00
 0.040161 1  171             Rx   d 8 F0 E0 00 00 00 00 00 00
 0.040408 1  204             Rx   d 8 00 00 FF 00 00 00 00 00
 0.050466 1  156             Rx   d 8 BA 00 00 00 00 00 00 00
 0.050863 1  166             Rx   d 8 76 00 00 FF FF FF 00 00
 0.050879 1  167             Rx   d 8 00 FF FF 00 00 02 0E 00
 0.051174 1  178             Rx   d 8 00 00 02 00 02 54 CA 53
 0.051352 1  179             Rx   d 8 00 00 08 00 22 FF 00 00
 0.051602 1  17C             Rx   d 8 00 00 00 00 00 00 00 00
 0.052070 1  202             Rx   d 8 00 CC 00 00 00 00 00 00
 0.052312 1  204             Rx   d 8 00 00 FF 00 00 00 00 00
 0.052795 1  421             Rx   d 8 04 00 11 00 00 00 FF 00
 0.053360 1  42D             Rx   d 8 00 03 FF 00 00 00 F0 00
 0.057364 1  76              Rx   d 8 00 00 1F F7 FC 00 00 F0
 0.057512 1  20A             Rx   d 8 F1 F8 00 00 00 00 4E 20
 0.059985 1  167             Rx   d 8 00 FF FF 00 00 02 0E 00
 0.060165 1  204             Rx   d 8 00 00 FF 00 00 00 00 00
 0.066259 1  3CA             Rx   d 8 04 00 00 00 00 00 00 00
 0.070602 1  167             Rx   d 8 00 FF FF 00 00 02 0E 00
 0.070632 1  171             Rx   d 8 F0 E0 00 00 00 00 00 00
 0.071137 1  202             Rx   d 8 00 CC 00 00 00 00 00 00
 0.071337 1  204             Rx   d 8 00 00 FF 00 00 00 00 00
 0.076747 1  3B2             Rx   d 8 44 8C C0 0C E6 00 03 3E
 0.076795 1  3C3             Rx   d 8 5C 80 10 C1 01 00 00 00
 0.077318 1  76              Rx   d 8 00 00 1F F7 FC 00 00 F0
 0.077370 1  20A             Rx   d 8 F1 F8 00 00 00 00 4E 20
 0.080296 1  167             Rx   d 8 00 FF FF 00 00 02 0E 00
 0.080354 1  204             Rx   d 8 00 00 FF 00 00 00 00 00
 0.086399 1  412             Rx   d 8 7D 00 80 80 00 00 00 00
 0.086432 1  42C             Rx   d 8 30 31 C4 80 00 00 00 97
 0.086657 1  42F             Rx   d 8 7D 02 05 4E 26 0B 00 00
 0.090498 1  167             Rx   d 8 00 FF FF 00 00 02 0E 00
 0.090874 1  202             Rx   d 8 00 CC 00 00 00 00 00 00
 0.091155 1  204             Rx   d 8 00 00 FF 00 00 00 00 00
 0.096770 1  76              Rx   d 8 00 00 1F F7 FC 00 00 F0
 0.096920 1  20A             Rx   d 8 F1 F8 00 00 00 00 4E 20
 0.097141 1  3CA             Rx   d 8 04 00 00 00 00 00 00 00
 0.099960 1  167             Rx   d 8 00 FF FF 00 00 02 0E 00
 0.100197 1  171             Rx   d 8 F0 E0 00 00 00 00 00 00
 0.100406 1  204             Rx   d 8 00 00 FF 00 00 00 00 00
 0.110516 1  167             Rx   d 8 00 FF FF 00 00 02 0E 00
 0.110860 1  202             Rx   d 8 00 CC 00 00 00 00 00 00
 0.111099 1  204             Rx   d 8 00 00 FF 00 00 00 00 00
 0.116671 1  76              Rx   d 8 00 00 1F F7 FC 00 00 F0
 0.116719 1  20A             Rx   d 8 F1 F8 00 00 00 00 4E 20
 0.120178 1  167             Rx   d 8 00 FF FF 00 00 02 0E 00
 0.120233 1  204             Rx   d 8 00 00 FF 00 00 00 00 00
 0.122846 1  318             Rx   d 8 00 00 00 00 00 00 00 00
 0.122880 1  346             Rx   d 8 00 00 00 03 03 00 C0 00
 0.123372 1  348             Rx   d 8 00 00 00 01 00 00 00 00
 0.123452 1  430             Rx   d 8 48 00 40 9B 00 20 64 00
 0.123680 1  434             Rx   d 8 40 00 70 00 20 4D 28 00
 0.124480 1  84              Rx   d 8 00 00 00 01 09 0E 0C 00
 0.127399 1  3CA             Rx   d 8 04 00 00 00 00 00 00 00
 0.130644 1  167             Rx   d 8 00 FF FF 00 00 02 0E 00
 0.130687 1  171             Rx   d 8 F0 E0 00 00 00 00 00 00
 0.131386 1  202             Rx   d 8 00 CC 00 00 00 00 00 00
 0.131428 1  204             Rx   d 8 00 00 FF 00 00 00 00 00
 0.136931 1  48              Rx   d 8 00 00 00 00 07 00 E0 00
 0.136969 1  76              Rx   d 8 00 00 1F F7 FC 00 00 F0
 0.137390 1  14C             Rx   d 8 08 00 00 01 00 00 00 00
 0.137412 1  20A             Rx   d 8 F1 F8 00 00 00 00 4E 20
 0.137678 1  412             Rx   d 8 7D 00 80 80 00 00 00 00
 0.137925 1  42F             Rx   d 8 7D 02 05 4E 26 0B 00 00
 0.138280 1  433             Rx   d 8 C0 00 00 00 00 A0 00 00
 0.138603 1  470             Rx   d 8 00 00 40 00 00 00 00 00
 0.139983 1  167             Rx   d 8 00 FF FF 00 00 02 0E 00
 0.140166 1  204             Rx   d 8 00 00 FF 00 00 00 00 00
 0.150767 1  156             Rx   d 8 BA 00 00 00 00 00 00 00
 0.150821 1  166             Rx   d 8 76 00 00 FF FF FF 00 00
 0.151603 1  167             Rx   d 8 00 FF FF 00 00 02 0E 00
 0.151619 1  178             Rx   d 8 00 00 02 00 02 54 CA 53
 0.151623 1  179             Rx   d 8 00 00 08 00 22 FF 00 00
 0.151628 1  17C             Rx   d 8 00 00 00 00 00 00 00 00
 0.152433 1  202             Rx   d 8 00 CC 00 00 00 00 00 00
 0.152462 1  204             Rx   d 8 00 00 FF 00 00 00 00 00
 0.152936 1  421             Rx   d 8 04 00 11 00 00 00 FF 00
 0.153342 1  42D             Rx   d 8 00 03 FF 00 00 00 F0 00
 0.157510 1  76              Rx   d 8 00 00 1F F7 FC 00 00 F0
 0.157559 1  20A             Rx   d 8 F1 F8 00 00 00 00 4E 20
 0.157572 1  3CA             Rx   d 8 04 00 00 00 00 00 00 00
 0.159953 1  167             Rx   d 8 00 FF FF 00 00 02 0E 00
 0.160154 1  171             Rx   d 8 F0 E0 00 00 00 00 00 00
 0.160392 1  204             Rx   d 8 00 00 FF 00 00 00 00 00
 0.170492 1  167             Rx   d 8 00 FF FF 00 00 02 0E 00
 0.170865 1  202             Rx   d 8 00 CC 00 00 00 00 00 00
 0.171129 1  204             Rx   d 8 00 00 FF 00 00 00 00 00
 0.175027 1  40A             Rx   d 8 C1 04 01 8A 07 54 85 41
 0.176994 1  76              Rx   d 8 00 00 1F F7 FC 00 00 F0
 0.177170 1  20A             Rx   d 8 F1 F8 00 00 00 00 4E 20
 0.180151 1  167             Rx   d 8 00 FF FF 00 00 02 0E 00
 0.180180 1  204             Rx   d 8 00 00 FF 00 00 00 00 00
 0.186412 1  3CA             Rx   d 8 04 00 00 00 00 00 00 00
 0.186444 1  412             Rx   d 8 7D 00 80 80 00 00 00 00
 0.186688 1  42F             Rx   d 8 7D 02 05 4E 26 0B 00 00
 0.186907 1  479             Rx   d 8 00 00 00 00 00 00 00 00
 0.190466 1  167             Rx   d 8 00 FF FF 00 00 02 0E 00
 0.190610 1  171             Rx   d 8 F0 E0 00 00 00 00 00 00
 0.191110 1  202             Rx   d 8 00 CC 00 00 00 00 00 00
 0.191336 1  204             Rx   d 8 00 00 FF 00 00 00 00 00
 0.192688 1  591             Rx   d 8 91 00 FF FF FF FF FF FF
 0.196527 1  76              Rx   d 8 00 00 1F F7 FC 00 00 F0
 0.196685 1  20A             Rx   d 8 F1 F8 00 00 00 00 4E 20
 0.199867 1  167             Rx   d 8 00 FF FF 00 00 02 0E 00
 0.200104 1  204             Rx   d 8 00 00 FF 00 00 00 00 00
 0.210385 1  167             Rx   d 8 00 FF FF 00 00 02 0E 00
 0.210829 1  202             Rx   d 8 00 CC 00 00 00 00 00 00
 0.211068 1  204             Rx   d 8 00 00 FF 00 00 00 00 00
 0.214032 1  331             Rx   d 8 C0 00 48 99 04 00 00 00
 0.216684 1  76              Rx   d 8 00 00 1F F7 FC 00 00 F0
 0.216913 1  20A             Rx   d 8 F1 F8 00 00 00 00 4E 20
 0.217162 1  3CA             Rx   d 8 04 00 00 00 00 00 00 00
 0.219929 1  167             Rx   d 8 00 FF FF 00 00 02 0E 00
 0.220151 1  171             Rx   d 8 F0 E0 00 00 00 00 00 00
 0.220371 1  204             Rx   d 8 00 00 FF 00 00 00 00 00
 0.222719 1  18B             Rx   d 8 00 00 00 1E 00 00 00 00
 0.222915 1  19A             Rx   d 8 00 00 00 02 40 00 00 00
 0.223170 1  220             Rx   d 8 10 01 00 00 00 00 00 00
 0.223525 1  225             Rx   d 8 A0 81 00 00 00 00 00 00
 0.223732 1  287             Rx   d 8 00 00 00 00 00 00 00 00
 0.223976 1  2F4             Rx   d 8 10 01 00 00 00 00 00 00
 0.224236 1  2FD             Rx   d 8 09 00 00 04 FD 00 00 00
 0.224487 1  30A             Rx   d 8 85 00 00 00 00 00 00 00
 0.224751 1  315             Rx   d 8 00 00 00 00 00 00 00 00
 0.225115 1  318             Rx   d 8 00 00 00 00 00 00 00 00
 0.225292 1  346             Rx   d 8 00 00 00 03 03 00 C0 00
 0.225547 1  348             Rx   d 8 00 00 00 01 00 00 00 00
 0.225810 1  350             Rx   d 8 40 00 00 00 00 00 00 00
 0.226045 1  353             Rx   d 8 00 00 00 00 00 00 00 00
 0.226353 1  3C8             Rx   d 8 00 00 00 EC 00 00 00 00
 0.226599 1  3E0             Rx   d 8 00 00 00 00 80 00 00 00
 0.226827 1  3FB             Rx   d 8 00 00 00 00 04 00 00 00
 0.227118 1  430             Rx   d 8 48 00 40 9B 00 20 64 00
 0.227338 1  434             Rx   d 8 40 00 70 00 20 4D 28 00
 0.230436 1  167             Rx   d 8 00 FF FF 00 00 02 0E 00
 0.230834 1  202             Rx   d 8 00 CC 00 00 00 00 00 00
 0.231074 1  204             Rx   d 8 00 00 FF 00 00 00 00 00
 0.236419 1  48              Rx   d 8 00 00 00 00 07 00 E0 00
 0.236583 1  76              Rx   d 8 00 00 1F F7 FC 00 00 F0
 0.236820 1  20A             Rx   d 8 F1 F8 00 00 00 00 4E 20
 0.237111 1  412             Rx   d 8 7D 00 80 80 00 00 00 00
 0.237330 1  42F             Rx   d 8 7D 02 05 4E 26 0B 00 00
 0.237591 1  433             Rx   d 8 C0 00 00 00 00 A0 00 00
 0.237837 1  470             Rx   d 8 00 00 40 00 00 00 00 00
 0.239915 1  167             Rx   d 8 00 FF FF 00 00 02 0E 00
 0.240122 1  204             Rx   d 8 00 00 FF 00 00 00 00 00
 0.242476 1  331             Rx   d 8 C0 00 48 99 04 00 00 00
 0.246387 1  3CA             Rx   d 8 04 00 00 00 00 00 00 00
 0.250127 1  156             Rx   d 8 BA 00 00 00 00 00 00 00
 0.250567 1  166             Rx   d 8 76 00 00 FF FF FF 00 00
 0.250822 1  167             Rx   d 8 00 FF FF 00 00 02 0E 00
 0.251062 1  171             Rx   d 8 F0 E0 00 00 00 00 00 00
 0.251326 1  178             Rx   d 8 00 00 02 00 02 54 CA 53
 0.251555 1  179             Rx   d 8 00 00 08 00 22 FF 00 00
 0.251814 1  17C             Rx   d 8 00 00 00 00 00 00 00 00
 0.252302 1  202             Rx   d 8 00 CC 00 00 00 00 00 00
 0.252585 1  204             Rx   d 8 00 00 FF 00 00 00 00 00
 0.253584 1  421             Rx   d 8 04 00 11 00 00 00 FF 00
 0.254043 1  42D             Rx   d 8 00 03 FF 00 00 00 F0 00
 0.257214 1  76              Rx   d 8 00 00 1F F7 FC 00 00 F0
 0.257435 1  20A             Rx   d 8 F1 F8 00 00 00 00 4E 20
 0.260007 1  167             Rx   d 8 00 FF FF 00 00 02 0E 00
 0.260178 1  204             Rx   d 8 00 00 FF 00 00 00 00 00
 0.270666 1  167             Rx   d 8 00 FF FF 00 00 02 0E 00
 0.270879 1  202             Rx   d 8 00 CC 00 00 00 00 00 00
 0.271232 1  204             Rx   d 8 00 00 FF 00 00 00 00 00
 0.276933 1  76              Rx   d 8 00 00 1F F7 FC 00 00 F0
 0.276983 1  20A             Rx   d 8 F1 F8 00 00 00 00 4E 20
 0.277293 1  3CA             Rx   d 8 04 00 00 00 00 00 00 00
 0.280252 1  167             Rx   d 8 00 FF FF 00 00 02 0E 00
 0.280303 1  171             Rx   d 8 F0 E0 00 00 00 00 00 00
 0.280568 1  204             Rx   d 8 00 00 FF 00 00 00 00 00
 0.286547 1  412             Rx   d 8 7D 00 80 80 00 00 00 00
 0.286583 1  42F             Rx   d 8 7D 02 05 4E 26 0B 00 00
 0.290755 1  167             Rx   d 8 00 FF FF 00 00 02 0E 00
 0.291389 1  202             Rx   d 8 00 CC 00 00 00 00 00 00
 0.291427 1  204             Rx   d 8 00 00 FF 00 00 00 00 00
 0.297043 1  76              Rx   d 8 00 00 1F F7 FC 00 00 F0
 0.297089 1  20A             Rx   d 8 F1 F8 00 00 00 00 4E 20
 0.300283 1  167             Rx   d 8 00 FF FF 00 00 02 0E 00
 0.300328 1  204             Rx   d 8 00 00 FF 00 00 00 00 00
 0.306626 1  3CA             Rx   d 8 04 00 00 00 00 00 00 00
 0.310620 1  167             Rx   d 8 00 FF FF 00 00 02 0E 00
 0.310656 1  171             Rx   d 8 F0 E0 00 00 00 00 00 00
 0.311496 1  202             Rx   d 8 00 CC 00 00 00 00 00 00
 0.311539 1  204             Rx   d 8 00 00 FF 00 00 00 00 00
 0.316856 1  76              Rx   d 8 00 00 1F F7 FC 00 00 F0
 0.316983 1  20A             Rx   d 8 F1 F8 00 00 00 00 4E 20
 0.320468 1  167             Rx   d 8 00 FF FF 00 00 02 0E 00
 0.320531 1  204             Rx   d 8 00 00 FF 00 00 00 00 00
 0.322939 1  318             Rx   d 8 00 00 00 00 00 00 00 00
 0.322980 1  346             Rx   d 8 00 00 00 03 03 00 C0 00
 0.323542 1  348             Rx   d 8 00 00 00 01 00 00 00 00
 0.323570 1  430             Rx   d 8 48 00 40 9B 00 20 64 00
 0.323732 1  434             Rx   d 8 40 00 70 00 20 4D 28 00
 0.325946 1  59E             Rx   d 8 9E 00 FF FF FF FF FF FF
 0.330468 1  167             Rx   d 8 00 FF FF 00 00 02 0E 00
 0.330963 1  202             Rx   d 8 00 CC 00 00 00 00 00 00
 0.331146 1  204             Rx   d 8 00 00 FF 00 00 00 00 00
 0.337863 1  48              Rx   d 8 00 00 00 00 07 00 E0 00
 0.337941 1  76              Rx   d 8 00 00 1F F7 FC 00 00 F0
 0.337955 1  77              Rx   d 8 1F FE 0F FE 00 01 00 00
 0.337961 1  108             Rx   d 8 00 04 00 00 80 00 72 64
 0.337968 1  109             Rx   d 8 00 00 EE 00 00 00 04 01
 0.338562 1  14C             Rx   d 8 08 00 00 01 00 00 00 00
 0.338610 1  20A             Rx   d 8 F1 F8 00 00 00 00 4E 20
 0.338621 1  275             Rx   d 8 00 00 00 00 00 00 00 00
 0.339809 1  277             Rx   d 8 00 00 00 00 02 53 00 00
 0.339855 1  279             Rx   d 8 00 50 00 3C A8 96 01 00
 0.339866 1  27A             Rx   d 8 00 FF FE 00 00 00 00 00
 0.339872 1  303             Rx   d 8 00 00 00 00 00 00 00 00
 0.339876 1  3A8             Rx   d 8 06 00 00 00 00 00 00 00
 0.340297 1  3B3             Rx   d 8 44 80 00 0C FE 00 00 00
 0.340326 1  167             Rx   d 8 00 FF FF 00 00 02 0E 00
 0.341010 1  171             Rx   d 8 F0 E0 00 00 00 00 00 00
 0.341044 1  204             Rx   d 8 00 00 FF 00 00 00 00 00
 0.341052 1  3CA             Rx   d 8 04 00 00 00 00 00 00 00
 0.341626 1  3D0             Rx   d 8 01 0F 48 99 80 00 1F FE
 0.341651 1  412             Rx   d 8 7D 00 80 80 00 00 00 00
 0.341658 1  424             Rx   d 8 00 26 80 03 00 00 30 00
 0.342416 1  42C             Rx   d 8 30 31 C4 80 00 00 00 96
 0.342444 1  42F             Rx   d 8 7D 02 05 4E 26 0B 00 00
 0.342447 1  431             Rx   d 8 00 00 00 00 00 00 00 00
 0.342600 1  432             Rx   d 8 00 00 00 00 00 00 00 00
 0.342887 1  433             Rx   d 8 C0 00 00 00 00 A0 00 00
 0.343087 1  46A             Rx   d 8 00 00 00 88 00 10 C0 00
 0.343315 1  46B             Rx   d 8 B7 A0 48 00 00 00 D2 09
 0.343626 1  470             Rx   d 8 00 00 40 00 00 00 00 00
 0.343866 1  479             Rx   d 8 00 00 00 00 00 00 00 00
 0.350275 1  156             Rx   d 8 BA 00 00 00 00 00 00 00
 0.350661 1  166             Rx   d 8 76 00 00 FF FF FF 00 00
 0.350853 1  167             Rx   d 8 00 FF FF 00 00 02 0E 00
 0.351377 1  178             Rx   d 8 00 00 02 00 02 54 CA 53
 0.351584 1  179             Rx   d 8 00 00 08 00 22 FF 00 00
 0.351842 1  17C             Rx   d 8 00 00 00 00 00 00 00 00
 0.352309 1  202             Rx   d 8 00 CC 00 00 00 00 00 00
 0.352576 1  204             Rx   d 8 00 00 FF 00 00 00 00 00
 0.353055 1  421             Rx   d 8 04 00 11 00 00 00 FF 00
 0.353566 1  42D             Rx   d 8 00 03 FF 00 00 00 F0 00
 0.357557 1  76              Rx   d 8 00 00 1F F7 FC 00 00 F0
 0.357602 1  20A             Rx   d 8 F1 F8 00 00 00 00 4E 20
 0.360230 1  167             Rx   d 8 00 FF FF 00 00 02 0E 00
 0.360271 1  204             Rx   d 8 00 00 FF 00 00 00 00 00
 0.366567 1  3CA             Rx   d 8 04 00 00 00 00 00 00 00
 0.370467 1  167             Rx   d 8 00 FF FF 00 00 02 0E 00
 0.370619 1  171             Rx   d 8 F0 E0 00 00 00 00 00 00
 0.371193 1  202             Rx   d 8 00 CC 00 00 00 00 00 00
 0.371582 1  204             Rx   d 8 00 00 FF 00 00 00 00 00
 0.372269 1  40A             Rx   d 8 C1 10 40 84 20 08 80 00
 0.377176 1  76              Rx   d 8 00 00 1F F7 FC 00 00 F0
 0.377388 1  20A             Rx   d 8 F1 F8 00 00 00 00 4E 20
 0.379933 1  167             Rx   d 8 00 FF FF 00 00 02 0E 00
 0.380160 1  204             Rx   d 8 00 00 FF 00 00 00 00 00
 0.386351 1  412             Rx   d 8 7D 00 80 80 00 00 00 00
 0.386492 1  42F             Rx   d 8 7D 02 05 4E 26 0B 00 00
 0.390679 1  167             Rx   d 8 00 FF FF 00 00 02 0E 00
 0.391122 1  202             Rx   d 8 00 CC 00 00 00 00 00 00
 0.391347 1  204             Rx   d 8 00 00 FF 00 00 00 00 00
 0.396680 1  76              Rx   d 8 00 00 1F F7 FC 00 00 F0
 0.396725 1  20A             Rx   d 8 F1 F8 00 00 00 00 4E 20
 0.397193 1  3CA             Rx   d 8 04 00 00 00 00 00 00 00
 0.400285 1  167             Rx   d 8 00 FF FF 00 00 02 0E 00
 0.400335 1  171             Rx   d 8 F0 E0 00 00 00 00 00 00
 0.400519 1  204             Rx   d 8 00 00 FF 00 00 00 00 00
 0.410684 1  167             Rx   d 8 00 FF FF 00 00 02 0E 00
 0.411113 1  202             Rx   d 8 00 CC 00 00 00 00 00 00
 0.411329 1  204             Rx   d 8 00 00 FF 00 00 00 00 00
 0.416464 1  76              Rx   d 8 00 00 1F F7 FC 00 00 F0
 0.416724 1  20A             Rx   d 8 F1 F8 00 00 00 00 4E 20
 0.419951 1  167             Rx   d 8 00 FF FF 00 00 02 0E 00
 0.420123 1  204             Rx   d 8 00 00 FF 00 00 00 00 00
 0.422731 1  287             Rx   d 8 00 00 00 00 00 00 00 00
 0.422933 1  30A             Rx   d 8 85 00 00 00 00 00 00 00
 0.423190 1  318             Rx   d 8 00 00 00 00 00 00 00 00
 0.423516 1  346             Rx   d 8 00 00 00 03 03 00 C0 00
 0.423679 1  348             Rx   d 8 00 00 00 01 00 00 00 00
 0.423942 1  430             Rx   d 8 48 00 40 9B 00 20 64 00
 0.424189 1  434             Rx   d 8 40 00 70 00 20 4D 28 00
 0.427163 1  3CA             Rx   d 8 04 00 00 00 00 00 00 00
 0.430669 1  167             Rx   d 8 00 FF FF 00 00 02 0E 00
 0.430708 1  171             Rx   d 8 F0 E0 00 00 00 00 00 00
 0.431188 1  202             Rx   d 8 00 CC 00 00 00 00 00 00
 0.431370 1  204             Rx   d 8 00 00 FF 00 00 00 00 00
 0.439943 1  167             Rx   d 8 00 FF FF 00 00 02 0E 00
 0.450249 1  156             Rx   d 8 BA 00 00 00 00 00 00 00
 0.452904 1  421             Rx   d 8 04 00 11 00 00 00 FF 00
 0.459996 1  167             Rx   d 8 00 FF FF 00 00 02 0E 00
 0.470153 1  3B8             Rx   d 8 FF FF FF FF 00 00 00 00
 0.470700 1  167             Rx   d 8 00 FF FF 00 00 02 0E 00
 0.471098 1  202             Rx   d 8 00 CC 00 00 00 00 00 00
 0.476844 1  76              Rx   d 8 00 00 1F F7 FC 00 00 F0
 0.480309 1  167             Rx   d 8 00 FF FF 00 00 02 0E 00
 0.496580 1  76              Rx   d 8 00 00 1F F7 FC 00 00 F0
 0.510599 1  167             Rx   d 8 00 FF FF 00 00 02 0E 00
 0.520265 1  167             Rx   d 8 00 FF FF 00 00 02 0E 00
 0.528389 1  3B5             Rx   d 8 FF FD FF FD FF FD FF FD
 0.537287 1  412             Rx   d 8 7D 00 80 80 00 00 00 00
 0.546515 1  3CA             Rx   d 8 04 00 00 00 00 00 00 00
 0.552377 1  202             Rx   d 8 00 CC 00 00 00 00 00 00
 0.553673 1  42D             Rx   d 8 00 03 FF 00 00 00 F0 00
 0.568266 1  3B2             Rx   d 8 44 8C C0 0C E6 00 03 3E
 0.586569 1  412             Rx   d 8 7D 00 80 80 00 00 00 00
 0.606419 1  3CA             Rx   d 8 04 00 00 00 00 00 00 00
 0.619973 1  167             Rx   d 8 00 FF FF 00 00 02 0E 00
 0.636536 1  48              Rx   d 8 00 00 00 00 07 00 E0 00
 0.650206 1  156             Rx   d 8 BA 00 00 00 00 00 00 00
 0.666820 1  3CA             Rx   d 8 04 00 00 00 00 00 00 00
 0.679868 1  167             Rx   d 8 00 FF FF 00 00 02 0E 00
 0.696442 1  76              Rx   d 8 00 00 1F F7 FC 00 00 F0
 0.710535 1  167             Rx   d 8 00 FF FF 00 00 02 0E 00
 0.716683 1  76              Rx   d 8 00 00 1F F7 FC 00 00 F0
 0.730396 1  167             Rx   d 8 00 FF FF 00 00 02 0E 00
 0.750254 1  156             Rx   d 8 BA 00 00 00 00 00 00 00
 0.757059 1  76              Rx   d 8 00 00 1F F7 FC 00 00 F0
 0.770452 1  167             Rx   d 8 00 FF FF 00 00 02 0E 00
 0.779999 1  167             Rx   d 8 00 FF FF 00 00 02 0E 00
 0.799884 1  167             Rx   d 8 00 FF FF 00 00 02 0E 00
 0.816901 1  76              Rx   d 8 00 00 1F F7 FC 00 00 F0
 0.822708 1  287             Rx   d 8 00 00 00 00 00 00 00 00
 0.839952 1  167             Rx   d 8 00 FF FF 00 00 02 0E 00
 0.852325 1  202             Rx   d 8 00 CC 00 00 00 00 00 00
 0.870475 1  167             Rx   d 8 00 FF FF 00 00 02 0E 00
 0.886991 1  412             Rx   d 8 7D 00 80 80 00 00 00 00
 0.906478 1  3CA             Rx   d 8 04 00 00 00 00 00 00 00
 0.922729 1  318             Rx   d 8 00 00 00 00 00 00 00 00
 0.936541 1  48              Rx   d 8 00 00 00 00 07 00 E0 00
 0.952791 1  421             Rx   d 8 04 00 11 00 00 00 FF 00
 0.967025 1  3CA             Rx   d 8 04 00 00 00 00 00 00 00
 0.986577 1  412             Rx   d 8 7D 00 80 80 00 00 00 00
 0.999958 1  167             Rx   d 8 00 FF FF 00 00 02 0E 00
 1.019338 1  3B5             Rx   d 8 FF FD FF FD FF FD FF FD
 1.036981 1  48              Rx   d 8 00 00 00 00 07 00 E0 00
 1.050239 1  156             Rx   d 8 BA 00 00 00 00 00 00 00
 1.070551 1  167             Rx   d 8 00 FF FF 00 00 02 0E 00
 1.080118 1  167             Rx   d 8 00 FF FF 00 00 02 0E 00
 1.096509 1  76              Rx   d 8 00 00 1F F7 FC 00 00 F0
 1.116598 1  76              Rx   d 8 00 00 1F F7 FC 00 00 F0
 1.126990 1  84              Rx   d 8 00 00 00 01 09 0F 0C 00
 1.146645 1  3CA             Rx   d 8 04 00 00 00 00 00 00 00
 1.170441 1  167             Rx   d 8 00 FF FF 00 00 02 0E 00
 1.179952 1  167             Rx   d 8 00 FF FF 00 00 02 0E 00
 1.196624 1  76              Rx   d 8 00 00 1F F7 FC 00 00 F0
 1.216570 1  76              Rx   d 8 00 00 1F F7 FC 00 00 F0
 1.230848 1  202             Rx   d 8 00 CC 00 00 00 00 00 00
 1.250194 1  156             Rx   d 8 BA 00 00 00 00 00 00 00
 1.266732 1  3CA             Rx   d 8 04 00 00 00 00 00 00 00
 1.279960 1  167             Rx   d 8 00 FF FF 00 00 02 0E 00
 1.296614 1  76              Rx   d 8 00 00 1F F7 FC 00 00 F0
 1.316965 1  76              Rx   d 8 00 00 1F F7 FC 00 00 F0
 1.331124 1  202             Rx   d 8 00 CC 00 00 00 00 00 00
 1.350360 1  156             Rx   d 8 BA 00 00 00 00 00 00 00
 1.357909 1  76              Rx   d 8 00 00 1F F7 FC 00 00 F0
 1.376811 1  76              Rx   d 8 00 00 1F F7 FC 00 00 F0
 1.380318 1  167             Rx   d 8 00 FF FF 00 00 02 0E 00
 1.387782 1  3CA             Rx   d 8 04 00 00 00 00 00 00 00
 1.387857 1  412             Rx   d 8 7D 00 80 80 00 00 00 00
 1.387871 1  42F             Rx   d 8 7D 02 05 4E 26 0B 00 00
 1.390788 1  167             Rx   d 8 00 FF FF 00 00 02 0E 00
 1.396966 1  76              Rx   d 8 00 00 1F F7 FC 00 00 F0
 1.397161 1  20A             Rx   d 8 F1 F8 00 00 00 00 4E 20
 1.410416 1  167             Rx   d 8 00 FF FF 00 00 02 0E 00
 1.423192 1  318             Rx   d 8 00 00 00 00 00 00 00 00
 1.430451 1  167             Rx   d 8 00 FF FF 00 00 02 0E 00
 1.436880 1  48              Rx   d 8 00 00 00 00 07 00 E0 00
 1.446756 1  3CA             Rx   d 8 04 00 00 00 00 00 00 00
 1.452651 1  202             Rx   d 8 00 CC 00 00 00 00 00 00
 1.470472 1  167             Rx   d 8 00 FF FF 00 00 02 0E 00
 1.470847 1  202             Rx   d 8 00 CC 00 00 00 00 00 00
 1.471068 1  204             Rx   d 8 00 00 FF 00 00 00 00 00
 1.476696 1  76              Rx   d 8 00 00 1F F7 FC 00 00 F0
 1.476848 1  20A             Rx   d 8 F1 F8 00 00 00 00 4E 20
 1.477206 1  3CA             Rx   d 8 04 00 00 00 00 00 00 00
 1.486763 1  412             Rx   d 8 7D 00 80 80 00 00 00 00
 1.491061 1  202             Rx   d 8 00 CC 00 00 00 00 00 00
 1.499941 1  167             Rx   d 8 00 FF FF 00 00 02 0E 00
 1.511317 1  202             Rx   d 8 00 CC 00 00 00 00 00 00
 1.519912 1  167             Rx   d 8 00 FF FF 00 00 02 0E 00
 1.530903 1  167             Rx   d 8 00 FF FF 00 00 02 0E 00
 1.537445 1  48              Rx   d 8 00 00 00 00 07 00 E0 00
 1.550208 1  156             Rx   d 8 BA 00 00 00 00 00 00 00
 1.550574 1  166             Rx   d 8 76 00 00 FF FF FF 00 00
 1.551101 1  167             Rx   d 8 00 FF FF 00 00 02 0E 00
 1.551322 1  178             Rx   d 8 00 00 02 00 02 54 CA 53
 1.551567 1  179             Rx   d 8 00 00 08 00 22 FF 00 00
 1.551853 1  17C             Rx   d 8 00 00 00 00 00 00 00 00
 1.552324 1  202             Rx   d 8 00 CC 00 00 00 00 00 00
 1.552586 1  204             Rx   d 8 00 00 FF 00 00 00 00 00
 1.553360 1  3B2             Rx   d 8 44 8C C0 0C E6 00 03 3E
 1.554538 1  42D             Rx   d 8 00 03 FF 00 00 00 F0 00
 1.566833 1  3CA             Rx   d 8 04 00 00 00 00 00 00 00
 1.570564 1  167             Rx   d 8 00 FF FF 00 00 02 0E 00
 1.570597 1  171             Rx   d 8 F0 E0 00 00 00 00 00 00
 1.576784 1  76              Rx   d 8 00 00 1F F7 FC 00 00 F0
 1.590532 1  167             Rx   d 8 00 FF FF 00 00 02 0E 00
 1.610536 1  167             Rx   d 8 00 FF FF 00 00 02 0E 00
 1.617029 1  76              Rx   d 8 00 00 1F F7 FC 00 00 F0
 1.617073 1  20A             Rx   d 8 F1 F8 00 00 00 00 4E 20
 1.622634 1  287             Rx   d 8 00 00 00 00 00 00 00 00
 1.623343 1  346             Rx   d 8 00 00 00 03 03 00 C0 00
 1.630404 1  167             Rx   d 8 00 FF FF 00 00 02 0E 00
 1.636771 1  48              Rx   d 8 00 00 00 00 07 00 E0 00
 1.650634 1  156             Rx   d 8 BA 00 00 00 00 00 00 00
 1.657696 1  76              Rx   d 8 00 00 1F F7 FC 00 00 F0
 1.676777 1  76              Rx   d 8 00 00 1F F7 FC 00 00 F0
 1.687374 1  3CA             Rx   d 8 04 00 00 00 00 00 00 00
 1.699864 1  167             Rx   d 8 00 FF FF 00 00 02 0E 00
 1.720163 1  167             Rx   d 8 00 FF FF 00 00 02 0E 00
 1.731330 1  167             Rx   d 8 00 FF FF 00 00 02 0E 00
 1.750203 1  156             Rx   d 8 BA 00 00 00 00 00 00 00
 1.770502 1  167             Rx   d 8 00 FF FF 00 00 02 0E 00
 1.787364 1  412             Rx   d 8 7D 00 80 80 00 00 00 00
 1.797321 1  76              Rx   d 8 00 00 1F F7 FC 00 00 F0
 1.816741 1  76              Rx   d 8 00 00 1F F7 FC 00 00 F0
 1.836995 1  48              Rx   d 8 00 00 00 00 07 00 E0 00
 1.850191 1  156             Rx   d 8 BA 00 00 00 00 00 00 00
 1.877483 1  76              Rx   d 8 00 00 1F F7 FC 00 00 F0
 1.886916 1  412             Rx   d 8 7D 00 80 80 00 00 00 00
 1.899906 1  167             Rx   d 8 00 FF FF 00 00 02 0E 00
 1.916929 1  76              Rx   d 8 00 00 1F F7 FC 00 00 F0
 1.936858 1  48              Rx   d 8 00 00 00 00 07 00 E0 00
 1.950287 1  156             Rx   d 8 BA 00 00 00 00 00 00 00
 1.970430 1  167             Rx   d 8 00 FF FF 00 00 02 0E 00
 1.979941 1  167             Rx   d 8 00 FF FF 00 00 02 0E 00
 1.992046 1  3B4             Rx   d 8 34 21 11 FF 1E 1A 00 00
 2.010436 1  167             Rx   d 8 00 FF FF 00 00 02 0E 00
 2.030492 1  167             Rx   d 8 00 FF FF 00 00 02 0E 00
 2.036924 1  48              Rx   d 8 00 00 00 00 07 00 E0 00
 2.050160 1  156             Rx   d 8 BA 00 00 00 00 00 00 00
 2.070538 1  167             Rx   d 8 00 FF FF 00 00 02 0E 00
 2.087013 1  412             Rx   d 8 7D 00 80 80 00 00 00 00
 2.100005 1  167             Rx   d 8 00 FF FF 00 00 02 0E 00
 2.116851 1  76              Rx   d 8 00 00 1F F7 FC 00 00 F0
 2.129654 1  84              Rx   d 8 00 00 00 01 09 10 0C 00
 2.141130 1  40A             Rx   d 8 C1 01 47 41 48 4A 48 45
 2.160162 1  167             Rx   d 8 00 FF FF 00 00 02 0E 00
 2.177247 1  76              Rx   d 8 00 00 1F F7 FC 00 00 F0
 2.187030 1  412             Rx   d 8 7D 00 80 80 00 00 00 00
 2.199911 1  167             Rx   d 8 00 FF FF 00 00 02 0E 00
 2.217113 1  76              Rx   d 8 00 00 1F F7 FC 00 00 F0
 2.236966 1  48              Rx   d 8 00 00 00 00 07 00 E0 00
 2.250301 1  156             Rx   d 8 BA 00 00 00 00 00 00 00
 2.257933 1  76              Rx   d 8 00 00 1F F7 FC 00 00 F0
 2.257998 1  20A             Rx   d 8 F1 F8 00 00 00 00 4E 20
 2.260275 1  167             Rx   d 8 00 FF FF 00 00 02 0E 00
 2.262697 1  46B             Rx   d 8 B7 A0 48 00 00 00 D2 09
 2.270456 1  167             Rx   d 8 00 FF FF 00 00 02 0E 00
 2.277011 1  76              Rx   d 8 00 00 1F F7 FC 00 00 F0
 2.290677 1  167             Rx   d 8 00 FF FF 00 00 02 0E 00
 2.291231 1  202             Rx   d 8 00 CC 00 00 00 00 00 00
 2.310471 1  167             Rx   d 8 00 FF FF 00 00 02 0E 00
 2.310867 1  202             Rx   d 8 00 CC 00 00 00 00 00 00
 2.322672 1  318             Rx   d 8 00 00 00 00 00 00 00 00
 2.337302 1  48              Rx   d 8 00 00 00 00 07 00 E0 00
 2.347003 1  3CA             Rx   d 8 04 00 00 00 00 00 00 00
 2.357642 1  76              Rx   d 8 00 00 1F F7 FC 00 00 F0
 2.357796 1  20A             Rx   d 8 F1 F8 00 00 00 00 4E 20
 2.371384 1  167             Rx   d 8 00 FF FF 00 00 02 0E 00
 2.371445 1  202             Rx   d 8 00 CC 00 00 00 00 00 00
 2.377610 1  76              Rx   d 8 00 00 1F F7 FC 00 00 F0
 2.377661 1  20A             Rx   d 8 F1 F8 00 00 00 00 4E 20
 2.397042 1  76              Rx   d 8 00 00 1F F7 FC 00 00 F0
 2.411176 1  202             Rx   d 8 00 CC 00 00 00 00 00 00
 2.431085 1  204             Rx   d 8 00 00 FF 00 00 00 00 00
 2.450423 1  156             Rx   d 8 BA 00 00 00 00 00 00 00
 2.450889 1  166             Rx   d 8 76 00 00 FF FF FF 00 00
 2.467148 1  3CA             Rx   d 8 04 00 00 00 00 00 00 00
 2.480003 1  167             Rx   d 8 00 FF FF 00 00 02 0E 00
 2.499867 1  167             Rx   d 8 00 FF FF 00 00 02 0E 00
 2.517247 1  76              Rx   d 8 00 00 1F F7 FC 00 00 F0
 2.537720 1  48              Rx   d 8 00 00 00 00 07 00 E0 00
 2.557701 1  76              Rx   d 8 00 00 1F F7 FC 00 00 F0
 2.570421 1  167             Rx   d 8 00 FF FF 00 00 02 0E 00
 2.587200 1  3CA             Rx   d 8 04 00 00 00 00 00 00 00
 2.610444 1  167             Rx   d 8 00 FF FF 00 00 02 0E 00
 2.617136 1  76              Rx   d 8 00 00 1F F7 FC 00 00 F0
 2.637386 1  48              Rx   d 8 00 00 00 00 07 00 E0 00
 2.654007 1  42D             Rx   d 8 00 03 FF 00 00 00 F0 00
 2.670581 1  167             Rx   d 8 00 FF FF 00 00 02 0E 00
 2.687127 1  412             Rx   d 8 7D 00 80 80 00 00 00 00
 2.699899 1  167             Rx   d 8 00 FF FF 00 00 02 0E 00
 2.717221 1  76              Rx   d 8 00 00 1F F7 FC 00 00 F0
 2.737163 1  48              Rx   d 8 00 00 00 00 07 00 E0 00
 2.750719 1  156             Rx   d 8 BA 00 00 00 00 00 00 00
 2.767212 1  3CA             Rx   d 8 04 00 00 00 00 00 00 00
 2.777234 1  76              Rx   d 8 00 00 1F F7 FC 00 00 F0
 2.777394 1  20A             Rx   d 8 F1 F8 00 00 00 00 4E 20
 2.780286 1  167             Rx   d 8 00 FF FF 00 00 02 0E 00
 2.797207 1  76              Rx   d 8 00 00 1F F7 FC 00 00 F0
 2.817458 1  76              Rx   d 8 00 00 1F F7 FC 00 00 F0
 2.837147 1  48              Rx   d 8 00 00 00 00 07 00 E0 00
 2.857843 1  76              Rx   d 8 00 00 1F F7 FC 00 00 F0
 2.870436 1  167             Rx   d 8 00 FF FF 00 00 02 0E 00
 2.887267 1  3CA             Rx   d 8 04 00 00 00 00 00 00 00
 2.910446 1  167             Rx   d 8 00 FF FF 00 00 02 0E 00
 2.922657 1  318             Rx   d 8 00 00 00 00 00 00 00 00
 2.939986 1  167             Rx   d 8 00 FF FF 00 00 02 0E 00
 2.953606 1  42D             Rx   d 8 00 03 FF 00 00 00 F0 00
 2.970951 1  167             Rx   d 8 00 FF FF 00 00 02 0E 00
 2.979918 1  167             Rx   d 8 00 FF FF 00 00 02 0E 00
 2.997327 1  76              Rx   d 8 00 00 1F F7 FC 00 00 F0
 3.017285 1  76              Rx   d 8 00 00 1F F7 FC 00 00 F0
 3.030436 1  167             Rx   d 8 00 FF FF 00 00 02 0E 00
 3.050268 1  156             Rx   d 8 BA 00 00 00 00 00 00 00
 3.053646 1  42D             Rx   d 8 00 03 FF 00 00 00 F0 00
 3.067396 1  3CA             Rx   d 8 04 00 00 00 00 00 00 00
 3.070566 1  167             Rx   d 8 00 FF FF 00 00 02 0E 00
 3.070596 1  171             Rx   d 8 F0 E0 00 00 00 00 00 00
 3.071142 1  202             Rx   d 8 00 CC 00 00 00 00 00 00
 3.077874 1  76              Rx   d 8 00 00 1F F7 FC 00 00 F0
 3.090607 1  167             Rx   d 8 00 FF FF 00 00 02 0E 00
 3.110461 1  167             Rx   d 8 00 FF FF 00 00 02 0E 00
 3.120180 1  167             Rx   d 8 00 FF FF 00 00 02 0E 00
 3.137278 1  48              Rx   d 8 00 00 00 00 07 00 E0 00
 3.150638 1  166             Rx   d 8 76 00 00 FF FF FF 00 00
 3.152832 1  421             Rx   d 8 04 00 11 00 00 00 FF 00
 3.170429 1  167             Rx   d 8 00 FF FF 00 00 02 0E 00
 3.170831 1  202             Rx   d 8 00 CC 00 00 00 00 00 00
 3.171047 1  204             Rx   d 8 00 00 FF 00 00 00 00 00
 3.187454 1  3CA             Rx   d 8 04 00 00 00 00 00 00 00
 3.188110 1  479             Rx   d 8 00 00 00 00 00 00 00 00
 3.210411 1  167             Rx   d 8 00 FF FF 00 00 02 0E 00
 3.217392 1  76              Rx   d 8 00 00 1F F7 FC 00 00 F0
 3.230622 1  167             Rx   d 8 00 FF FF 00 00 02 0E 00
 3.250074 1  156             Rx   d 8 BA 00 00 00 00 00 00 00
 3.270550 1  167             Rx   d 8 00 FF FF 00 00 02 0E 00
 3.270863 1  202             Rx   d 8 00 CC 00 00 00 00 00 00
 3.271102 1  204             Rx   d 8 00 00 FF 00 00 00 00 00
 3.277743 1  76              Rx   d 8 00 00 1F F7 FC 00 00 F0
 3.290437 1  167             Rx   d 8 00 FF FF 00 00 02 0E 00
 3.290845 1  202             Rx   d 8 00 CC 00 00 00 00 00 00
 3.291066 1  204             Rx   d 8 00 00 FF 00 00 00 00 00
 3.297406 1  76              Rx   d 8 00 00 1F F7 FC 00 00 F0
 3.317719 1  76              Rx   d 8 00 00 1F F7 FC 00 00 F0
 3.327006 1  59E             Rx   d 8 9E 00 FF FF FF FF FF FF
 3.338080 1  108             Rx   d 8 00 04 00 00 80 00 72 64
 3.339795 1  27A             Rx   d 8 00 FF FE 00 00 00 00 00
 3.341568 1  3CA             Rx   d 8 04 00 00 00 00 00 00 00
 3.344295 1  46B             Rx   d 8 B7 A0 48 00 00 00 D2 09
 3.351618 1  17C             Rx   d 8 00 00 00 00 00 00 00 00
 3.359941 1  167             Rx   d 8 00 FF FF 00 00 02 0E 00
 3.367522 1  3CA             Rx   d 8 04 00 00 00 00 00 00 00
 3.370406 1  167             Rx   d 8 00 FF FF 00 00 02 0E 00
 3.377441 1  76              Rx   d 8 00 00 1F F7 FC 00 00 F0
 3.377598 1  20A             Rx   d 8 F1 F8 00 00 00 00 4E 20
 3.379972 1  167             Rx   d 8 00 FF FF 00 00 02 0E 00
 3.380140 1  204             Rx   d 8 00 00 FF 00 00 00 00 00
 3.387805 1  412             Rx   d 8 7D 00 80 80 00 00 00 00
 3.387863 1  42F             Rx   d 8 7D 02 05 4E 26 0B 00 00
 3.397456 1  76              Rx   d 8 00 00 1F F7 FC 00 00 F0
 3.397614 1  20A             Rx   d 8 F1 F8 00 00 00 00 4E 20
 3.397917 1  3CA             Rx   d 8 04 00 00 00 00 00 00 00
 3.417490 1  76              Rx   d 8 00 00 1F F7 FC 00 00 F0
 3.422791 1  287             Rx   d 8 00 00 00 00 00 00 00 00
 3.438599 1  42F             Rx   d 8 7D 02 05 4E 26 0B 00 00
 3.440140 1  204             Rx   d 8 00 00 FF 00 00 00 00 00
 3.458099 1  76              Rx   d 8 00 00 1F F7 FC 00 00 F0
 3.470509 1  167             Rx   d 8 00 FF FF 00 00 02 0E 00
 3.487554 1  3CA             Rx   d 8 04 00 00 00 00 00 00 00
 3.497492 1  76              Rx   d 8 00 00 1F F7 FC 00 00 F0
 3.517262 1  3B2             Rx   d 8 44 8C C0 0C E6 00 03 3E
 3.531076 1  204             Rx   d 8 00 00 FF 00 00 00 00 00
 3.550099 1  156             Rx   d 8 BA 00 00 00 00 00 00 00
 3.570575 1  167             Rx   d 8 00 FF FF 00 00 02 0E 00
 3.587565 1  412             Rx   d 8 7D 00 80 80 00 00 00 00
 3.607623 1  3CA             Rx   d 8 04 00 00 00 00 00 00 00
 3.620209 1  167             Rx   d 8 00 FF FF 00 00 02 0E 00
 3.637784 1  48              Rx   d 8 00 00 00 00 07 00 E0 00
 3.650261 1  156             Rx   d 8 BA 00 00 00 00 00 00 00
 3.667859 1  3CA             Rx   d 8 04 00 00 00 00 00 00 00
 3.677785 1  76              Rx   d 8 00 00 1F F7 FC 00 00 F0
 3.697594 1  76              Rx   d 8 00 00 1F F7 FC 00 00 F0
 3.719992 1  167             Rx   d 8 00 FF FF 00 00 02 0E 00
 3.738216 1  20A             Rx   d 8 F1 F8 00 00 00 00 4E 20
 3.759940 1  167             Rx   d 8 00 FF FF 00 00 02 0E 00
 3.777547 1  76              Rx   d 8 00 00 1F F7 FC 00 00 F0
 3.797739 1  76              Rx   d 8 00 00 1F F7 FC 00 00 F0
 3.810428 1  167             Rx   d 8 00 FF FF 00 00 02 0E 00
 3.830442 1  167             Rx   d 8 00 FF FF 00 00 02 0E 00
 3.847642 1  3CA             Rx   d 8 04 00 00 00 00 00 00 00
 3.870599 1  167             Rx   d 8 00 FF FF 00 00 02 0E 00
 3.887648 1  412             Rx   d 8 7D 00 80 80 00 00 00 00
 3.907923 1  3CA             Rx   d 8 04 00 00 00 00 00 00 00
 3.922695 1  318             Rx   d 8 00 00 00 00 00 00 00 00
 3.938301 1  20A             Rx   d 8 F1 F8 00 00 00 00 4E 20
 3.957768 1  76              Rx   d 8 00 00 1F F7 FC 00 00 F0
 3.977676 1  76              Rx   d 8 00 00 1F F7 FC 00 00 F0
 3.990505 1  167             Rx   d 8 00 FF FF 00 00 02 0E 00
 4.008245 1  3B2             Rx   d 8 44 8C C0 0C E6 00 03 3E
 4.029024 1  3CA             Rx   d 8 04 00 00 00 00 00 00 00
 4.038800 1  433             Rx   d 8 C0 00 00 00 00 A0 00 00
 4.039899 1  167             Rx   d 8 00 FF FF 00 00 02 0E 00
 4.050193 1  156             Rx   d 8 BA 00 00 00 00 00 00 00
 4.050604 1  166             Rx   d 8 76 00 00 FF FF FF 00 00
 4.050844 1  167             Rx   d 8 00 FF FF 00 00 02 0E 00
 4.051116 1  178             Rx   d 8 00 00 02 00 02 54 CA 53
 4.051339 1  179             Rx   d 8 00 00 08 00 22 FF 00 00
 4.051591 1  17C             Rx   d 8 00 00 00 00 00 00 00 00
 4.052058 1  202             Rx   d 8 00 CC 00 00 00 00 00 00
 4.052293 1  204             Rx   d 8 00 00 FF 00 00 00 00 00
 4.052800 1  421             Rx   d 8 04 00 11 00 00 00 FF 00
 4.053320 1  42D             Rx   d 8 00 03 FF 00 00 00 F0 00
 4.058268 1  76              Rx   d 8 00 00 1F F7 FC 00 00 F0
 4.058311 1  20A             Rx   d 8 F1 F8 00 00 00 00 4E 20
 4.070470 1  167             Rx   d 8 00 FF FF 00 00 02 0E 00
 4.087736 1  3CA             Rx   d 8 04 00 00 00 00 00 00 00
 4.097893 1  76              Rx   d 8 00 00 1F F7 FC 00 00 F0
 4.117666 1  76              Rx   d 8 00 00 1F F7 FC 00 00 F0
 4.138637 1  48              Rx   d 8 00 00 00 00 07 00 E0 00
 4.152307 1  202             Rx   d 8 00 CC 00 00 00 00 00 00
 4.177859 1  76              Rx   d 8 00 00 1F F7 FC 00 00 F0
 4.190318 1  167             Rx   d 8 00 FF FF 00 00 02 0E 00
 4.208257 1  3CA             Rx   d 8 04 00 00 00 00 00 00 00
 4.226536 1  3E0             Rx   d 8 00 00 00 00 80 00 00 00
 4.250892 1  156             Rx   d 8 BA 00 00 00 00 00 00 00
 4.250935 1  166             Rx   d 8 76 00 00 FF FF FF 00 00
 4.250940 1  167             Rx   d 8 00 FF FF 00 00 02 0E 00
 4.251362 1  178             Rx   d 8 00 00 02 00 02 54 CA 53
 4.252849 1  421             Rx   d 8 04 00 11 00 00 00 FF 00
 4.258327 1  76              Rx   d 8 00 00 1F F7 FC 00 00 F0
 4.258383 1  20A             Rx   d 8 F1 F8 00 00 00 00 4E 20
 4.277744 1  76              Rx   d 8 00 00 1F F7 FC 00 00 F0
 4.290444 1  167             Rx   d 8 00 FF FF 00 00 02 0E 00
 4.310410 1  167             Rx   d 8 00 FF FF 00 00 02 0E 00
 4.327513 1  59E             Rx   d 8 9E 00 FF FF FF FF FF FF
 4.350222 1  156             Rx   d 8 BA 00 00 00 00 00 00 00
 4.370600 1  167             Rx   d 8 00 FF FF 00 00 02 0E 00
 4.387899 1  3CA             Rx   d 8 04 00 00 00 00 00 00 00
 4.397877 1  76              Rx   d 8 00 00 1F F7 FC 00 00 F0
 4.417767 1  76              Rx   d 8 00 00 1F F7 FC 00 00 F0
 4.430448 1  167             Rx   d 8 00 FF FF 00 00 02 0E 00
 4.447940 1  3CA             Rx   d 8 04 00 00 00 00 00 00 00
 4.460840 1  3B5             Rx   d 8 FF FD FF FD FF FD FF FD
 4.478317 1  3CA             Rx   d 8 04 00 00 00 00 00 00 00
 4.497798 1  76              Rx   d 8 00 00 1F F7 FC 00 00 F0
 4.518017 1  76              Rx   d 8 00 00 1F F7 FC 00 00 F0
 4.530405 1  167             Rx   d 8 00 FF FF 00 00 02 0E 00
 4.550418 1  156             Rx   d 8 BA 00 00 00 00 00 00 00
 4.558177 1  76              Rx   d 8 00 00 1F F7 FC 00 00 F0
 4.577860 1  76              Rx   d 8 00 00 1F F7 FC 00 00 F0
 4.588318 1  412             Rx   d 8 7D 00 80 80 00 00 00 00
 4.610397 1  167             Rx   d 8 00 FF FF 00 00 02 0E 00
 4.623776 1  348             Rx   d 8 00 00 00 01 00 00 00 00
 4.637895 1  48              Rx   d 8 00 00 00 00 07 00 E0 00
 4.658381 1  76              Rx   d 8 00 00 1F F7 FC 00 00 F0
 4.677962 1  76              Rx   d 8 00 00 1F F7 FC 00 00 F0
 4.690336 1  167             Rx   d 8 00 FF FF 00 00 02 0E 00
 4.710443 1  167             Rx   d 8 00 FF FF 00 00 02 0E 00
 4.730447 1  167             Rx   d 8 00 FF FF 00 00 02 0E 00
 4.748379 1  3CA             Rx   d 8 04 00 00 00 00 00 00 00
 4.760104 1  204             Rx   d 8 00 00 FF 00 00 00 00 00
 4.778299 1  76              Rx   d 8 00 00 1F F7 FC 00 00 F0
 4.798259 1  76              Rx   d 8 00 00 1F F7 FC 00 00 F0
 4.818404 1  76              Rx   d 8 00 00 1F F7 FC 00 00 F0
 4.838211 1  48              Rx   d 8 00 00 00 00 07 00 E0 00
 4.850228 1  156             Rx   d 8 BA 00 00 00 00 00 00 00
 4.868027 1  3CA             Rx   d 8 04 00 00 00 00 00 00 00
 4.888253 1  412             Rx   d 8 7D 00 80 80 00 00 00 00
 4.898353 1  76              Rx   d 8 00 00 1F F7 FC 00 00 F0
 4.918021 1  76              Rx   d 8 00 00 1F F7 FC 00 00 F0
 4.928820 1  3CA             Rx   d 8 04 00 00 00 00 00 00 00
 4.950182 1  156             Rx   d 8 BA 00 00 00 00 00 00 00
 4.958319 1  76              Rx   d 8 00 00 1F F7 FC 00 00 F0
 4.978007 1  76              Rx   d 8 00 00 1F F7 FC 00 00 F0
 4.998190 1  76              Rx   d 8 00 00 1F F7 FC 00 00 F0
 5.019953 1  167             Rx   d 8 00 FF FF 00 00 02 0E 00
 5.048260 1  3CA             Rx   d 8 04 00 00 00 00 00 00 00
 5.050496 1  156             Rx   d 8 BA 00 00 00 00 00 00 00
 5.050855 1  166             Rx   d 8 76 00 00 FF FF FF 00 00
 5.051409 1  167             Rx   d 8 00 FF FF 00 00 02 0E 00
 5.053652 1  421             Rx   d 8 04 00 11 00 00 00 FF 00
 5.070529 1  167             Rx   d 8 00 FF FF 00 00 02 0E 00
 5.090422 1  167             Rx   d 8 00 FF FF 00 00 02 0E 00
 5.108192 1  3CA             Rx   d 8 04 00 00 00 00 00 00 00
 5.110796 1  167             Rx   d 8 00 FF FF 00 00 02 0E 00
 5.118471 1  76              Rx   d 8 00 00 1F F7 FC 00 00 F0
 5.139785 1  42F             Rx   d 8 7D 02 05 4E 26 0B 00 00
 5.150876 1  156             Rx   d 8 BA 00 00 00 00 00 00 00
 5.150935 1  166             Rx   d 8 76 00 00 FF FF FF 00 00
 5.168314 1  3CA             Rx   d 8 04 00 00 00 00 00 00 00
 5.177324 1  720             Rx   d 8 03 22 61 A9 00 00 00 00
 5.188626 1  412             Rx   d 8 7D 00 80 80 00 00 00 00
 5.188658 1  42F             Rx   d 8 7D 02 05 4E 26 0B 00 00
 5.190412 1  167             Rx   d 8 00 FF FF 00 00 02 0E 00
 5.190851 1  202             Rx   d 8 00 CC 00 00 00 00 00 00
 5.198123 1  76              Rx   d 8 00 00 1F F7 FC 00 00 F0
 5.198266 1  20A             Rx   d 8 F1 F8 00 00 00 00 4E 20
 5.198508 1  3CA             Rx   d 8 04 00 00 00 00 00 00 00
 5.210394 1  167             Rx   d 8 00 FF FF 00 00 02 0E 00
 5.210873 1  202             Rx   d 8 00 CC 00 00 00 00 00 00
 5.211041 1  204             Rx   d 8 00 00 FF 00 00 00 00 00
 5.216186 1  720             Rx   d 8 03 22 61 A9 00 00 00 00
 5.216340 1  331             Rx   d 8 C0 00 48 9E 04 00 00 00
 5.218130 1  76              Rx   d 8 00 00 1F F7 FC 00 00 F0
 5.218309 1  20A             Rx   d 8 F1 F8 00 00 00 00 4E 20
 5.219864 1  167             Rx   d 8 00 FF FF 00 00 02 0E 00
 5.223015 1  18B             Rx   d 8 00 00 00 1E 00 00 00 00
 5.230372 1  167             Rx   d 8 00 FF FF 00 00 02 0E 00
 5.238446 1  48              Rx   d 8 00 00 00 00 07 00 E0 00
 5.238578 1  76              Rx   d 8 00 00 1F F7 FC 00 00 F0
 5.245808 1  720             Rx   d 8 03 22 61 A9 00 00 00 00
 5.250080 1  156             Rx   d 8 BA 00 00 00 00 00 00 00
 5.251583 1  17C             Rx   d 8 00 00 00 00 00 00 00 00
 5.258287 1  20A             Rx   d 8 F1 F8 00 00 00 00 4E 20
 5.268612 1  720             Rx   d 8 03 22 61 A9 00 00 00 00
 5.270673 1  167             Rx   d 8 00 FF FF 00 00 02 0E 00
 5.278656 1  76              Rx   d 8 00 00 1F F7 FC 00 00 F0
 5.278727 1  20A             Rx   d 8 F1 F8 00 00 00 00 4E 20
 5.286563 1  40A             Rx   d 8 C0 00 00 23 61 22 24 00
 5.289054 1  3CA             Rx   d 8 04 00 00 00 00 00 00 00
 5.298360 1  76              Rx   d 8 00 00 1F F7 FC 00 00 F0
 5.298399 1  20A             Rx   d 8 F1 F8 00 00 00 00 4E 20
 5.307607 1  720             Rx   d 8 03 22 61 A9 00 00 00 00
 5.310606 1  167             Rx   d 8 00 FF FF 00 00 02 0E 00
 5.318831 1  76              Rx   d 8 00 00 1F F7 FC 00 00 F0
 5.318886 1  20A             Rx   d 8 F1 F8 00 00 00 00 4E 20
 5.327960 1  59E             Rx   d 8 9E 00 FF FF FF FF FF FF
 5.329097 1  720             Rx   d 8 03 22 61 A9 00 00 00 00
 5.342594 1  412             Rx   d 8 7D 00 80 80 00 00 00 00
 5.348293 1  3CA             Rx   d 8 04 00 00 00 00 00 00 00
 5.369065 1  720             Rx   d 8 03 22 61 A9 00 00 00 00
 5.370650 1  167             Rx   d 8 00 FF FF 00 00 02 0E 00
 5.378196 1  76              Rx   d 8 00 00 1F F7 FC 00 00 F0
 5.385094 1  3B8             Rx   d 8 FF FF FF FF 00 00 00 00
 5.392891 1  728             Rx   d 8 04 62 61 A9 00 00 00 00
 5.400324 1  167             Rx   d 8 00 FF FF 00 00 02 0E 00
 5.408284 1  720             Rx   d 8 03 22 61 A9 00 00 00 00
 5.408663 1  3CA             Rx   d 8 04 00 00 00 00 00 00 00
 5.419974 1  167             Rx   d 8 00 FF FF 00 00 02 0E 00
 5.430590 1  167             Rx   d 8 00 FF FF 00 00 02 0E 00
 5.430624 1  720             Rx   d 8 03 22 61 A9 00 00 00 00
 5.430954 1  202             Rx   d 8 00 CC 00 00 00 00 00 00
 5.431153 1  204             Rx   d 8 00 00 FF 00 00 00 00 00
 5.433030 1  728             Rx   d 8 04 62 61 A9 00 00 00 00
 5.448658 1  720             Rx   d 8 03 22 61 A9 00 00 00 00
 5.458189 1  76              Rx   d 8 00 00 1F F7 FC 00 00 F0
 5.468476 1  720             Rx   d 8 03 22 61 A9 00 00 00 00
 5.488191 1  412             Rx   d 8 7D 00 80 80 00 00 00 00
 5.498230 1  76              Rx   d 8 00 00 1F F7 FC 00 00 F0
 5.506969 1  720             Rx   d 8 03 22 61 A9 00 00 00 00
 5.510568 1  167             Rx   d 8 00 FF FF 00 00 02 0E 00
 5.518568 1  76              Rx   d 8 00 00 1F F7 FC 00 00 F0
 5.518606 1  20A             Rx   d 8 F1 F8 00 00 00 00 4E 20
 5.527554 1  720             Rx   d 8 03 22 61 A9 00 00 00 00
 5.528970 1  3CA             Rx   d 8 04 00 00 00 00 00 00 00
 5.530330 1  167             Rx   d 8 00 FF FF 00 00 02 0E 00
 5.530542 1  171             Rx   d 8 F0 E0 00 00 00 00 00 00
 5.540149 1  167             Rx   d 8 00 FF FF 00 00 02 0E 00
 5.548798 1  720             Rx   d 8 03 22 61 A9 00 00 00 00
 5.558263 1  76              Rx   d 8 00 00 1F F7 FC 00 00 F0
 5.568295 1  720             Rx   d 8 03 22 61 A9 00 00 00 00
 5.578436 1  76              Rx   d 8 00 00 1F F7 FC 00 00 F0
 5.578476 1  20A             Rx   d 8 F1 F8 00 00 00 00 4E 20
 5.580145 1  167             Rx   d 8 00 FF FF 00 00 02 0E 00
 5.580177 1  204             Rx   d 8 00 00 FF 00 00 00 00 00
 5.587168 1  720             Rx   d 8 03 22 61 A9 00 00 00 00
 5.588795 1  42C             Rx   d 8 30 31 C4 80 00 00 00 96
 5.607865 1  720             Rx   d 8 03 22 61 A9 00 00 00 00
 5.618685 1  76              Rx   d 8 00 00 1F F7 FC 00 00 F0
 5.632817 1  728             Rx   d 8 04 62 61 A9 00 00 00 00
 5.650096 1  156             Rx   d 8 BA 00 00 00 00 00 00 00
 5.669071 1  720             Rx   d 8 03 22 61 A9 00 00 00 00
 5.687592 1  720             Rx   d 8 03 22 61 A9 00 00 00 00
 5.707864 1  720             Rx   d 8 03 22 61 A9 00 00 00 00
 5.729346 1  720             Rx   d 8 03 22 61 A9 00 00 00 00
 5.738614 1  48              Rx   d 8 00 00 00 00 07 00 E0 00
 5.758836 1  76              Rx   d 8 00 00 1F F7 FC 00 00 F0
 5.758871 1  20A             Rx   d 8 F1 F8 00 00 00 00 4E 20
 5.759925 1  167             Rx   d 8 00 FF FF 00 00 02 0E 00
 5.760121 1  204             Rx   d 8 00 00 FF 00 00 00 00 00
 5.768605 1  3CA             Rx   d 8 04 00 00 00 00 00 00 00
 5.770592 1  167             Rx   d 8 00 FF FF 00 00 02 0E 00
 5.770623 1  171             Rx   d 8 F0 E0 00 00 00 00 00 00
 5.770895 1  720             Rx   d 8 03 22 61 A9 00 00 00 00
 5.771142 1  202             Rx   d 8 00 CC 00 00 00 00 00 00
 5.771437 1  204             Rx   d 8 00 00 FF 00 00 00 00 00
 5.772876 1  728             Rx   d 8 04 62 61 A9 00 00 00 00
 5.778941 1  76              Rx   d 8 00 00 1F F7 FC 00 00 F0
 5.779009 1  20A             Rx   d 8 F1 F8 00 00 00 00 4E 20
 5.779907 1  167             Rx   d 8 00 FF FF 00 00 02 0E 00
 5.790311 1  167             Rx   d 8 00 FF FF 00 00 02 0E 00
 5.807571 1  720             Rx   d 8 03 22 61 A9 00 00 00 00
 5.818725 1  76              Rx   d 8 00 00 1F F7 FC 00 00 F0
 5.832805 1  728             Rx   d 8 04 62 61 A9 00 00 00 00
 5.850107 1  156             Rx   d 8 BA 00 00 00 00 00 00 00
 5.868452 1  720             Rx   d 8 03 22 61 A9 00 00 00 00
 5.888545 1  720             Rx   d 8 03 22 61 A9 00 00 00 00
 5.898523 1  76              Rx   d 8 00 00 1F F7 FC 00 00 F0
 5.922749 1  318             Rx   d 8 00 00 00 00 00 00 00 00
 5.922906 1  346             Rx   d 8 00 00 00 03 03 00 C0 00
 5.923488 1  430             Rx   d 8 48 00 40 9B 00 20 64 00
 5.927366 1  720             Rx   d 8 03 22 61 A9 00 00 00 00
 5.930620 1  167             Rx   d 8 00 FF FF 00 00 02 0E 00
 5.931038 1  202             Rx   d 8 00 CC 00 00 00 00 00 00
 5.931049 1  204             Rx   d 8 00 00 FF 00 00 00 00 00
 5.932933 1  728             Rx   d 8 04 62 61 A9 00 00 00 00
 5.934531 1  3B5             Rx   d 8 FF FD FF FD FF FD FF FD
 5.938610 1  48              Rx   d 8 00 00 00 00 07 00 E0 00
 5.950051 1  156             Rx   d 8 BA 00 00 00 00 00 00 00
 5.968709 1  720             Rx   d 8 03 22 61 A9 00 00 00 00
 5.980466 1  167             Rx   d 8 00 FF FF 00 00 02 0E 00
 5.988420 1  412             Rx   d 8 7D 00 80 80 00 00 00 00
 5.988695 1  42F             Rx   d 8 7D 02 05 4E 26 0B 00 00
 5.998550 1  76              Rx   d 8 00 00 1F F7 FC 00 00 F0
 5.998604 1  20A             Rx   d 8 F1 F8 00 00 00 00 4E 20
 5.999865 1  167             Rx   d 8 00 FF FF 00 00 02 0E 00
 6.008687 1  3CA             Rx   d 8 04 00 00 00 00 00 00 00
 6.010835 1  720             Rx   d 8 03 22 61 A9 00 00 00 00
 6.010887 1  167             Rx   d 8 00 FF FF 00 00 02 0E 00
 6.011398 1  202             Rx   d 8 00 CC 00 00 00 00 00 00
 6.018690 1  76              Rx   d 8 00 00 1F F7 FC 00 00 F0
 6.027398 1  720             Rx   d 8 03 22 61 A9 00 00 00 00
 6.030406 1  167             Rx   d 8 00 FF FF 00 00 02 0E 00
 6.034567 1  46B             Rx   d 8 B8 A0 48 00 00 00 D2 09
 6.039824 1  433             Rx   d 8 C0 00 00 00 00 A0 00 00
 6.050232 1  156             Rx   d 8 BA 00 00 00 00 00 00 00
 6.050591 1  166             Rx   d 8 76 00 00 FF FF FF 00 00
 6.051696 1  17C             Rx   d 8 00 00 00 00 00 00 00 00
 6.068462 1  3CA             Rx   d 8 04 00 00 00 00 00 00 00
 6.071084 1  202             Rx   d 8 00 CC 00 00 00 00 00 00
 6.078629 1  76              Rx   d 8 00 00 1F F7 FC 00 00 F0
 6.088644 1  412             Rx   d 8 7D 00 80 80 00 00 00 00
 6.088679 1  42C             Rx   d 8 30 31 C4 80 00 00 00 97
 6.090454 1  167             Rx   d 8 00 FF FF 00 00 02 0E 00
 6.098418 1  76              Rx   d 8 00 00 1F F7 FC 00 00 F0
 6.108396 1  720             Rx   d 8 03 22 61 A9 00 00 00 00
 6.120753 1  331             Rx   d 8 C0 00 48 9E 04 00 00 00
 6.132924 1  728             Rx   d 8 04 62 61 A9 00 00 00 00
 6.139815 1  433             Rx   d 8 C0 00 00 00 00 A0 00 00
 6.148872 1  720             Rx   d 8 03 22 61 A9 00 00 00 00
 6.150240 1  156             Rx   d 8 BA 00 00 00 00 00 00 00
 6.150564 1  166             Rx   d 8 76 00 00 FF FF FF 00 00
 6.150795 1  167             Rx   d 8 00 FF FF 00 00 02 0E 00
 6.169535 1  720             Rx   d 8 03 22 61 A9 00 00 00 00
 6.189212 1  479             Rx   d 8 00 00 00 00 00 00 00 00
 6.207824 1  720             Rx   d 8 03 22 61 A9 00 00 00 00
 6.224054 1  2FD             Rx   d 8 09 00 00 04 FD 00 00 00
 6.238635 1  48              Rx   d 8 00 00 00 00 07 00 E0 00
 6.269809 1  40A             Rx   d 8 C1 10 40 84 20 08 80 00
 6.279005 1  76              Rx   d 8 00 00 1F F7 FC 00 00 F0
 6.307369 1  720             Rx   d 8 03 22 61 A9 00 00 00 00
 6.322815 1  318             Rx   d 8 00 00 00 00 00 00 00 00
 6.338564 1  48              Rx   d 8 00 00 00 00 07 00 E0 00
 6.359893 1  167             Rx   d 8 00 FF FF 00 00 02 0E 00
 6.368051 1  3B8             Rx   d 8 FF FF FF FF 00 00 00 00
 6.368762 1  720             Rx   d 8 03 22 61 A9 00 00 00 00
 6.368955 1  3CA             Rx   d 8 04 00 00 00 00 00 00 00
 6.370412 1  167             Rx   d 8 00 FF FF 00 00 02 0E 00
 6.370557 1  171             Rx   d 8 F0 E0 00 00 00 00 00 00
 6.371074 1  202             Rx   d 8 00 CC 00 00 00 00 00 00
 6.371318 1  204             Rx   d 8 00 00 FF 00 00 00 00 00
 6.372749 1  728             Rx   d 8 04 62 61 A9 00 00 00 00
 6.378560 1  76              Rx   d 8 00 00 1F F7 FC 00 00 F0
 6.378695 1  20A             Rx   d 8 F1 F8 00 00 00 00 4E 20
 6.379885 1  167             Rx   d 8 00 FF FF 00 00 02 0E 00
 6.380127 1  204             Rx   d 8 00 00 FF 00 00 00 00 00
 6.389576 1  720             Rx   d 8 03 22 61 A9 00 00 00 00
 6.389643 1  412             Rx   d 8 7D 00 80 80 00 00 00 00
 6.389652 1  42F             Rx   d 8 7D 02 05 4E 26 0B 00 00
 6.392707 1  728             Rx   d 8 04 62 61 A9 00 00 00 00
 6.410352 1  167             Rx   d 8 00 FF FF 00 00 02 0E 00
 6.430371 1  167             Rx   d 8 00 FF FF 00 00 02 0E 00
 6.450130 1  156             Rx   d 8 BA 00 00 00 00 00 00 00
 6.466450 1  3B2             Rx   d 8 44 8C C0 0C E6 00 03 3E
 6.487912 1  720             Rx   d 8 03 22 61 A9 00 00 00 00
 6.510598 1  167             Rx   d 8 00 FF FF 00 00 02 0E 00
 6.526976 1  720             Rx   d 8 03 22 61 A9 00 00 00 00
 6.558597 1  76              Rx   d 8 00 00 1F F7 FC 00 00 F0
 6.578758 1  76              Rx   d 8 00 00 1F F7 FC 00 00 F0
 6.588651 1  720             Rx   d 8 03 22 61 A9 00 00 00 00
 6.608536 1  720             Rx   d 8 03 22 61 A9 00 00 00 00
 6.622782 1  287             Rx   d 8 00 00 00 00 00 00 00 00
 6.638666 1  48              Rx   d 8 00 00 00 00 07 00 E0 00
 6.658757 1  76              Rx   d 8 00 00 1F F7 FC 00 00 F0
 6.678648 1  76              Rx   d 8 00 00 1F F7 FC 00 00 F0
 6.692748 1  728             Rx   d 8 04 62 61 A9 00 00 00 00
 6.710327 1  167             Rx   d 8 00 FF FF 00 00 02 0E 00
 6.727552 1  720             Rx   d 8 03 22 61 A9 00 00 00 00
 6.748797 1  720             Rx   d 8 03 22 61 A9 00 00 00 00
 6.758700 1  76              Rx   d 8 00 00 1F F7 FC 00 00 F0
 6.778704 1  76              Rx   d 8 00 00 1F F7 FC 00 00 F0
 6.798813 1  76              Rx   d 8 00 00 1F F7 FC 00 00 F0
 6.812633 1  728             Rx   d 8 04 62 61 A9 00 00 00 00
 6.830403 1  167             Rx   d 8 00 FF FF 00 00 02 0E 00
 6.848855 1  3CA             Rx   d 8 04 00 00 00 00 00 00 00
 6.870502 1  167             Rx   d 8 00 FF FF 00 00 02 0E 00
 6.882807 1  728             Rx   d 8 04 62 61 A9 00 00 00 00
 6.907231 1  3B4             Rx   d 8 34 21 11 FF 1E 1A 00 00
 6.930427 1  167             Rx   d 8 00 FF FF 00 00 02 0E 00
 6.941753 1  470             Rx   d 8 00 00 40 00 00 00 00 00
 6.968791 1  3CA             Rx   d 8 04 00 00 00 00 00 00 00
 6.978610 1  720             Rx   d 8 03 22 61 A9 00 00 00 00
 7.010400 1  167             Rx   d 8 00 FF FF 00 00 02 0E 00
 7.038692 1  48              Rx   d 8 00 00 00 00 07 00 E0 00
 7.056140 1  40A             Rx   d 8 C1 02 32 38 38 33 36 00
 7.070645 1  167             Rx   d 8 00 FF FF 00 00 02 0E 00
 7.088861 1  3CA             Rx   d 8 04 00 00 00 00 00 00 00
 7.104022 1  331             Rx   d 8 C0 00 48 9F 04 00 00 00
 7.130414 1  167             Rx   d 8 00 FF FF 00 00 02 0E 00
 7.148950 1  3CA             Rx   d 8 04 00 00 00 00 00 00 00
 7.158829 1  720             Rx   d 8 03 22 61 A9 00 00 00 00
 7.177186 1  720             Rx   d 8 03 22 61 A9 00 00 00 00
 7.196285 1  720             Rx   d 8 03 22 61 A9 00 00 00 00
 7.211123 1  202             Rx   d 8 00 CC 00 00 00 00 00 00
 7.230369 1  167             Rx   d 8 00 FF FF 00 00 02 0E 00
 7.250695 1  156             Rx   d 8 BA 00 00 00 00 00 00 00
 7.268930 1  3CA             Rx   d 8 04 00 00 00 00 00 00 00
 7.289097 1  412             Rx   d 8 7D 00 80 80 00 00 00 00
 7.310428 1  167             Rx   d 8 00 FF FF 00 00 02 0E 00
 7.322843 1  318             Rx   d 8 00 00 00 00 00 00 00 00
 7.338846 1  48              Rx   d 8 00 00 00 00 07 00 E0 00
 7.359141 1  76              Rx   d 8 00 00 1F F7 FC 00 00 F0
 7.378401 1  720             Rx   d 8 03 22 61 A9 00 00 00 00
 7.391052 1  202             Rx   d 8 00 CC 00 00 00 00 00 00
 7.409745 1  3B5             Rx   d 8 FF FD FF FD FF FD FF FD
 7.430453 1  167             Rx   d 8 00 FF FF 00 00 02 0E 00
 7.448981 1  3CA             Rx   d 8 04 00 00 00 00 00 00 00
 7.462700 1  728             Rx   d 8 04 62 61 A9 00 00 00 00
 7.478928 1  76              Rx   d 8 00 00 1F F7 FC 00 00 F0
 7.498620 1  720             Rx   d 8 03 22 61 A9 00 00 00 00
 7.509125 1  3CA             Rx   d 8 04 00 00 00 00 00 00 00
 7.530345 1  167             Rx   d 8 00 FF FF 00 00 02 0E 00
 7.538015 1  720             Rx   d 8 03 22 61 A9 00 00 00 00
 7.569279 1  3CA             Rx   d 8 04 00 00 00 00 00 00 00
 7.578930 1  76              Rx   d 8 00 00 1F F7 FC 00 00 F0
 7.589331 1  412             Rx   d 8 7D 00 80 80 00 00 00 00
 7.589411 1  42C             Rx   d 8 30 31 C4 80 00 00 00 96
 7.590436 1  167             Rx   d 8 00 FF FF 00 00 02 0E 00
 7.596647 1  720             Rx   d 8 03 22 61 A9 00 00 00 00
 7.599240 1  76              Rx   d 8 00 00 1F F7 FC 00 00 F0
 7.599419 1  20A             Rx   d 8 F1 F8 00 00 00 00 4E 20
 7.610361 1  167             Rx   d 8 00 FF FF 00 00 02 0E 00
 7.622994 1  287             Rx   d 8 00 00 00 00 00 00 00 00
 7.629931 1  3CA             Rx   d 8 04 00 00 00 00 00 00 00
 7.639025 1  48              Rx   d 8 00 00 00 00 07 00 E0 00
 7.650161 1  156             Rx   d 8 BA 00 00 00 00 00 00 00
 7.659617 1  720             Rx   d 8 03 22 61 A9 00 00 00 00
 7.659693 1  3CA             Rx   d 8 04 00 00 00 00 00 00 00
 7.670599 1  167             Rx   d 8 00 FF FF 00 00 02 0E 00
 7.671057 1  202             Rx   d 8 00 CC 00 00 00 00 00 00
 7.678999 1  76              Rx   d 8 00 00 1F F7 FC 00 00 F0
 7.679234 1  20A             Rx   d 8 F1 F8 00 00 00 00 4E 20
 7.689564 1  3CA             Rx   d 8 04 00 00 00 00 00 00 00
 7.689597 1  412             Rx   d 8 7D 00 80 80 00 00 00 00
 7.690024 1  42F             Rx   d 8 7D 02 05 4E 26 0B 00 00
 7.690042 1  479             Rx   d 8 00 00 00 00 00 00 00 00
 7.697481 1  720             Rx   d 8 03 22 61 A9 00 00 00 00
 7.710482 1  167             Rx   d 8 00 FF FF 00 00 02 0E 00
 7.719069 1  76              Rx   d 8 00 00 1F F7 FC 00 00 F0
 7.719249 1  20A             Rx   d 8 F1 F8 00 00 00 00 4E 20
 7.719516 1  3CA             Rx   d 8 04 00 00 00 00 00 00 00
 7.731121 1  204             Rx   d 8 00 00 FF 00 00 00 00 00
 7.749156 1  3CA             Rx   d 8 04 00 00 00 00 00 00 00
 7.757516 1  720             Rx   d 8 03 22 61 A9 00 00 00 00
 7.770473 1  167             Rx   d 8 00 FF FF 00 00 02 0E 00
 7.770845 1  202             Rx   d 8 00 CC 00 00 00 00 00 00
 7.771139 1  204             Rx   d 8 00 00 FF 00 00 00 00 00
 7.777382 1  720             Rx   d 8 03 22 61 A9 00 00 00 00
 7.779692 1  76              Rx   d 8 00 00 1F F7 FC 00 00 F0
 7.779736 1  20A             Rx   d 8 F1 F8 00 00 00 00 4E 20
 7.779741 1  3CA             Rx   d 8 04 00 00 00 00 00 00 00
 7.780104 1  167             Rx   d 8 00 FF FF 00 00 02 0E 00
 7.780533 1  204             Rx   d 8 00 00 FF 00 00 00 00 00
 7.797459 1  720             Rx   d 8 03 22 61 A9 00 00 00 00
 7.799814 1  167             Rx   d 8 00 FF FF 00 00 02 0E 00
 7.819378 1  76              Rx   d 8 00 00 1F F7 FC 00 00 F0
 7.838577 1  720             Rx   d 8 03 22 61 A9 00 00 00 00
 7.839014 1  48              Rx   d 8 00 00 00 00 07 00 E0 00
 7.840031 1  412             Rx   d 8 7D 00 80 80 00 00 00 00
 7.841748 1  470             Rx   d 8 00 00 40 00 00 00 00 00
 7.850286 1  156             Rx   d 8 BA 00 00 00 00 00 00 00
 7.850967 1  166             Rx   d 8 76 00 00 FF FF FF 00 00
 7.869062 1  3CA             Rx   d 8 04 00 00 00 00 00 00 00
 7.877897 1  720             Rx   d 8 03 22 61 A9 00 00 00 00
 7.879057 1  76              Rx   d 8 00 00 1F F7 FC 00 00 F0
 7.879886 1  167             Rx   d 8 00 FF FF 00 00 02 0E 00
 7.889410 1  412             Rx   d 8 7D 00 80 80 00 00 00 00
 7.889448 1  42F             Rx   d 8 7D 02 05 4E 26 0B 00 00
 7.897722 1  720             Rx   d 8 03 22 61 A9 00 00 00 00
 7.910446 1  167             Rx   d 8 00 FF FF 00 00 02 0E 00
 7.910833 1  202             Rx   d 8 00 CC 00 00 00 00 00 00
 7.911040 1  204             Rx   d 8 00 00 FF 00 00 00 00 00
 7.917977 1  720             Rx   d 8 03 22 61 A9 00 00 00 00
 7.919154 1  76              Rx   d 8 00 00 1F F7 FC 00 00 F0
 7.919299 1  20A             Rx   d 8 F1 F8 00 00 00 00 4E 20
 7.919822 1  167             Rx   d 8 00 FF FF 00 00 02 0E 00
 7.920047 1  204             Rx   d 8 00 00 FF 00 00 00 00 00
 7.929302 1  3CA             Rx   d 8 04 00 00 00 00 00 00 00
 7.930741 1  167             Rx   d 8 00 FF FF 00 00 02 0E 00
 7.930821 1  171             Rx   d 8 F0 E0 00 00 00 00 00 00
 7.931963 1  202             Rx   d 8 00 CC 00 00 00 00 00 00
 7.950116 1  156             Rx   d 8 BA 00 00 00 00 00 00 00
 7.970456 1  167             Rx   d 8 00 FF FF 00 00 02 0E 00
 7.979176 1  76              Rx   d 8 00 00 1F F7 FC 00 00 F0
 7.979853 1  167             Rx   d 8 00 FF FF 00 00 02 0E 00
 7.989630 1  3CA             Rx   d 8 04 00 00 00 00 00 00 00
 7.989661 1  412             Rx   d 8 7D 00 80 80 00 00 00 00
 7.989917 1  42F             Rx   d 8 7D 02 05 4E 26 0B 00 00
 7.990195 1  479             Rx   d 8 00 00 00 00 00 00 00 00
 7.990430 1  167             Rx   d 8 00 FF FF 00 00 02 0E 00
 7.999066 1  76              Rx   d 8 00 00 1F F7 FC 00 00 F0
 8.016724 1  720             Rx   d 8 03 22 61 A9 00 00 00 00
 8.030377 1  167             Rx   d 8 00 FF FF 00 00 02 0E 00
 8.040171 1  48              Rx   d 8 00 00 00 00 07 00 E0 00
 8.053798 1  42D             Rx   d 8 00 03 FF 00 00 00 F0 00
 8.071097 1  204             Rx   d 8 00 00 FF 00 00 00 00 00
 8.079687 1  720             Rx   d 8 03 22 61 A9 00 00 00 00
 8.080389 1  171             Rx   d 8 F0 E0 00 00 00 00 00 00
 8.090102 1  412             Rx   d 8 7D 00 80 80 00 00 00 00
 8.090161 1  42F             Rx   d 8 7D 02 05 4E 26 0B 00 00
 8.097183 1  720             Rx   d 8 03 22 61 A9 00 00 00 00
 8.110326 1  167             Rx   d 8 00 FF FF 00 00 02 0E 00
 8.117889 1  720             Rx   d 8 03 22 61 A9 00 00 00 00
 8.130365 1  167             Rx   d 8 00 FF FF 00 00 02 0E 00
 8.150139 1  156             Rx   d 8 BA 00 00 00 00 00 00 00
 8.160299 1  76              Rx   d 8 00 00 1F F7 FC 00 00 F0
 8.160372 1  20A             Rx   d 8 F1 F8 00 00 00 00 4E 20
 8.160384 1  167             Rx   d 8 00 FF FF 00 00 02 0E 00
 8.169321 1  3CA             Rx   d 8 04 00 00 00 00 00 00 00
 8.169709 1  720             Rx   d 8 03 22 61 A9 00 00 00 00
 8.179444 1  76              Rx   d 8 00 00 1F F7 FC 00 00 F0
 8.179479 1  20A             Rx   d 8 F1 F8 00 00 00 00 4E 20
 8.179868 1  167             Rx   d 8 00 FF FF 00 00 02 0E 00
 8.193057 1  591             Rx   d 8 91 00 FF FF FF FF FF FF
 8.210396 1  167             Rx   d 8 00 FF FF 00 00 02 0E 00
 8.222713 1  18B             Rx   d 8 00 00 00 1E 00 00 00 00
 8.240071 1  48              Rx   d 8 00 00 00 00 07 00 E0 00
 8.250109 1  156             Rx   d 8 BA 00 00 00 00 00 00 00
 8.262785 1  728             Rx   d 8 04 62 61 A9 00 00 00 00
 8.270663 1  167             Rx   d 8 00 FF FF 00 00 02 0E 00
 8.270875 1  202             Rx   d 8 00 CC 00 00 00 00 00 00
 8.278582 1  720             Rx   d 8 03 22 61 A9 00 00 00 00
 8.289339 1  3CA             Rx   d 8 04 00 00 00 00 00 00 00
 8.289498 1  412             Rx   d 8 7D 00 80 80 00 00 00 00
 8.289764 1  42F             Rx   d 8 7D 02 05 4E 26 0B 00 00
 8.289988 1  479             Rx   d 8 00 00 00 00 00 00 00 00
 8.290312 1  167             Rx   d 8 00 FF FF 00 00 02 0E 00
 8.290568 1  171             Rx   d 8 F0 E0 00 00 00 00 00 00
 8.291034 1  202             Rx   d 8 00 CC 00 00 00 00 00 00
 8.298531 1  720             Rx   d 8 03 22 61 A9 00 00 00 00
 8.299293 1  76              Rx   d 8 00 00 1F F7 FC 00 00 F0
 8.310551 1  167             Rx   d 8 00 FF FF 00 00 02 0E 00
 8.311211 1  202             Rx   d 8 00 CC 00 00 00 00 00 00
 8.311243 1  204             Rx   d 8 00 00 FF 00 00 00 00 00
 8.318570 1  720             Rx   d 8 03 22 61 A9 00 00 00 00
 8.328845 1  59E             Rx   d 8 9E 00 FF FF FF FF FF FF
 8.341485 1  275             Rx   d 8 00 00 00 00 00 00 00 00
 8.361434 1  720             Rx   d 8 03 22 61 A9 00 00 00 00
 8.378575 1  720             Rx   d 8 03 22 61 A9 00 00 00 00
 8.389585 1  412             Rx   d 8 7D 00 80 80 00 00 00 00
 8.409361 1  3CA             Rx   d 8 04 00 00 00 00 00 00 00
 8.422740 1  287             Rx   d 8 00 00 00 00 00 00 00 00
 8.439324 1  48              Rx   d 8 00 00 00 00 07 00 E0 00
 8.439469 1  76              Rx   d 8 00 00 1F F7 FC 00 00 F0
 8.439703 1  20A             Rx   d 8 F1 F8 00 00 00 00 4E 20
 8.439959 1  38A             Rx   d 8 4E 00 00 01 00 46 00 00
 8.440185 1  167             Rx   d 8 00 FF FF 00 00 02 0E 00
 8.451144 1  167             Rx   d 8 00 FF FF 00 00 02 0E 00
 8.453038 1  421             Rx   d 8 04 00 11 00 00 00 FF 00
 8.459928 1  167             Rx   d 8 00 FF FF 00 00 02 0E 00
 8.469690 1  3CA             Rx   d 8 04 00 00 00 00 00 00 00
 8.470954 1  167             Rx   d 8 00 FF FF 00 00 02 0E 00
 8.489421 1  412             Rx   d 8 7D 00 80 80 00 00 00 00
 8.490636 1  167             Rx   d 8 00 FF FF 00 00 02 0E 00
 8.497382 1  720             Rx   d 8 03 22 61 A9 00 00 00 00
 8.510923 1  167             Rx   d 8 00 FF FF 00 00 02 0E 00
 8.511398 1  202             Rx   d 8 00 CC 00 00 00 00 00 00
 8.511422 1  204             Rx   d 8 00 00 FF 00 00 00 00 00
 8.517651 1  720             Rx   d 8 03 22 61 A9 00 00 00 00
 8.519307 1  76              Rx   d 8 00 00 1F F7 FC 00 00 F0
 8.519555 1  20A             Rx   d 8 F1 F8 00 00 00 00 4E 20
 8.529497 1  3CA             Rx   d 8 04 00 00 00 00 00 00 00
 8.530404 1  167             Rx   d 8 00 FF FF 00 00 02 0E 00
 8.530606 1  171             Rx   d 8 F0 E0 00 00 00 00 00 00
 8.531114 1  202             Rx   d 8 00 CC 00 00 00 00 00 00
 8.537622 1  720             Rx   d 8 03 22 61 A9 00 00 00 00
 8.539816 1  48              Rx   d 8 00 00 00 00 07 00 E0 00
 8.552757 1  421             Rx   d 8 04 00 11 00 00 00 FF 00
 8.562715 1  728             Rx   d 8 04 62 61 A9 00 00 00 00
 8.570415 1  167             Rx   d 8 00 FF FF 00 00 02 0E 00
 8.570874 1  202             Rx   d 8 00 CC 00 00 00 00 00 00
 8.571011 1  204             Rx   d 8 00 00 FF 00 00 00 00 00
 8.580248 1  720             Rx   d 8 03 22 61 A9 00 00 00 00
 8.582723 1  728             Rx   d 8 04 62 61 A9 00 00 00 00
 8.589715 1  3CA             Rx   d 8 04 00 00 00 00 00 00 00
 8.590367 1  42C             Rx   d 8 30 31 C4 80 00 00 00 96
 8.599407 1  76              Rx   d 8 00 00 1F F7 FC 00 00 F0
 8.599546 1  20A             Rx   d 8 F1 F8 00 00 00 00 4E 20
 8.599818 1  167             Rx   d 8 00 FF FF 00 00 02 0E 00
 8.602795 1  728             Rx   d 8 04 62 61 A9 00 00 00 00
 8.610484 1  167             Rx   d 8 00 FF FF 00 00 02 0E 00
 8.610919 1  202             Rx   d 8 00 CC 00 00 00 00 00 00
 8.611165 1  204             Rx   d 8 00 00 FF 00 00 00 00 00
 8.618737 1  720             Rx   d 8 03 22 61 A9 00 00 00 00
 8.619414 1  76              Rx   d 8 00 00 1F F7 FC 00 00 F0
 8.622982 1  287             Rx   d 8 00 00 00 00 00 00 00 00
 8.638728 1  720             Rx   d 8 03 22 61 A9 00 00 00 00
 8.639801 1  20A             Rx   d 8 F1 F8 00 00 00 00 4E 20
 8.641052 1  433             Rx   d 8 C0 00 00 00 00 A0 00 00
 8.649462 1  3CA             Rx   d 8 04 00 00 00 00 00 00 00
 8.650093 1  156             Rx   d 8 BA 00 00 00 00 00 00 00
 8.659641 1  76              Rx   d 8 00 00 1F F7 FC 00 00 F0
 8.659679 1  20A             Rx   d 8 F1 F8 00 00 00 00 4E 20
 8.660432 1  204             Rx   d 8 00 00 FF 00 00 00 00 00
 8.670438 1  167             Rx   d 8 00 FF FF 00 00 02 0E 00
 8.670803 1  202             Rx   d 8 00 CC 00 00 00 00 00 00
 8.679739 1  76              Rx   d 8 00 00 1F F7 FC 00 00 F0
 8.679894 1  20A             Rx   d 8 F1 F8 00 00 00 00 4E 20
 8.680132 1  167             Rx   d 8 00 FF FF 00 00 02 0E 00
 8.680354 1  171             Rx   d 8 F0 E0 00 00 00 00 00 00
 8.696449 1  720             Rx   d 8 03 22 61 A9 00 00 00 00
 8.709725 1  3CA             Rx   d 8 04 00 00 00 00 00 00 00
 8.723926 1  728             Rx   d 8 04 62 61 A9 00 00 00 00
 8.731158 1  204             Rx   d 8 00 00 FF 00 00 00 00 00
 8.739583 1  48              Rx   d 8 00 00 00 00 07 00 E0 00
 8.751531 1  17C             Rx   d 8 00 00 00 00 00 00 00 00
 8.753234 1  42D             Rx   d 8 00 03 FF 00 00 00 F0 00
 8.770561 1  167             Rx   d 8 00 FF FF 00 00 02 0E 00
 8.789750 1  412             Rx   d 8 7D 00 80 80 00 00 00 00
 8.802747 1  728             Rx   d 8 04 62 61 A9 00 00 00 00
 8.819992 1  76              Rx   d 8 00 00 1F F7 FC 00 00 F0
 8.827921 1  447             Rx   d 8 20 00 00 4B 00 20 00 00
 8.839603 1  48              Rx   d 8 00 00 00 00 07 00 E0 00
 8.850962 1  156             Rx   d 8 BA 00 00 00 00 00 00 00
 8.851051 1  166             Rx   d 8 76 00 00 FF FF FF 00 00
 8.851064 1  167             Rx   d 8 00 FF FF 00 00 02 0E 00
 8.859613 1  76              Rx   d 8 00 00 1F F7 FC 00 00 F0
 8.870445 1  167             Rx   d 8 00 FF FF 00 00 02 0E 00
 8.870800 1  202             Rx   d 8 00 CC 00 00 00 00 00 00
 8.871042 1  204             Rx   d 8 00 00 FF 00 00 00 00 00
 8.873023 1  3B4             Rx   d 8 34 21 11 FF 1E 1A 00 00
 8.877666 1  720             Rx   d 8 03 22 61 A9 00 00 00 00
 8.879454 1  76              Rx   d 8 00 00 1F F7 FC 00 00 F0
 8.889813 1  3CA             Rx   d 8 04 00 00 00 00 00 00 00
 8.889857 1  412             Rx   d 8 7D 00 80 80 00 00 00 00
 8.890028 1  42F             Rx   d 8 7D 02 05 4E 26 0B 00 00
 8.897122 1  720             Rx   d 8 03 22 61 A9 00 00 00 00
 8.910361 1  167             Rx   d 8 00 FF FF 00 00 02 0E 00
 8.910800 1  202             Rx   d 8 00 CC 00 00 00 00 00 00
 8.922630 1  318             Rx   d 8 00 00 00 00 00 00 00 00
 8.940259 1  167             Rx   d 8 00 FF FF 00 00 02 0E 00
 8.952253 1  202             Rx   d 8 00 CC 00 00 00 00 00 00
 8.970405 1  167             Rx   d 8 00 FF FF 00 00 02 0E 00
 8.989545 1  412             Rx   d 8 7D 00 80 80 00 00 00 00
 9.009711 1  3CA             Rx   d 8 04 00 00 00 00 00 00 00
 9.023131 1  318             Rx   d 8 00 00 00 00 00 00 00 00
 9.040463 1  171             Rx   d 8 F0 E0 00 00 00 00 00 00
 9.059466 1  76              Rx   d 8 00 00 1F F7 FC 00 00 F0
 9.079826 1  76              Rx   d 8 00 00 1F F7 FC 00 00 F0
 9.079871 1  20A             Rx   d 8 F1 F8 00 00 00 00 4E 20
 9.082984 1  728             Rx   d 8 04 62 61 A9 00 00 00 00
 9.090412 1  412             Rx   d 8 7D 00 80 80 00 00 00 00
 9.090494 1  42C             Rx   d 8 30 31 C4 80 00 00 00 96
 9.090505 1  42F             Rx   d 8 7D 02 05 4E 26 0B 00 00
 9.090509 1  167             Rx   d 8 00 FF FF 00 00 02 0E 00
 9.110377 1  167             Rx   d 8 00 FF FF 00 00 02 0E 00
 9.117771 1  720             Rx   d 8 03 22 61 A9 00 00 00 00
 9.137326 1  720             Rx   d 8 03 22 61 A9 00 00 00 00
 9.150298 1  156             Rx   d 8 BA 00 00 00 00 00 00 00
 9.170387 1  167             Rx   d 8 00 FF FF 00 00 02 0E 00
 9.189810 1  3CA             Rx   d 8 04 00 00 00 00 00 00 00
 9.199669 1  76              Rx   d 8 00 00 1F F7 FC 00 00 F0
 9.218135 1  720             Rx   d 8 03 22 61 A9 00 00 00 00
 9.218593 1  331             Rx   d 8 C0 00 48 A2 04 00 00 00
 9.219863 1  167             Rx   d 8 00 FF FF 00 00 02 0E 00
 9.226917 1  3FB             Rx   d 8 00 00 00 00 04 00 00 00
 9.239928 1  48              Rx   d 8 00 00 00 00 07 00 E0 00
 9.239984 1  76              Rx   d 8 00 00 1F F7 FC 00 00 F0
 9.240634 1  167             Rx   d 8 00 FF FF 00 00 02 0E 00
 9.241276 1  412             Rx   d 8 7D 00 80 80 00 00 00 00
 9.249657 1  3CA             Rx   d 8 04 00 00 00 00 00 00 00
 9.250056 1  156             Rx   d 8 BA 00 00 00 00 00 00 00
 9.250526 1  166             Rx   d 8 76 00 00 FF FF FF 00 00
 9.259940 1  167             Rx   d 8 00 FF FF 00 00 02 0E 00
 9.260141 1  76              Rx   d 8 00 00 1F F7 FC 00 00 F0
 9.260518 1  204             Rx   d 8 00 00 FF 00 00 00 00 00
 9.260534 1  20A             Rx   d 8 F1 F8 00 00 00 00 4E 20
 9.267949 1  720             Rx   d 8 03 22 61 A9 00 00 00 00
 9.279838 1  76              Rx   d 8 00 00 1F F7 FC 00 00 F0
 9.279869 1  20A             Rx   d 8 F1 F8 00 00 00 00 4E 20
 9.280119 1  167             Rx   d 8 00 FF FF 00 00 02 0E 00
 9.280597 1  204             Rx   d 8 00 00 FF 00 00 00 00 00
 9.290306 1  167             Rx   d 8 00 FF FF 00 00 02 0E 00
 9.299917 1  167             Rx   d 8 00 FF FF 00 00 02 0E 00
 9.300103 1  76              Rx   d 8 00 00 1F F7 FC 00 00 F0
 9.300520 1  204             Rx   d 8 00 00 FF 00 00 00 00 00
 9.300536 1  20A             Rx   d 8 F1 F8 00 00 00 00 4E 20
 9.308397 1  720             Rx   d 8 02 10 03 00 00 00 00 00
 9.310548 1  167             Rx   d 8 00 FF FF 00 00 02 0E 00
 9.323121 1  348             Rx   d 8 00 00 00 01 00 00 00 00
 9.340175 1  167             Rx   d 8 00 FF FF 00 00 02 0E 00
 9.340213 1  48              Rx   d 8 00 00 00 00 07 00 E0 00
 9.340586 1  76              Rx   d 8 00 00 1F F7 FC 00 00 F0
 9.341855 1  108             Rx   d 8 00 04 00 00 80 00 72 64
 9.359634 1  76              Rx   d 8 00 00 1F F7 FC 00 00 F0
 9.371070 1  202             Rx   d 8 00 CC 00 00 00 00 00 00
 9.380175 1  76              Rx   d 8 00 00 1F F7 FC 00 00 F0
 9.390065 1  412             Rx   d 8 7D 00 80 80 00 00 00 00
 9.390181 1  42F             Rx   d 8 7D 02 05 4E 26 0B 00 00
 9.390891 1  202             Rx   d 8 00 CC 00 00 00 00 00 00
 9.406176 1  720             Rx   d 8 02 27 03 00 00 00 00 00
 9.422682 1  287             Rx   d 8 00 00 00 00 00 00 00 00
 9.441354 1  412             Rx   d 8 7D 00 80 80 00 00 00 00
 9.450151 1  156             Rx   d 8 BA 00 00 00 00 00 00 00
 9.450552 1  166             Rx   d 8 76 00 00 FF FF FF 00 00
 9.451007 1  178             Rx   d 8 00 00 02 00 02 54 CA 53
 9.470415 1  167             Rx   d 8 00 FF FF 00 00 02 0E 00
 9.489791 1  3CA             Rx   d 8 04 00 00 00 00 00 00 00
 9.499741 1  76              Rx   d 8 00 00 1F F7 FC 00 00 F0
 9.519727 1  76              Rx   d 8 00 00 1F F7 FC 00 00 F0
 9.530502 1  167             Rx   d 8 00 FF FF 00 00 02 0E 00
 9.549739 1  3CA             Rx   d 8 04 00 00 00 00 00 00 00
 9.570495 1  167             Rx   d 8 00 FF FF 00 00 02 0E 00
 9.580893 1  3CA             Rx   d 8 04 00 00 00 00 00 00 00
 9.599707 1  76              Rx   d 8 00 00 1F F7 FC 00 00 F0
 9.619738 1  76              Rx   d 8 00 00 1F F7 FC 00 00 F0
 9.639939 1  48              Rx   d 8 00 00 00 00 07 00 E0 00
 9.653587 1  728             Rx   d 8 05 6F 61 A9 03 64 00 00
 9.670619 1  171             Rx   d 8 F0 E0 00 00 00 00 00 00
 9.690084 1  412             Rx   d 8 7D 00 80 80 00 00 00 00
 9.703796 1  720             Rx   d 8 03 22 61 A9 00 00 00 00
 9.720050 1  167             Rx   d 8 00 FF FF 00 00 02 0E 00
 9.733552 1  720             Rx   d 8 03 22 61 A9 00 00 00 00
 9.750179 1  156             Rx   d 8 BA 00 00 00 00 00 00 00
 9.751116 1  178             Rx   d 8 00 00 02 00 02 54 CA 53
 9.770391 1  167             Rx   d 8 00 FF FF 00 00 02 0E 00
 9.790174 1  3CA             Rx   d 8 04 00 00 00 00 00 00 00
 9.799805 1  76              Rx   d 8 00 00 1F F7 FC 00 00 F0
 9.819803 1  76              Rx   d 8 00 00 1F F7 FC 00 00 F0
 9.840032 1  48              Rx   d 8 00 00 00 00 07 00 E0 00
 9.851764 1  17C             Rx   d 8 00 00 00 00 00 00 00 00
 9.860586 1  20A             Rx   d 8 F1 F8 00 00 00 00 4E 20
 9.862753 1  728             Rx   d 8 04 62 61 A9 64 00 00 00
 9.866791 1  3B5             Rx   d 8 FF FD FF FD FF FD FF FD
 9.870466 1  167             Rx   d 8 00 FF FF 00 00 02 0E 00
 9.870814 1  202             Rx   d 8 00 CC 00 00 00 00 00 00
 9.880138 1  167             Rx   d 8 00 FF FF 00 00 02 0E 00
 9.899879 1  167             Rx   d 8 00 FF FF 00 00 02 0E 00
 9.914903 1  720             Rx   d 8 03 22 61 A9 00 00 00 00
 9.939904 1  167             Rx   d 8 00 FF FF 00 00 02 0E 00
 9.950906 1  156             Rx   d 8 BA 00 00 00 00 00 00 00
 9.952091 1  202             Rx   d 8 00 CC 00 00 00 00 00 00
 9.960097 1  167             Rx   d 8 00 FF FF 00 00 02 0E 00
 9.960132 1  76              Rx   d 8 00 00 1F F7 FC 00 00 F0
 9.960373 1  204             Rx   d 8 00 00 FF 00 00 00 00 00
 9.960564 1  20A             Rx   d 8 F1 F8 00 00 00 00 4E 20
 9.974228 1  720             Rx   d 8 03 22 61 A9 00 00 00 00
 9.980410 1  167             Rx   d 8 00 FF FF 00 00 02 0E 00
 9.990632 1  412             Rx   d 8 7D 00 80 80 00 00 00 00
 9.990709 1  42F             Rx   d 8 7D 02 05 4E 26 0B 00 00
 9.990719 1  167             Rx   d 8 00 FF FF 00 00 02 0E 00
 9.999873 1  167             Rx   d 8 00 FF FF 00 00 02 0E 00
 10.000118 1  171             Rx   d 8 F0 E0 00 00 00 00 00 00
 10.000801 1  20A             Rx   d 8 F1 F8 00 00 00 00 4E 20
 10.034208 1  720             Rx   d 8 03 22 61 A9 00 00 00 00
 10.050128 1  156             Rx   d 8 BA 00 00 00 00 00 00 00
 10.064548 1  720             Rx   d 8 03 22 61 A9 00 00 00 00
 10.085411 1  46B             Rx   d 8 B7 A0 48 00 00 00 D2 09
 10.094627 1  720             Rx   d 8 03 22 61 A9 00 00 00 00
 10.103016 1  728             Rx   d 8 04 62 61 A9 64 00 00 00
 10.120087 1  167             Rx   d 8 00 FF FF 00 00 02 0E 00
 10.122550 1  720             Rx   d 8 03 22 61 A9 00 00 00 00
 10.140399 1  167             Rx   d 8 00 FF FF 00 00 02 0E 00
 10.170648 1  167             Rx   d 8 00 FF FF 00 00 02 0E 00
 10.180183 1  171             Rx   d 8 F0 E0 00 00 00 00 00 00
 10.199941 1  167             Rx   d 8 00 FF FF 00 00 02 0E 00
 10.200124 1  204             Rx   d 8 00 00 FF 00 00 00 00 00
 10.200374 1  76              Rx   d 8 00 00 1F F7 FC 00 00 F0
 10.200546 1  20A             Rx   d 8 F1 F8 00 00 00 00 4E 20
 10.201669 1  40A             Rx   d 8 C1 00 57 46 30 4A 58 58
 10.204771 1  720             Rx   d 8 03 22 61 A9 00 00 00 00
 10.210156 1  3CA             Rx   d 8 04 00 00 00 00 00 00 00
 10.210345 1  167             Rx   d 8 00 FF FF 00 00 02 0E 00
 10.210541 1  171             Rx   d 8 F0 E0 00 00 00 00 00 00
 10.213527 1  728             Rx   d 8 04 62 61 A9 64 00 00 00
 10.234285 1  720             Rx   d 8 03 22 61 A9 00 00 00 00
 10.239910 1  167             Rx   d 8 00 FF FF 00 00 02 0E 00
 10.240084 1  171             Rx   d 8 F0 E0 00 00 00 00 00 00
 10.240840 1  204             Rx   d 8 00 00 FF 00 00 00 00 00
 10.250102 1  156             Rx   d 8 BA 00 00 00 00 00 00 00
 10.250560 1  166             Rx   d 8 76 00 00 FF FF FF 00 00
 10.250770 1  167             Rx   d 8 00 FF FF 00 00 02 0E 00
 10.260000 1  76              Rx   d 8 00 00 1F F7 FC 00 00 F0
 10.260148 1  167             Rx   d 8 00 FF FF 00 00 02 0E 00
 10.260387 1  204             Rx   d 8 00 00 FF 00 00 00 00 00
 10.260626 1  20A             Rx   d 8 F1 F8 00 00 00 00 4E 20
 10.272874 1  728             Rx   d 8 04 62 61 A9 64 00 00 00
 10.280180 1  167             Rx   d 8 00 FF FF 00 00 02 0E 00
 10.280207 1  204             Rx   d 8 00 00 FF 00 00 00 00 00
 10.290630 1  412             Rx   d 8 7D 00 80 80 00 00 00 00
 10.310540 1  167             Rx   d 8 00 FF FF 00 00 02 0E 00
 10.310885 1  202             Rx   d 8 00 CC 00 00 00 00 00 00
 10.320392 1  167             Rx   d 8 00 FF FF 00 00 02 0E 00
 10.322658 1  318             Rx   d 8 00 00 00 00 00 00 00 00
 10.340158 1  167             Rx   d 8 00 FF FF 00 00 02 0E 00
 10.358879 1  3B5             Rx   d 8 FF FD FF FD FF FD FF FD
 10.370463 1  167             Rx   d 8 00 FF FF 00 00 02 0E 00
 10.390178 1  3CA             Rx   d 8 04 00 00 00 00 00 00 00
 10.398405 1  3B2             Rx   d 8 44 8C C0 0C E6 00 03 3E
 10.419860 1  167             Rx   d 8 00 FF FF 00 00 02 0E 00
 10.440073 1  167             Rx   d 8 00 FF FF 00 00 02 0E 00
 10.450525 1  3CA             Rx   d 8 04 00 00 00 00 00 00 00
 10.470383 1  167             Rx   d 8 00 FF FF 00 00 02 0E 00
 10.480198 1  167             Rx   d 8 00 FF FF 00 00 02 0E 00
 10.480264 1  171             Rx   d 8 F0 E0 00 00 00 00 00 00
 10.481041 1  204             Rx   d 8 00 00 FF 00 00 00 00 00
 10.490258 1  412             Rx   d 8 7D 00 80 80 00 00 00 00
 10.490398 1  167             Rx   d 8 00 FF FF 00 00 02 0E 00
 10.499860 1  167             Rx   d 8 00 FF FF 00 00 02 0E 00
 10.510211 1  3CA             Rx   d 8 04 00 00 00 00 00 00 00
 10.530367 1  167             Rx   d 8 00 FF FF 00 00 02 0E 00
 10.550155 1  156             Rx   d 8 BA 00 00 00 00 00 00 00
 10.562755 1  728             Rx   d 8 04 62 61 A9 64 00 00 00
 10.579874 1  167             Rx   d 8 00 FF FF 00 00 02 0E 00
 10.599934 1  167             Rx   d 8 00 FF FF 00 00 02 0E 00
 10.619932 1  167             Rx   d 8 00 FF FF 00 00 02 0E 00
 10.634130 1  720             Rx   d 8 03 22 61 A9 00 00 00 00
 10.650115 1  156             Rx   d 8 BA 00 00 00 00 00 00 00
 10.666123 1  720             Rx   d 8 03 22 61 A9 00 00 00 00
 10.680163 1  167             Rx   d 8 00 FF FF 00 00 02 0E 00
 10.699860 1  167             Rx   d 8 00 FF FF 00 00 02 0E 00
 10.720201 1  167             Rx   d 8 00 FF FF 00 00 02 0E 00
 10.739938 1  167             Rx   d 8 00 FF FF 00 00 02 0E 00
 10.751028 1  171             Rx   d 8 F0 E0 00 00 00 00 00 00
 10.770393 1  167             Rx   d 8 00 FF FF 00 00 02 0E 00
 10.790564 1  167             Rx   d 8 00 FF FF 00 00 02 0E 00
 10.800108 1  167             Rx   d 8 00 FF FF 00 00 02 0E 00
 10.819901 1  167             Rx   d 8 00 FF FF 00 00 02 0E 00
 10.835472 1  720             Rx   d 8 03 22 61 A9 00 00 00 00
 10.851394 1  179             Rx   d 8 00 00 08 00 22 FF 00 00
 10.853275 1  42D             Rx   d 8 00 03 FF 00 00 00 F0 00
 10.859910 1  167             Rx   d 8 00 FF FF 00 00 02 0E 00
 10.860117 1  204             Rx   d 8 00 00 FF 00 00 00 00 00
 10.860525 1  76              Rx   d 8 00 00 1F F7 FC 00 00 F0
 10.860736 1  20A             Rx   d 8 F1 F8 00 00 00 00 4E 20
 10.866550 1  720             Rx   d 8 03 22 61 A9 00 00 00 00
 10.870592 1  167             Rx   d 8 00 FF FF 00 00 02 0E 00
 10.870627 1  171             Rx   d 8 F0 E0 00 00 00 00 00 00
 10.879868 1  167             Rx   d 8 00 FF FF 00 00 02 0E 00
 10.890360 1  167             Rx   d 8 00 FF FF 00 00 02 0E 00
 10.911106 1  167             Rx   d 8 00 FF FF 00 00 02 0E 00
 10.930360 1  167             Rx   d 8 00 FF FF 00 00 02 0E 00
 10.949393 1  720             Rx   d 8 03 22 61 A9 00 00 00 00
 10.970371 1  167             Rx   d 8 00 FF FF 00 00 02 0E 00
 10.970782 1  202             Rx   d 8 00 CC 00 00 00 00 00 00
 10.971040 1  204             Rx   d 8 00 00 FF 00 00 00 00 00
 10.975845 1  720             Rx   d 8 03 22 61 A9 00 00 00 00
 10.980155 1  167             Rx   d 8 00 FF FF 00 00 02 0E 00
 10.980199 1  204             Rx   d 8 00 00 FF 00 00 00 00 00
 10.980973 1  76              Rx   d 8 00 00 1F F7 FC 00 00 F0
 10.981014 1  20A             Rx   d 8 F1 F8 00 00 00 00 4E 20
 10.982779 1  728             Rx   d 8 04 62 61 A9 64 00 00 00
 10.988029 1  40A             Rx   d 8 C1 10 40 84 20 08 80 00
 10.999870 1  167             Rx   d 8 00 FF FF 00 00 02 0E 00
 11.012669 1  728             Rx   d 8 04 62 61 A9 64 00 00 00
 11.030591 1  167             Rx   d 8 00 FF FF 00 00 02 0E 00
 11.050133 1  156             Rx   d 8 BA 00 00 00 00 00 00 00
 11.070492 1  167             Rx   d 8 00 FF FF 00 00 02 0E 00
 11.090366 1  167             Rx   d 8 00 FF FF 00 00 02 0E 00
 11.110784 1  167             Rx   d 8 00 FF FF 00 00 02 0E 00
 11.123126 1  348             Rx   d 8 00 00 00 01 00 00 00 00
 11.145132 1  720             Rx   d 8 03 22 61 A9 00 00 00 00
 11.170578 1  167             Rx   d 8 00 FF FF 00 00 02 0E 00
 11.190284 1  167             Rx   d 8 00 FF FF 00 00 02 0E 00
 11.210468 1  167             Rx   d 8 00 FF FF 00 00 02 0E 00
 11.219927 1  167             Rx   d 8 00 FF FF 00 00 02 0E 00
 11.239883 1  167             Rx   d 8 00 FF FF 00 00 02 0E 00
 11.259864 1  167             Rx   d 8 00 FF FF 00 00 02 0E 00
 11.279871 1  167             Rx   d 8 00 FF FF 00 00 02 0E 00
 11.290580 1  167             Rx   d 8 00 FF FF 00 00 02 0E 00
 11.310326 1  167             Rx   d 8 00 FF FF 00 00 02 0E 00
 11.323804 1  430             Rx   d 8 48 00 40 9B 00 20 64 00
 11.339885 1  167             Rx   d 8 00 FF FF 00 00 02 0E 00
 11.360031 1  167             Rx   d 8 00 FF FF 00 00 02 0E 00
 11.379884 1  167             Rx   d 8 00 FF FF 00 00 02 0E 00
 11.390368 1  167             Rx   d 8 00 FF FF 00 00 02 0E 00
 11.410399 1  167             Rx   d 8 00 FF FF 00 00 02 0E 00
 11.420147 1  167             Rx   d 8 00 FF FF 00 00 02 0E 00
 11.440049 1  167             Rx   d 8 00 FF FF 00 00 02 0E 00
 11.459915 1  167             Rx   d 8 00 FF FF 00 00 02 0E 00
 11.472733 1  728             Rx   d 8 04 62 61 A9 64 00 00 00
 11.490353 1  167             Rx   d 8 00 FF FF 00 00 02 0E 00
 11.510428 1  167             Rx   d 8 00 FF FF 00 00 02 0E 00
 11.530326 1  167             Rx   d 8 00 FF FF 00 00 02 0E 00
 11.539879 1  167             Rx   d 8 00 FF FF 00 00 02 0E 00
 11.559911 1  167             Rx   d 8 00 FF FF 00 00 02 0E 00
 11.570373 1  167             Rx   d 8 00 FF FF 00 00 02 0E 00
 11.590518 1  167             Rx   d 8 00 FF FF 00 00 02 0E 00
 11.605192 1  720             Rx   d 8 03 22 61 A9 00 00 00 00
 11.620010 1  167             Rx   d 8 00 FF FF 00 00 02 0E 00
 11.639851 1  167             Rx   d 8 00 FF FF 00 00 02 0E 00
 11.652936 1  421             Rx   d 8 04 00 11 00 00 00 FF 00
 11.670507 1  167             Rx   d 8 00 FF FF 00 00 02 0E 00
 11.690337 1  167             Rx   d 8 00 FF FF 00 00 02 0E 00
 11.710376 1  167             Rx   d 8 00 FF FF 00 00 02 0E 00
 11.719860 1  167             Rx   d 8 00 FF FF 00 00 02 0E 00
 11.740019 1  167             Rx   d 8 00 FF FF 00 00 02 0E 00
 11.753315 1  42D             Rx   d 8 00 03 FF 00 00 00 F0 00
 11.770998 1  202             Rx   d 8 00 CC 00 00 00 00 00 00
 11.790360 1  167             Rx   d 8 00 FF FF 00 00 02 0E 00
 11.810436 1  167             Rx   d 8 00 FF FF 00 00 02 0E 00
 11.830508 1  167             Rx   d 8 00 FF FF 00 00 02 0E 00
 11.842448 1  470             Rx   d 8 00 00 40 00 00 00 00 00
 11.860996 1  76              Rx   d 8 00 00 1F F7 FC 00 00 F0
 11.880048 1  167             Rx   d 8 00 FF FF 00 00 02 0E 00
 11.910375 1  167             Rx   d 8 00 FF FF 00 00 02 0E 00
 11.919999 1  167             Rx   d 8 00 FF FF 00 00 02 0E 00
 11.930624 1  167             Rx   d 8 00 FF FF 00 00 02 0E 00
 11.931009 1  202             Rx   d 8 00 CC 00 00 00 00 00 00
 11.931622 1  204             Rx   d 8 00 00 FF 00 00 00 00 00
 11.939857 1  167             Rx   d 8 00 FF FF 00 00 02 0E 00
 11.940032 1  204             Rx   d 8 00 00 FF 00 00 00 00 00
 11.950073 1  156             Rx   d 8 BA 00 00 00 00 00 00 00
 11.970354 1  167             Rx   d 8 00 FF FF 00 00 02 0E 00
 11.990416 1  167             Rx   d 8 00 FF FF 00 00 02 0E 00
 12.000168 1  167             Rx   d 8 00 FF FF 00 00 02 0E 00
 12.010541 1  167             Rx   d 8 00 FF FF 00 00 02 0E 00
 12.030420 1  167             Rx   d 8 00 FF FF 00 00 02 0E 00
 12.039995 1  167             Rx   d 8 00 FF FF 00 00 02 0E 00
 12.063519 1  720             Rx   d 8 03 22 61 A9 00 00 00 00
 12.080898 1  76              Rx   d 8 00 00 1F F7 FC 00 00 F0
 12.099841 1  167             Rx   d 8 00 FF FF 00 00 02 0E 00
 12.119997 1  167             Rx   d 8 00 FF FF 00 00 02 0E 00
 12.139865 1  167             Rx   d 8 00 FF FF 00 00 02 0E 00
 12.150800 1  167             Rx   d 8 00 FF FF 00 00 02 0E 00
 12.170300 1  167             Rx   d 8 00 FF FF 00 00 02 0E 00
 12.190493 1  167             Rx   d 8 00 FF FF 00 00 02 0E 00
 12.204237 1  720             Rx   d 8 03 22 61 A9 00 00 00 00
 12.221371 1  20A             Rx   d 8 F1 F8 00 00 00 00 4E 20
 12.234238 1  720             Rx   d 8 03 22 61 A9 00 00 00 00
 12.251302 1  178             Rx   d 8 00 00 02 00 02 54 CA 53
 12.270390 1  167             Rx   d 8 00 FF FF 00 00 02 0E 00
 12.290356 1  167             Rx   d 8 00 FF FF 00 00 02 0E 00
 12.310478 1  167             Rx   d 8 00 FF FF 00 00 02 0E 00
 12.319849 1  167             Rx   d 8 00 FF FF 00 00 02 0E 00
 12.340096 1  167             Rx   d 8 00 FF FF 00 00 02 0E 00
 12.352729 1  421             Rx   d 8 04 00 11 00 00 00 FF 00
 12.370395 1  167             Rx   d 8 00 FF FF 00 00 02 0E 00
 12.399847 1  167             Rx   d 8 00 FF FF 00 00 02 0E 00
 12.430362 1  167             Rx   d 8 00 FF FF 00 00 02 0E 00
 12.439846 1  167             Rx   d 8 00 FF FF 00 00 02 0E 00
 12.451307 1  178             Rx   d 8 00 00 02 00 02 54 CA 53
 12.480013 1  167             Rx   d 8 00 FF FF 00 00 02 0E 00
 12.499830 1  167             Rx   d 8 00 FF FF 00 00 02 0E 00
 12.520087 1  167             Rx   d 8 00 FF FF 00 00 02 0E 00
 12.530875 1  167             Rx   d 8 00 FF FF 00 00 02 0E 00
 12.550127 1  156             Rx   d 8 BA 00 00 00 00 00 00 00
 12.570561 1  167             Rx   d 8 00 FF FF 00 00 02 0E 00
 12.590361 1  167             Rx   d 8 00 FF FF 00 00 02 0E 00
 12.610358 1  167             Rx   d 8 00 FF FF 00 00 02 0E 00
 12.622898 1  30A             Rx   d 8 85 00 00 00 00 00 00 00
 12.641572 1  48              Rx   d 8 00 00 00 00 07 00 E0 00
 12.659842 1  167             Rx   d 8 00 FF FF 00 00 02 0E 00
 12.680093 1  167             Rx   d 8 00 FF FF 00 00 02 0E 00
 12.690979 1  204             Rx   d 8 00 00 FF 00 00 00 00 00
 12.710471 1  167             Rx   d 8 00 FF FF 00 00 02 0E 00
 12.730299 1  167             Rx   d 8 00 FF FF 00 00 02 0E 00
 12.750861 1  156             Rx   d 8 BA 00 00 00 00 00 00 00
 12.770319 1  167             Rx   d 8 00 FF FF 00 00 02 0E 00
 12.779871 1  167             Rx   d 8 00 FF FF 00 00 02 0E 00
 12.790557 1  167             Rx   d 8 00 FF FF 00 00 02 0E 00
 12.790592 1  171             Rx   d 8 F0 E0 00 00 00 00 00 00
 12.791099 1  202             Rx   d 8 00 CC 00 00 00 00 00 00
 12.791251 1  204             Rx   d 8 00 00 FF 00 00 00 00 00
 12.792475 1  479             Rx   d 8 00 00 00 00 00 00 00 00
 12.810309 1  167             Rx   d 8 00 FF FF 00 00 02 0E 00
 12.822519 1  720             Rx   d 8 03 22 61 A9 00 00 00 00
 12.841096 1  48              Rx   d 8 00 00 00 00 07 00 E0 00
 12.859921 1  167             Rx   d 8 00 FF FF 00 00 02 0E 00
 12.879773 1  167             Rx   d 8 00 FF FF 00 00 02 0E 00
 12.890425 1  167             Rx   d 8 00 FF FF 00 00 02 0E 00
 12.890783 1  202             Rx   d 8 00 CC 00 00 00 00 00 00
 12.891011 1  204             Rx   d 8 00 00 FF 00 00 00 00 00
 12.891740 1  412             Rx   d 8 7D 00 80 80 00 00 00 00
 12.891960 1  42F             Rx   d 8 7D 02 05 4E 26 0B 00 00
 12.900052 1  167             Rx   d 8 00 FF FF 00 00 02 0E 00
 12.900094 1  204             Rx   d 8 00 00 FF 00 00 00 00 00
 12.901660 1  76              Rx   d 8 00 00 1F F7 FC 00 00 F0
 12.901711 1  20A             Rx   d 8 F1 F8 00 00 00 00 4E 20
 12.910706 1  167             Rx   d 8 00 FF FF 00 00 02 0E 00
 12.910740 1  171             Rx   d 8 F0 E0 00 00 00 00 00 00
 12.916478 1  46B             Rx   d 8 B8 A0 48 00 00 00 D2 09
 12.940374 1  167             Rx   d 8 00 FF FF 00 00 02 0E 00
 12.951943 1  202             Rx   d 8 00 CC 00 00 00 00 00 00
 12.970288 1  167             Rx   d 8 00 FF FF 00 00 02 0E 00
 12.990326 1  167             Rx   d 8 00 FF FF 00 00 02 0E 00
 13.010473 1  167             Rx   d 8 00 FF FF 00 00 02 0E 00
 13.019918 1  167             Rx   d 8 00 FF FF 00 00 02 0E 00
 13.042148 1  42F             Rx   d 8 7D 02 05 4E 26 0B 00 00
 13.060191 1  167             Rx   d 8 00 FF FF 00 00 02 0E 00
 13.079877 1  167             Rx   d 8 00 FF FF 00 00 02 0E 00
 13.100260 1  167             Rx   d 8 00 FF FF 00 00 02 0E 00
 13.112664 1  728             Rx   d 8 04 62 61 A9 00 00 00 00
 13.139851 1  167             Rx   d 8 00 FF FF 00 00 02 0E 00
 13.159842 1  167             Rx   d 8 00 FF FF 00 00 02 0E 00
 13.170442 1  167             Rx   d 8 00 FF FF 00 00 02 0E 00
 13.190352 1  167             Rx   d 8 00 FF FF 00 00 02 0E 00
 13.210555 1  167             Rx   d 8 00 FF FF 00 00 02 0E 00
 13.216392 1  720             Rx   d 8 03 22 61 A9 00 00 00 00
 13.240049 1  167             Rx   d 8 00 FF FF 00 00 02 0E 00
 13.252683 1  421             Rx   d 8 04 00 11 00 00 00 FF 00
 13.270321 1  167             Rx   d 8 00 FF FF 00 00 02 0E 00
 13.300018 1  171             Rx   d 8 F0 E0 00 00 00 00 00 00
 13.320020 1  167             Rx   d 8 00 FF FF 00 00 02 0E 00
 13.330311 1  167             Rx   d 8 00 FF FF 00 00 02 0E 00
 13.330477 1  171             Rx   d 8 F0 E0 00 00 00 00 00 00
 13.339893 1  167             Rx   d 8 00 FF FF 00 00 02 0E 00
 13.370239 1  167             Rx   d 8 00 FF FF 00 00 02 0E 00
 13.390535 1  167             Rx   d 8 00 FF FF 00 00 02 0E 00
 13.400007 1  167             Rx   d 8 00 FF FF 00 00 02 0E 00
 13.419859 1  167             Rx   d 8 00 FF FF 00 00 02 0E 00
 13.440178 1  167             Rx   d 8 00 FF FF 00 00 02 0E 00
 13.451983 1  3CA             Rx   d 8 04 00 00 00 00 00 00 00
 13.479881 1  167             Rx   d 8 00 FF FF 00 00 02 0E 00
 13.480059 1  171             Rx   d 8 F0 E0 00 00 00 00 00 00
 13.492166 1  412             Rx   d 8 7D 00 80 80 00 00 00 00
 13.510686 1  167             Rx   d 8 00 FF FF 00 00 02 0E 00
 13.521318 1  76              Rx   d 8 00 00 1F F7 FC 00 00 F0
 13.539914 1  167             Rx   d 8 00 FF FF 00 00 02 0E 00
 13.551528 1  17C             Rx   d 8 00 00 00 00 00 00 00 00
 13.570348 1  167             Rx   d 8 00 FF FF 00 00 02 0E 00
 13.580005 1  167             Rx   d 8 00 FF FF 00 00 02 0E 00
 13.599802 1  167             Rx   d 8 00 FF FF 00 00 02 0E 00
 13.620081 1  167             Rx   d 8 00 FF FF 00 00 02 0E 00
 13.639862 1  167             Rx   d 8 00 FF FF 00 00 02 0E 00
 13.652742 1  421             Rx   d 8 04 00 11 00 00 00 FF 00
 13.670733 1  202             Rx   d 8 00 CC 00 00 00 00 00 00
 13.690693 1  167             Rx   d 8 00 FF FF 00 00 02 0E 00
 13.710283 1  167             Rx   d 8 00 FF FF 00 00 02 0E 00
 13.739874 1  167             Rx   d 8 00 FF FF 00 00 02 0E 00
 13.751234 1  178             Rx   d 8 00 00 02 00 02 54 CA 53
 13.770423 1  167             Rx   d 8 00 FF FF 00 00 02 0E 00
 13.787975 1  3B4             Rx   d 8 34 21 11 FF 1E 1A 00 00
 13.810496 1  167             Rx   d 8 00 FF FF 00 00 02 0E 00
 13.822633 1  287             Rx   d 8 00 00 00 00 00 00 00 00
 13.839834 1  167             Rx   d 8 00 FF FF 00 00 02 0E 00
 13.859863 1  167             Rx   d 8 00 FF FF 00 00 02 0E 00
 13.880000 1  167             Rx   d 8 00 FF FF 00 00 02 0E 00
 13.893041 1  728             Rx   d 8 04 62 61 A9 00 00 00 00
 13.910319 1  167             Rx   d 8 00 FF FF 00 00 02 0E 00
 13.930462 1  167             Rx   d 8 00 FF FF 00 00 02 0E 00
 13.942059 1  48              Rx   d 8 00 00 00 00 07 00 E0 00
 13.960018 1  167             Rx   d 8 00 FF FF 00 00 02 0E 00
 13.979844 1  167             Rx   d 8 00 FF FF 00 00 02 0E 00
 13.993599 1  728             Rx   d 8 04 62 61 A9 00 00 00 00
 14.010322 1  167             Rx   d 8 00 FF FF 00 00 02 0E 00
 14.023081 1  30A             Rx   d 8 85 00 00 00 00 00 00 00
 14.041619 1  48              Rx   d 8 00 00 00 00 07 00 E0 00
 14.059840 1  167             Rx   d 8 00 FF FF 00 00 02 0E 00
 14.079877 1  167             Rx   d 8 00 FF FF 00 00 02 0E 00
 14.100059 1  167             Rx   d 8 00 FF FF 00 00 02 0E 00
 14.119864 1  167             Rx   d 8 00 FF FF 00 00 02 0E 00
 14.140049 1  167             Rx   d 8 00 FF FF 00 00 02 0E 00
 14.150152 1  156             Rx   d 8 BA 00 00 00 00 00 00 00
 14.170357 1  167             Rx   d 8 00 FF FF 00 00 02 0E 00
 14.179885 1  167             Rx   d 8 00 FF FF 00 00 02 0E 00
 14.199820 1  167             Rx   d 8 00 FF FF 00 00 02 0E 00
 14.210336 1  167             Rx   d 8 00 FF FF 00 00 02 0E 00
 14.226863 1  3E0             Rx   d 8 00 00 00 00 80 00 00 00
 14.248733 1  720             Rx   d 8 02 3E 00 00 00 00 00 00
 14.262241 1  3CA             Rx   d 8 04 00 00 00 00 00 00 00
 14.281940 1  76              Rx   d 8 00 00 1F F7 FC 00 00 F0
 14.299901 1  167             Rx   d 8 00 FF FF 00 00 02 0E 00
 14.310354 1  167             Rx   d 8 00 FF FF 00 00 02 0E 00
 14.322859 1  318             Rx   d 8 00 00 00 00 00 00 00 00
 14.339914 1  167             Rx   d 8 00 FF FF 00 00 02 0E 00
 14.354222 1  720             Rx   d 8 03 22 61 A9 00 00 00 00
 14.379878 1  167             Rx   d 8 00 FF FF 00 00 02 0E 00
 14.390307 1  167             Rx   d 8 00 FF FF 00 00 02 0E 00
 14.410503 1  167             Rx   d 8 00 FF FF 00 00 02 0E 00
 14.424484 1  434             Rx   d 8 40 00 70 00 20 4D 28 00
 14.441903 1  48              Rx   d 8 00 00 00 00 07 00 E0 00
 14.461689 1  76              Rx   d 8 00 00 1F F7 FC 00 00 F0
