date Fri Mar 21 07:02:17.205 PM 2025
base hex  timestamps absolute
internal events logged
Begin Triggerblock Fri Mar 21 07:02:17.209 PM 2025
 0.000000 Start of measurement
 0.000000 1  0               Tx   d 8 00 00 00 00 00 00 00 00
 0.000057 1  ErrorFrame
 0.000267 1  0               Tx   d 8 00 00 00 00 00 00 00 00
 0.000880 1  0               Tx   d 8 00 00 00 00 00 00 00 00
 0.001914 1  76              Rx   d 8 00 00 1F F7 FC 00 00 F0
 0.002054 1  20A             Rx   d 8 F1 F8 00 00 00 00 4E 20
 0.002790 1  167             Rx   d 8 00 FF FF 00 00 02 0E 00
 0.002974 1  204             Rx   d 8 00 00 FF 00 00 00 00 00
 0.009152 1  0               Tx   d 8 00 00 00 00 00 00 00 00
 0.009398 1  0               Tx   d 8 00 00 00 00 00 00 00 00
 0.011289 1  0               Tx   d 8 00 00 00 00 00 00 00 00
 0.011575 1  0               Tx   d 8 00 00 00 00 00 00 00 00
 0.011883 1  0               Tx   d 8 00 00 00 00 00 00 00 00
 0.012178 1  3CA             Rx   d 8 04 00 00 00 00 00 00 00
 0.012345 1  0               Tx   d 8 00 00 00 00 00 00 00 00
 0.012597 1  0               Tx   d 8 00 00 00 00 00 00 00 00
 0.012850 1  0               Tx   d 8 00 00 00 00 00 00 00 00
 0.013105 1  0               Tx   d 8 00 00 00 00 00 00 00 00
 0.013355 1  0               Tx   d 8 00 00 00 00 00 00 00 00
 0.013638 1  0               Tx   d 8 00 00 00 00 00 00 00 00
 0.013870 1  0               Tx   d 8 00 00 00 00 00 00 00 00
 0.014118 1  0               Tx   d 8 00 00 00 00 00 00 00 00
 0.014384 1  0               Tx   d 8 00 00 00 00 00 00 00 00
 0.014668 1  156             Rx   d 8 BA 00 00 00 00 00 00 00
 0.014951 1  0               Tx   d 8 00 00 00 00 00 00 00 00
 0.015178 1  0               Tx   d 8 00 00 00 00 00 00 00 00
 0.015408 1  0               Tx   d 8 00 00 00 00 00 00 00 00
 0.015665 1  0               Tx   d 8 00 00 00 00 00 00 00 00
 0.015900 1  0               Tx   d 8 00 00 00 00 00 00 00 00
 0.016221 1  0               Tx   d 8 00 00 00 00 00 00 00 00
 0.016392 1  0               Tx   d 8 00 00 00 00 00 00 00 00
 0.016659 1  0               Tx   d 8 00 00 00 00 00 00 00 00
 0.016903 1  0               Tx   d 8 00 00 00 00 00 00 00 00
 0.017160 1  0               Tx   d 8 00 00 00 00 00 00 00 00
 0.017428 1  166             Rx   d 8 76 00 00 FF FF FF 00 00
 0.017653 1  0               Tx   d 8 00 00 00 00 00 00 00 00
 0.017909 1  0               Tx   d 8 00 00 00 00 00 00 00 00
 0.018162 1  167             Rx   d 8 00 FF FF 00 00 02 0E 00
 0.018394 1  178             Rx   d 8 00 00 02 00 02 54 CA 53
 0.018645 1  179             Rx   d 8 00 00 08 00 22 FF 00 00
 0.018894 1  17C             Rx   d 8 00 00 00 00 00 00 00 00
 0.019144 1  202             Rx   d 8 00 CC 00 00 00 00 00 00
 0.019388 1  204             Rx   d 8 00 00 FF 00 00 00 00 00
 0.019635 1  421             Rx   d 8 04 00 11 00 00 00 FF 00
 0.019943 1  42D             Rx   d 8 00 03 FF 00 00 00 F0 00
 0.021737 1  0               Tx   d 8 00 00 00 00 00 00 00 00
 0.021960 1  48              Rx   d 8 00 00 00 00 07 00 E0 00
 0.022194 1  76              Rx   d 8 00 00 1F F7 FC 00 00 F0
 0.022439 1  77              Rx   d 8 1F FE 0F FE 00 01 00 00
 0.022686 1  108             Rx   d 8 00 04 00 00 80 00 72 64
 0.022924 1  109             Rx   d 8 00 00 EE 00 00 00 04 01
 0.023176 1  14C             Rx   d 8 08 00 00 01 00 00 00 00
 0.023419 1  167             Rx   d 8 00 FF FF 00 00 02 0E 00
 0.023672 1  171             Rx   d 8 F0 E0 00 00 00 00 00 00
 0.023924 1  204             Rx   d 8 00 00 FF 00 00 00 00 00
 0.024182 1  20A             Rx   d 8 F1 F8 00 00 00 00 4E 20
 0.024499 1  275             Rx   d 8 00 00 00 00 00 00 00 00
 0.024728 1  277             Rx   d 8 00 00 00 00 02 53 00 00
 0.024936 1  0               Tx   d 8 00 00 00 00 00 00 00 00
 0.025390 1  0               Tx   d 8 00 00 00 00 00 00 00 00
 0.025403 1  279             Rx   d 8 00 50 00 3C A8 96 01 00
 0.025865 1  0               Tx   d 8 00 00 00 00 00 00 00 00
 0.025879 1  27A             Rx   d 8 00 FF FE 00 00 00 00 00
 0.025883 1  ErrorFrame
 0.026220 1  0               Tx   d 8 00 00 00 00 00 00 00 00
 0.026439 1  303             Rx   d 8 00 00 00 00 00 00 00 00
 0.026905 1  3A8             Rx   d 8 06 00 00 00 00 00 00 00
 0.026927 1  3B3             Rx   d 8 44 80 00 0C FE 00 00 00
 0.027190 1  0               Tx   d 8 00 00 00 00 00 00 00 00
 0.027411 1  3D0             Rx   d 8 01 0F 48 FA 80 00 1F FE
 0.027775 1  0               Tx   d 8 00 00 00 00 00 00 00 00
 0.027909 1  412             Rx   d 8 7D 00 80 80 00 00 00 00
 0.028222 1  0               Tx   d 8 00 00 00 00 00 00 00 00
 0.028411 1  424             Rx   d 8 00 26 80 03 00 00 30 00
 0.028666 1  0               Tx   d 8 00 00 00 00 00 00 00 00
 0.028945 1  42C             Rx   d 8 30 31 C4 80 00 00 00 97
 0.029151 1  0               Tx   d 8 00 00 00 00 00 00 00 00
 0.029411 1  0               Tx   d 8 00 00 00 00 00 00 00 00
 0.029676 1  42F             Rx   d 8 7D 02 05 4E 26 0B 00 00
 0.030026 1  431             Rx   d 8 00 00 00 00 00 00 00 00
 0.030191 1  432             Rx   d 8 00 00 00 00 00 00 00 00
 0.030467 1  433             Rx   d 8 C0 00 00 00 00 90 00 00
 0.030727 1  46A             Rx   d 8 00 00 00 88 00 10 C0 00
 0.030861 1  46B             Rx   d 8 B7 A0 48 00 00 00 D2 09
 0.031125 1  0               Tx   d 8 00 00 00 00 00 00 00 00
 0.031385 1  470             Rx   d 8 00 00 40 00 00 00 00 00
 0.033384 1  167             Rx   d 8 00 FF FF 00 00 02 0E 00
 0.033748 1  202             Rx   d 8 00 CC 00 00 00 00 00 00
 0.033949 1  204             Rx   d 8 00 00 FF 00 00 00 00 00
 0.036824 1  0               Tx   d 8 00 00 00 00 00 00 00 00
 0.039256 1  0               Tx   d 8 00 00 00 00 00 00 00 00
 0.041828 1  0               Tx   d 8 00 00 00 00 00 00 00 00
 0.042049 1  76              Rx   d 8 00 00 1F F7 FC 00 00 F0
 0.042242 1  20A             Rx   d 8 F1 F8 00 00 00 00 4E 20
 0.042552 1  3CA             Rx   d 8 04 00 00 00 00 00 00 00
 0.042866 1  167             Rx   d 8 00 FF FF 00 00 02 0E 00
 0.043108 1  204             Rx   d 8 00 00 FF 00 00 00 00 00
 0.044261 1  0               Tx   d 8 00 00 00 00 00 00 00 00
 0.044822 1  0               Tx   d 8 00 00 00 00 00 00 00 00
 0.045842 1  0               Tx   d 8 00 00 00 00 00 00 00 00
 0.046184 1  0               Tx   d 8 00 00 00 00 00 00 00 00
 0.048766 1  0               Tx   d 8 00 00 00 00 00 00 00 00
 0.049343 1  0               Tx   d 8 00 00 00 00 00 00 00 00
 0.051381 1  0               Tx   d 8 00 00 00 00 00 00 00 00
 0.052503 1  0               Tx   d 8 00 00 00 00 00 00 00 00
 0.053348 1  167             Rx   d 8 00 FF FF 00 00 02 0E 00
 0.053625 1  171             Rx   d 8 F0 E0 00 00 00 00 00 00
 0.054028 1  202             Rx   d 8 00 CC 00 00 00 00 00 00
 0.054212 1  204             Rx   d 8 00 00 FF 00 00 00 00 00
 0.056485 1  40A             Rx   d 8 C1 01 47 41 48 4A 48 45
 0.058072 1  0               Tx   d 8 00 00 00 00 00 00 00 00
 0.058436 1  0               Tx   d 8 00 00 00 00 00 00 00 00
 0.059362 1  0               Tx   d 8 00 00 00 00 00 00 00 00
 0.060072 1  0               Tx   d 8 00 00 00 00 00 00 00 00
 0.062090 1  76              Rx   d 8 00 00 1F F7 FC 00 00 F0
 0.062138 1  20A             Rx   d 8 F1 F8 00 00 00 00 4E 20
 0.062855 1  167             Rx   d 8 00 FF FF 00 00 02 0E 00
 0.063135 1  204             Rx   d 8 00 00 FF 00 00 00 00 00
 0.063354 1  0               Tx   d 8 00 00 00 00 00 00 00 00
 0.064408 1  287             Rx   d 8 00 00 00 00 00 00 00 00
 0.064841 1  30A             Rx   d 8 85 00 00 00 00 00 00 00
 0.064859 1  318             Rx   d 8 00 00 00 00 00 00 00 00
 0.065337 1  346             Rx   d 8 00 00 00 03 03 00 C0 00
 0.065352 1  348             Rx   d 8 00 00 00 01 00 00 00 00
 0.065620 1  0               Tx   d 8 00 00 00 00 00 00 00 00
 0.065949 1  430             Rx   d 8 48 00 4E 20 00 20 64 00
 0.066113 1  434             Rx   d 8 40 00 70 00 20 4D 28 00
 0.066395 1  0               Tx   d 8 00 00 00 00 00 00 00 00
 0.069108 1  0               Tx   d 8 00 00 00 00 00 00 00 00
 0.071946 1  0               Tx   d 8 00 00 00 00 00 00 00 00
 0.072136 1  3CA             Rx   d 8 04 00 00 00 00 00 00 00
 0.072560 1  412             Rx   d 8 7D 00 80 80 00 00 00 00
 0.072584 1  42F             Rx   d 8 7D 02 05 4E 26 0B 00 00
 0.072909 1  479             Rx   d 8 00 00 00 00 00 00 00 00
 0.073333 1  167             Rx   d 8 00 FF FF 00 00 02 0E 00
 0.073808 1  202             Rx   d 8 00 CC 00 00 00 00 00 00
 0.073997 1  204             Rx   d 8 00 00 FF 00 00 00 00 00
 0.076734 1  0               Tx   d 8 00 00 00 00 00 00 00 00
 0.077601 1  0               Tx   d 8 00 00 00 00 00 00 00 00
 0.079665 1  0               Tx   d 8 00 00 00 00 00 00 00 00
 0.080505 1  0               Tx   d 8 00 00 00 00 00 00 00 00
 0.081973 1  76              Rx   d 8 00 00 1F F7 FC 00 00 F0
 0.082101 1  20A             Rx   d 8 F1 F8 00 00 00 00 4E 20
 0.082822 1  167             Rx   d 8 00 FF FF 00 00 02 0E 00
 0.082979 1  171             Rx   d 8 F0 E0 00 00 00 00 00 00
 0.083283 1  204             Rx   d 8 00 00 FF 00 00 00 00 00
 0.085932 1  0               Tx   d 8 00 00 00 00 00 00 00 00
 0.086228 1  0               Tx   d 8 00 00 00 00 00 00 00 00
 0.086679 1  0               Tx   d 8 00 00 00 00 00 00 00 00
 0.087078 1  0               Tx   d 8 00 00 00 00 00 00 00 00
 0.087616 1  0               Tx   d 8 00 00 00 00 00 00 00 00
End TriggerBlock
