date Fri Mar 21 06:42:18.165 PM 2025
base hex  timestamps absolute
internal events logged
Begin Triggerblock Fri Mar 21 06:42:49.642 PM 2025
 0.000000 Start of measurement
 0.000000 1  59E             Rx   d 8 9E 00 FF FF FF FF FF FF
 0.000749 1  48              Rx   d 8 00 00 00 00 04 00 E0 00
 0.000966 1  4A              Rx   d 8 02 00 00 00 00 00 00 00
 0.001215 1  4B              Rx   d 8 00 00 00 00 00 00 00 00
 0.001457 1  76              Rx   d 8 00 00 1F F7 FC 00 00 F0
 0.001704 1  77              Rx   d 8 1F FE 0F FE 00 01 00 00
 0.001946 1  108             Rx   d 8 00 04 00 00 80 00 72 64
 0.002190 1  109             Rx   d 8 00 00 EE 00 00 00 04 01
 0.002438 1  14C             Rx   d 8 08 00 00 01 00 00 00 00
 0.002680 1  20A             Rx   d 8 F1 F8 00 00 00 00 4E 20
 0.002931 1  263             Rx   d 8 00 00 00 00 00 00 00 00
 0.003181 1  275             Rx   d 8 00 00 00 00 00 00 00 00
 0.003429 1  277             Rx   d 8 00 00 00 00 02 53 00 00
 0.003661 1  279             Rx   d 8 00 50 00 3C A8 96 01 00
 0.003926 1  27A             Rx   d 8 00 FF FE 00 00 00 00 00
 0.004164 1  303             Rx   d 8 00 00 00 00 00 00 00 00
 0.004414 1  307             Rx   d 8 06 00 00 00 00 00 00 00
 0.004650 1  38A             Rx   d 8 4E 00 00 01 00 46 00 00
 0.004900 1  3A8             Rx   d 8 06 00 00 00 00 00 00 00
 0.005149 1  3AE             Rx   d 8 00 00 00 00 00 00 00 00
 0.005471 1  3B3             Rx   d 8 20 80 00 0C FE 00 00 00
 0.005662 1  3CA             Rx   d 8 04 00 00 00 00 00 00 00
 0.005894 1  3D0             Rx   d 8 01 0F 48 DC 80 00 1F FE
 0.006138 1  412             Rx   d 8 7D 00 80 80 00 00 00 00
 0.006377 1  424             Rx   d 8 00 26 80 03 00 00 30 00
 0.006616 1  42C             Rx   d 8 30 31 C4 80 00 00 00 97
 0.006854 1  42F             Rx   d 8 7D 02 05 4E 26 0B 00 00
 0.007102 1  431             Rx   d 8 00 00 00 00 00 00 00 00
 0.007349 1  432             Rx   d 8 00 00 00 00 00 00 00 00
 0.007597 1  167             Rx   d 8 00 FF FF 00 00 02 0F 00
 0.007840 1  171             Rx   d 8 F0 E0 00 00 00 00 00 00
 0.008084 1  433             Rx   d 8 C0 00 00 00 00 90 00 00
 0.008334 1  202             Rx   d 8 00 CC 00 00 00 00 00 00
 0.008581 1  204             Rx   d 8 00 00 FF 00 00 00 00 00
 0.008824 1  46A             Rx   d 8 00 00 00 88 00 10 C0 00
 0.009060 1  46B             Rx   d 8 B8 A0 48 00 00 00 D2 09
 0.009314 1  470             Rx   d 8 00 00 40 00 00 00 00 00
 0.009564 1  479             Rx   d 8 00 00 00 00 00 00 00 00
 0.016947 1  167             Rx   d 8 00 FF FF 00 00 02 0F 00
 0.017081 1  204             Rx   d 8 00 00 FF 00 00 00 00 00
 0.020367 1  76              Rx   d 8 00 00 1F F7 FC 00 00 F0
 0.020525 1  20A             Rx   d 8 F1 F8 00 00 00 00 4E 20
 0.027369 1  167             Rx   d 8 00 FF FF 00 00 02 0F 00
 0.027806 1  202             Rx   d 8 00 CC 00 00 00 00 00 00
 0.028026 1  204             Rx   d 8 00 00 FF 00 00 00 00 00
 0.031101 1  3CA             Rx   d 8 04 00 00 00 00 00 00 00
 0.036897 1  167             Rx   d 8 00 FF FF 00 00 02 0F 00
 0.037028 1  171             Rx   d 8 F0 E0 00 00 00 00 00 00
 0.037352 1  204             Rx   d 8 00 00 FF 00 00 00 00 00
 0.040539 1  76              Rx   d 8 00 00 1F F7 FC 00 00 F0
 0.040699 1  20A             Rx   d 8 F1 F8 00 00 00 00 4E 20
 0.045039 1  40A             Rx   d 8 C1 01 47 41 48 4A 48 45
 0.045844 1  42C             Rx   d 8 30 30 C4 80 00 00 00 96
 0.047306 1  167             Rx   d 8 00 FF FF 00 00 02 0F 00
 0.047827 1  202             Rx   d 8 00 CC 00 00 00 00 00 00
 0.048051 1  204             Rx   d 8 00 00 FF 00 00 00 00 00
 0.051034 1  412             Rx   d 8 7D 00 80 80 00 00 00 00
 0.051205 1  42F             Rx   d 8 7D 02 05 4E 26 0B 00 00
 0.056868 1  167             Rx   d 8 00 FF FF 00 00 02 0F 00
 0.057040 1  204             Rx   d 8 00 00 FF 00 00 00 00 00
 0.060564 1  76              Rx   d 8 00 00 1F F7 FC 00 00 F0
 0.060605 1  20A             Rx   d 8 F1 F8 00 00 00 00 4E 20
 0.060876 1  3CA             Rx   d 8 04 00 00 00 00 00 00 00
 0.067514 1  167             Rx   d 8 00 FF FF 00 00 02 0F 00
 0.067552 1  171             Rx   d 8 F0 E0 00 00 00 00 00 00
 0.068053 1  202             Rx   d 8 00 CC 00 00 00 00 00 00
 0.068258 1  204             Rx   d 8 00 00 FF 00 00 00 00 00
 0.076921 1  167             Rx   d 8 00 FF FF 00 00 02 0F 00
 0.077055 1  204             Rx   d 8 00 00 FF 00 00 00 00 00
 0.080383 1  76              Rx   d 8 00 00 1F F7 FC 00 00 F0
 0.080552 1  20A             Rx   d 8 F1 F8 00 00 00 00 4E 20
 0.085563 1  46B             Rx   d 8 B9 A0 48 00 00 00 D2 01
 0.087059 1  156             Rx   d 8 BA 00 00 00 00 00 00 00
 0.087511 1  166             Rx   d 8 76 00 00 FF FF FF 00 00
 0.087786 1  167             Rx   d 8 00 FF FF 00 00 02 0F 00
 0.088013 1  178             Rx   d 8 00 00 02 00 02 54 CA 53
 0.088241 1  179             Rx   d 8 00 00 08 00 22 FF 00 00
 0.088496 1  17C             Rx   d 8 00 00 00 00 00 00 00 00
 0.088974 1  202             Rx   d 8 00 CC 00 00 00 00 00 00
 0.089227 1  204             Rx   d 8 00 00 FF 00 00 00 00 00
 0.089697 1  421             Rx   d 8 04 00 11 00 00 00 FF 00
 0.090217 1  42D             Rx   d 8 00 03 FF 00 00 00 F0 00
 0.091589 1  3CA             Rx   d 8 04 00 00 00 00 00 00 00
 0.092840 1  331             Rx   d 8 C0 00 48 DC 02 00 00 00
 0.097145 1  167             Rx   d 8 00 FF FF 00 00 02 0F 00
 0.097189 1  171             Rx   d 8 F0 E0 00 00 00 00 00 00
 0.097341 1  204             Rx   d 8 00 00 FF 00 00 00 00 00
 0.100737 1  48              Rx   d 8 00 00 00 00 04 00 E0 00
 0.100774 1  76              Rx   d 8 00 00 1F F7 FC 00 00 F0
 0.101012 1  20A             Rx   d 8 F1 F8 00 00 00 00 4E 20
 0.101238 1  38A             Rx   d 8 4E 00 00 01 00 46 00 00
 0.101477 1  412             Rx   d 8 7D 00 80 80 00 00 00 00
 0.101712 1  42F             Rx   d 8 7D 02 05 4E 26 0B 00 00
 0.101969 1  433             Rx   d 8 C0 00 00 00 00 90 00 00
 0.102216 1  470             Rx   d 8 00 00 40 00 00 00 00 00
 0.107591 1  167             Rx   d 8 00 FF FF 00 00 02 0F 00
 0.107859 1  202             Rx   d 8 00 CC 00 00 00 00 00 00
 0.108012 1  204             Rx   d 8 00 00 FF 00 00 00 00 00
 0.116888 1  167             Rx   d 8 00 FF FF 00 00 02 0F 00
 0.117054 1  204             Rx   d 8 00 00 FF 00 00 00 00 00
 0.120424 1  76              Rx   d 8 00 00 1F F7 FC 00 00 F0
 0.120555 1  20A             Rx   d 8 F1 F8 00 00 00 00 4E 20
 0.120834 1  3CA             Rx   d 8 04 00 00 00 00 00 00 00
 0.123597 1  331             Rx   d 8 C0 00 00 00 02 00 00 00
 0.123766 1  3B2             Rx   d 8 10 88 C0 0C E6 00 03 3C
 0.123978 1  3C3             Rx   d 8 40 88 20 E8 01 00 81 00
 0.125722 1  3B3             Rx   d 8 10 80 00 0C FE 00 00 00
 0.127384 1  167             Rx   d 8 00 FF FF 00 00 02 0F 00
 0.127568 1  171             Rx   d 8 F0 E0 00 00 00 00 00 00
 0.128132 1  202             Rx   d 8 00 CC 00 00 00 00 00 00
 0.128317 1  204             Rx   d 8 00 00 FF 00 00 00 00 00
 0.131179 1  48              Rx   d 8 00 00 00 00 00 00 E0 00
 0.137020 1  167             Rx   d 8 00 FF FF 00 00 02 0F 00
 0.137061 1  204             Rx   d 8 00 00 FF 00 00 00 00 00
 0.140527 1  76              Rx   d 8 00 00 1F F7 FC 00 00 F0
 0.140732 1  20A             Rx   d 8 F1 F8 00 00 00 00 4E 20
 0.147353 1  167             Rx   d 8 00 FF FF 00 00 02 0F 00
 0.147797 1  202             Rx   d 8 00 CC 00 00 00 00 00 00
 0.148003 1  204             Rx   d 8 00 00 FF 00 00 00 00 00
 0.151124 1  3CA             Rx   d 8 04 00 00 00 00 00 00 00
 0.151254 1  412             Rx   d 8 7D 00 80 80 00 00 00 00
 0.151529 1  42F             Rx   d 8 7D 02 05 4E 26 0B 00 00
 0.151781 1  3B2             Rx   d 8 14 88 C0 0C E6 00 03 3C
 0.152028 1  479             Rx   d 8 00 00 00 00 00 00 00 00
 0.155353 1  3B3             Rx   d 8 14 80 00 0C FE 00 00 00
 0.156820 1  167             Rx   d 8 00 FF FF 00 00 02 0F 00
 0.157054 1  171             Rx   d 8 F0 E0 00 00 00 00 00 00
 0.157280 1  204             Rx   d 8 00 00 FF 00 00 00 00 00
 0.160580 1  76              Rx   d 8 00 00 1F F7 FC 00 00 F0
 0.160773 1  20A             Rx   d 8 F1 F8 00 00 00 00 4E 20
 0.167692 1  167             Rx   d 8 00 FF FF 00 00 02 0F 00
 0.168333 1  202             Rx   d 8 00 CC 00 00 00 00 00 00
 0.168383 1  204             Rx   d 8 00 00 FF 00 00 00 00 00
 0.177051 1  167             Rx   d 8 00 FF FF 00 00 02 0F 00
 0.177105 1  204             Rx   d 8 00 00 FF 00 00 00 00 00
 0.180354 1  76              Rx   d 8 00 00 1F F7 FC 00 00 F0
 0.180581 1  20A             Rx   d 8 F1 F8 00 00 00 00 4E 20
 0.180829 1  3CA             Rx   d 8 04 00 00 00 00 00 00 00
 0.187104 1  156             Rx   d 8 BA 00 00 00 00 00 00 00
 0.187546 1  166             Rx   d 8 76 00 00 FF FF FF 00 00
 0.187808 1  167             Rx   d 8 00 FF FF 00 00 02 0F 00
 0.188011 1  171             Rx   d 8 F0 E0 00 00 00 00 00 00
 0.188283 1  178             Rx   d 8 00 00 02 00 02 54 CA 53
 0.188513 1  179             Rx   d 8 00 00 08 00 22 FF 00 00
 0.188794 1  17C             Rx   d 8 00 00 00 00 00 00 00 00
 0.189265 1  202             Rx   d 8 00 CC 00 00 00 00 00 00
 0.189475 1  204             Rx   d 8 00 00 FF 00 00 00 00 00
 0.189966 1  421             Rx   d 8 04 00 11 00 00 00 FF 00
 0.190465 1  42D             Rx   d 8 00 03 FF 00 00 00 F0 00
 0.197104 1  167             Rx   d 8 00 FF FF 00 00 02 0F 00
 0.197147 1  204             Rx   d 8 00 00 FF 00 00 00 00 00
 0.200666 1  48              Rx   d 8 00 00 00 00 00 00 E0 00
 0.200705 1  76              Rx   d 8 00 00 1F F7 FC 00 00 F0
 0.200939 1  14C             Rx   d 8 08 00 00 01 00 00 00 00
 0.201139 1  20A             Rx   d 8 F1 F8 00 00 00 00 4E 20
 0.201420 1  412             Rx   d 8 7D 00 80 80 00 00 00 00
 0.201621 1  42F             Rx   d 8 7D 02 05 4E 26 0B 00 00
 0.201974 1  433             Rx   d 8 C0 00 00 00 00 90 00 00
 0.202280 1  470             Rx   d 8 00 00 40 00 00 00 00 00
 0.207612 1  167             Rx   d 8 00 FF FF 00 00 02 0F 00
 0.208334 1  202             Rx   d 8 00 CC 00 00 00 00 00 00
 0.208354 1  204             Rx   d 8 00 00 FF 00 00 00 00 00
 0.211445 1  3CA             Rx   d 8 04 00 00 00 00 00 00 00
 0.216854 1  167             Rx   d 8 00 FF FF 00 00 02 0F 00
 0.217038 1  171             Rx   d 8 F0 E0 00 00 00 00 00 00
 0.217299 1  204             Rx   d 8 00 00 FF 00 00 00 00 00
 0.220568 1  76              Rx   d 8 00 00 1F F7 FC 00 00 F0
 0.220747 1  20A             Rx   d 8 F1 F8 00 00 00 00 4E 20
 0.227350 1  167             Rx   d 8 00 FF FF 00 00 02 0F 00
 0.227788 1  202             Rx   d 8 00 CC 00 00 00 00 00 00
 0.228017 1  204             Rx   d 8 00 00 FF 00 00 00 00 00
 0.237123 1  167             Rx   d 8 00 FF FF 00 00 02 0F 00
 0.237164 1  204             Rx   d 8 00 00 FF 00 00 00 00 00
 0.241139 1  76              Rx   d 8 00 00 1F F7 FC 00 00 F0
 0.241188 1  20A             Rx   d 8 F1 F8 00 00 00 00 4E 20
 0.241193 1  3CA             Rx   d 8 04 00 00 00 00 00 00 00
 0.241914 1  40A             Rx   d 8 C1 02 32 38 38 33 36 00
 0.247387 1  167             Rx   d 8 00 FF FF 00 00 02 0F 00
 0.247525 1  171             Rx   d 8 F0 E0 00 00 00 00 00 00
 0.248002 1  202             Rx   d 8 00 CC 00 00 00 00 00 00
 0.248236 1  204             Rx   d 8 00 00 FF 00 00 00 00 00
 0.251181 1  412             Rx   d 8 7D 00 80 80 00 00 00 00
 0.251397 1  42C             Rx   d 8 30 30 C4 80 00 00 00 96
 0.251642 1  42F             Rx   d 8 7D 02 05 4E 26 0B 00 00
 0.257048 1  167             Rx   d 8 00 FF FF 00 00 02 0F 00
 0.257079 1  204             Rx   d 8 00 00 FF 00 00 00 00 00
 0.260436 1  76              Rx   d 8 00 00 1F F7 FC 00 00 F0
 0.260633 1  20A             Rx   d 8 F1 F8 00 00 00 00 4E 20
 0.267429 1  167             Rx   d 8 00 FF FF 00 00 02 0F 00
 0.267814 1  202             Rx   d 8 00 CC 00 00 00 00 00 00
 0.268025 1  204             Rx   d 8 00 00 FF 00 00 00 00 00
 0.271456 1  3CA             Rx   d 8 04 00 00 00 00 00 00 00
 0.277114 1  167             Rx   d 8 00 FF FF 00 00 02 0F 00
 0.277145 1  171             Rx   d 8 F0 E0 00 00 00 00 00 00
 0.277339 1  204             Rx   d 8 00 00 FF 00 00 00 00 00
 0.280883 1  76              Rx   d 8 00 00 1F F7 FC 00 00 F0
 0.281047 1  20A             Rx   d 8 F1 F8 00 00 00 00 4E 20
 0.287090 1  156             Rx   d 8 BA 00 00 00 00 00 00 00
 0.287507 1  166             Rx   d 8 76 00 00 FF FF FF 00 00
 0.287806 1  167             Rx   d 8 00 FF FF 00 00 02 0F 00
 0.288033 1  178             Rx   d 8 00 00 02 00 02 54 CA 53
 0.288251 1  179             Rx   d 8 00 00 08 00 22 FF 00 00
 0.288490 1  17C             Rx   d 8 00 00 00 00 00 00 00 00
 0.288972 1  202             Rx   d 8 00 CC 00 00 00 00 00 00
 0.289235 1  204             Rx   d 8 00 00 FF 00 00 00 00 00
 0.289770 1  421             Rx   d 8 04 00 11 00 00 00 FF 00
 0.290558 1  42D             Rx   d 8 00 03 FF 00 00 00 F0 00
 0.296890 1  167             Rx   d 8 00 FF FF 00 00 02 0F 00
 0.297075 1  204             Rx   d 8 00 00 FF 00 00 00 00 00
 0.300735 1  48              Rx   d 8 00 00 00 00 00 00 E0 00
 0.300775 1  76              Rx   d 8 00 00 1F F7 FC 00 00 F0
 0.300954 1  20A             Rx   d 8 F1 F8 00 00 00 00 4E 20
 0.301269 1  3CA             Rx   d 8 04 00 00 00 00 00 00 00
 0.301385 1  412             Rx   d 8 7D 00 80 80 00 00 00 00
 0.301662 1  42F             Rx   d 8 7D 02 05 4E 26 0B 00 00
 0.301953 1  433             Rx   d 8 C0 00 00 00 00 90 00 00
 0.302170 1  470             Rx   d 8 00 00 40 00 00 00 00 00
 0.302497 1  479             Rx   d 8 00 00 00 00 00 00 00 00
 0.307411 1  167             Rx   d 8 00 FF FF 00 00 02 0F 00
 0.307564 1  171             Rx   d 8 F0 E0 00 00 00 00 00 00
 0.308019 1  202             Rx   d 8 00 CC 00 00 00 00 00 00
 0.308260 1  204             Rx   d 8 00 00 FF 00 00 00 00 00
 0.308979 1  84              Rx   d 8 00 00 00 01 02 0E 0C 00
 0.316884 1  167             Rx   d 8 00 FF FF 00 00 02 0F 00
 0.317051 1  204             Rx   d 8 00 00 FF 00 00 00 00 00
 0.320832 1  76              Rx   d 8 00 00 1F F7 FC 00 00 F0
 0.320988 1  20A             Rx   d 8 F1 F8 00 00 00 00 4E 20
 0.327355 1  167             Rx   d 8 00 FF FF 00 00 02 0F 00
 0.327767 1  202             Rx   d 8 00 CC 00 00 00 00 00 00
 0.328014 1  204             Rx   d 8 00 00 FF 00 00 00 00 00
 0.331133 1  3CA             Rx   d 8 04 00 00 00 00 00 00 00
 0.337110 1  167             Rx   d 8 00 FF FF 00 00 02 0F 00
 0.337153 1  171             Rx   d 8 F0 E0 00 00 00 00 00 00
 0.337350 1  204             Rx   d 8 00 00 FF 00 00 00 00 00
 0.340344 1  3B8             Rx   d 8 FF FF FF FF 00 00 00 00
 0.340980 1  76              Rx   d 8 00 00 1F F7 FC 00 00 F0
 0.341167 1  20A             Rx   d 8 F1 F8 00 00 00 00 4E 20
 0.347560 1  167             Rx   d 8 00 FF FF 00 00 02 0F 00
 0.348080 1  202             Rx   d 8 00 CC 00 00 00 00 00 00
 0.348102 1  204             Rx   d 8 00 00 FF 00 00 00 00 00
 0.351151 1  412             Rx   d 8 7D 00 80 80 00 00 00 00
 0.351362 1  42F             Rx   d 8 7D 02 05 4E 26 0B 00 00
 0.356861 1  167             Rx   d 8 00 FF FF 00 00 02 0F 00
 0.357068 1  204             Rx   d 8 00 00 FF 00 00 00 00 00
 0.359306 1  3C3             Rx   d 8 40 88 00 E8 01 00 81 00
 0.360754 1  76              Rx   d 8 00 00 1F F7 FC 00 00 F0
 0.360943 1  20A             Rx   d 8 F1 F8 00 00 00 00 4E 20
 0.361190 1  3CA             Rx   d 8 04 00 00 00 00 00 00 00
 0.367375 1  167             Rx   d 8 00 FF FF 00 00 02 0F 00
 0.367531 1  171             Rx   d 8 F0 E0 00 00 00 00 00 00
 0.368088 1  202             Rx   d 8 00 CC 00 00 00 00 00 00
 0.368322 1  204             Rx   d 8 00 00 FF 00 00 00 00 00
 0.376922 1  167             Rx   d 8 00 FF FF 00 00 02 0F 00
 0.377071 1  204             Rx   d 8 00 00 FF 00 00 00 00 00
 0.380879 1  76              Rx   d 8 00 00 1F F7 FC 00 00 F0
 0.380912 1  20A             Rx   d 8 F1 F8 00 00 00 00 4E 20
 0.387090 1  156             Rx   d 8 BA 00 00 00 00 00 00 00
 0.387506 1  166             Rx   d 8 76 00 00 FF FF FF 00 00
 0.387768 1  167             Rx   d 8 00 FF FF 00 00 02 0F 00
 0.387985 1  178             Rx   d 8 00 00 02 00 02 54 CA 53
 0.388230 1  179             Rx   d 8 00 00 08 00 22 FF 00 00
 0.388483 1  17C             Rx   d 8 00 00 00 00 00 00 00 00
 0.388962 1  202             Rx   d 8 00 CC 00 00 00 00 00 00
 0.389271 1  204             Rx   d 8 00 00 FF 00 00 00 00 00
 0.389765 1  421             Rx   d 8 04 00 11 00 00 00 FF 00
 0.390588 1  42D             Rx   d 8 00 03 FF 00 00 00 F0 00
 0.392068 1  3CA             Rx   d 8 04 00 00 00 00 00 00 00
 0.396897 1  167             Rx   d 8 00 FF FF 00 00 02 0F 00
 0.397046 1  171             Rx   d 8 F0 E0 00 00 00 00 00 00
 0.397309 1  204             Rx   d 8 00 00 FF 00 00 00 00 00
 0.398854 1  3B5             Rx   d 8 FF FD FF FD FF FD FF FD
 0.400895 1  48              Rx   d 8 00 00 00 00 00 00 E0 00
 0.401072 1  76              Rx   d 8 00 00 1F F7 FC 00 00 F0
 0.401325 1  14C             Rx   d 8 08 00 00 01 00 00 00 00
 0.401553 1  20A             Rx   d 8 F1 F8 00 00 00 00 4E 20
 0.401814 1  412             Rx   d 8 7D 00 80 80 00 00 00 00
 0.402066 1  42F             Rx   d 8 7D 02 05 4E 26 0B 00 00
 0.402329 1  433             Rx   d 8 C0 00 00 00 00 90 00 00
 0.402702 1  470             Rx   d 8 00 00 40 00 00 00 00 00
 0.407443 1  167             Rx   d 8 00 FF FF 00 00 02 0F 00
 0.407864 1  202             Rx   d 8 00 CC 00 00 00 00 00 00
 0.408097 1  204             Rx   d 8 00 00 FF 00 00 00 00 00
 0.417239 1  167             Rx   d 8 00 FF FF 00 00 02 0F 00
 0.417287 1  204             Rx   d 8 00 00 FF 00 00 00 00 00
 0.420532 1  76              Rx   d 8 00 00 1F F7 FC 00 00 F0
 0.420700 1  20A             Rx   d 8 F1 F8 00 00 00 00 4E 20
 0.420937 1  3CA             Rx   d 8 04 00 00 00 00 00 00 00
 0.427361 1  167             Rx   d 8 00 FF FF 00 00 02 0F 00
 0.427499 1  171             Rx   d 8 F0 E0 00 00 00 00 00 00
 0.428084 1  202             Rx   d 8 00 CC 00 00 00 00 00 00
 0.428302 1  204             Rx   d 8 00 00 FF 00 00 00 00 00
 0.436902 1  167             Rx   d 8 00 FF FF 00 00 02 0F 00
 0.437091 1  204             Rx   d 8 00 00 FF 00 00 00 00 00
 0.438524 1  3B2             Rx   d 8 14 88 C0 0C E6 00 03 3C
 0.438559 1  40A             Rx   d 8 C1 04 01 8A 07 54 85 41
 0.441487 1  76              Rx   d 8 00 00 1F F7 FC 00 00 F0
 0.441527 1  20A             Rx   d 8 F1 F8 00 00 00 00 4E 20
 0.447457 1  167             Rx   d 8 00 FF FF 00 00 02 0F 00
 0.447906 1  202             Rx   d 8 00 CC 00 00 00 00 00 00
 0.448092 1  204             Rx   d 8 00 00 FF 00 00 00 00 00
 0.451493 1  3CA             Rx   d 8 04 00 00 00 00 00 00 00
 0.451542 1  412             Rx   d 8 7D 00 80 80 00 00 00 00
 0.452021 1  42F             Rx   d 8 7D 02 05 4E 26 0B 00 00
 0.452043 1  479             Rx   d 8 00 00 00 00 00 00 00 00
 0.456915 1  167             Rx   d 8 00 FF FF 00 00 02 0F 00
 0.467880 1  202             Rx   d 8 00 CC 00 00 00 00 00 00
 0.480985 1  76              Rx   d 8 00 00 1F F7 FC 00 00 F0
 0.500597 1  48              Rx   d 8 00 00 00 00 00 00 E0 00
 0.511449 1  3CA             Rx   d 8 04 00 00 00 00 00 00 00
 0.521309 1  76              Rx   d 8 00 00 1F F7 FC 00 00 F0
 0.527325 1  167             Rx   d 8 00 FF FF 00 00 02 0F 00
 0.547827 1  167             Rx   d 8 00 FF FF 00 00 02 0F 00
 0.556893 1  167             Rx   d 8 00 FF FF 00 00 02 0F 00
 0.567901 1  202             Rx   d 8 00 CC 00 00 00 00 00 00
 0.577118 1  167             Rx   d 8 00 FF FF 00 00 02 0F 00
 0.587338 1  156             Rx   d 8 BA 00 00 00 00 00 00 00
 0.596916 1  167             Rx   d 8 00 FF FF 00 00 02 0F 00
 0.607313 1  167             Rx   d 8 00 FF FF 00 00 02 0F 00
 0.617147 1  167             Rx   d 8 00 FF FF 00 00 02 0F 00
 0.631279 1  3CA             Rx   d 8 04 00 00 00 00 00 00 00
 0.647401 1  167             Rx   d 8 00 FF FF 00 00 02 0F 00
 0.667351 1  167             Rx   d 8 00 FF FF 00 00 02 0F 00
 0.687191 1  156             Rx   d 8 BA 00 00 00 00 00 00 00
 0.707348 1  167             Rx   d 8 00 FF FF 00 00 02 0F 00
 0.720759 1  76              Rx   d 8 00 00 1F F7 FC 00 00 F0
 0.740716 1  76              Rx   d 8 00 00 1F F7 FC 00 00 F0
 0.761084 1  76              Rx   d 8 00 00 1F F7 FC 00 00 F0
 0.776878 1  167             Rx   d 8 00 FF FF 00 00 02 0F 00
 0.789994 1  421             Rx   d 8 04 00 11 00 00 00 FF 00
 0.811477 1  3CA             Rx   d 8 04 00 00 00 00 00 00 00
 0.827590 1  167             Rx   d 8 00 FF FF 00 00 02 0F 00
 0.847332 1  167             Rx   d 8 00 FF FF 00 00 02 0F 00
 0.867391 1  167             Rx   d 8 00 FF FF 00 00 02 0F 00
 0.881071 1  76              Rx   d 8 00 00 1F F7 FC 00 00 F0
 0.900756 1  48              Rx   d 8 00 00 00 00 00 00 E0 00
 0.920946 1  76              Rx   d 8 00 00 1F F7 FC 00 00 F0
 0.936871 1  167             Rx   d 8 00 FF FF 00 00 02 0F 00
 0.956940 1  167             Rx   d 8 00 FF FF 00 00 02 0F 00
 0.976927 1  167             Rx   d 8 00 FF FF 00 00 02 0F 00
 0.987080 1  156             Rx   d 8 BA 00 00 00 00 00 00 00
 1.005722 1  432             Rx   d 8 00 00 00 00 00 00 00 00
 1.027459 1  167             Rx   d 8 00 FF FF 00 00 02 0F 00
 1.037144 1  167             Rx   d 8 00 FF FF 00 00 02 0F 00
 1.037198 1  204             Rx   d 8 00 00 FF 00 00 00 00 00
 1.041001 1  76              Rx   d 8 00 00 1F F7 FC 00 00 F0
 1.041034 1  20A             Rx   d 8 F1 F8 00 00 00 00 4E 20
 1.047372 1  167             Rx   d 8 00 FF FF 00 00 02 0F 00
 1.047799 1  202             Rx   d 8 00 CC 00 00 00 00 00 00
 1.048017 1  204             Rx   d 8 00 00 FF 00 00 00 00 00
 1.051448 1  3CA             Rx   d 8 04 00 00 00 00 00 00 00
 1.051629 1  412             Rx   d 8 7D 00 80 80 00 00 00 00
 1.051870 1  42F             Rx   d 8 7D 02 05 4E 26 0B 00 00
 1.052092 1  479             Rx   d 8 00 00 00 00 00 00 00 00
 1.057060 1  167             Rx   d 8 00 FF FF 00 00 02 0F 00
 1.061032 1  76              Rx   d 8 00 00 1F F7 FC 00 00 F0
 1.075769 1  331             Rx   d 8 C0 00 00 00 02 00 00 00
 1.089236 1  202             Rx   d 8 00 CC 00 00 00 00 00 00
 1.111858 1  3CA             Rx   d 8 04 00 00 00 00 00 00 00
 1.127479 1  167             Rx   d 8 00 FF FF 00 00 02 0F 00
 1.141183 1  76              Rx   d 8 00 00 1F F7 FC 00 00 F0
 1.160827 1  76              Rx   d 8 00 00 1F F7 FC 00 00 F0
 1.171577 1  3CA             Rx   d 8 04 00 00 00 00 00 00 00
 1.189005 1  202             Rx   d 8 00 CC 00 00 00 00 00 00
 1.216933 1  167             Rx   d 8 00 FF FF 00 00 02 0F 00
 1.227299 1  167             Rx   d 8 00 FF FF 00 00 02 0F 00
 1.247345 1  167             Rx   d 8 00 FF FF 00 00 02 0F 00
 1.267415 1  167             Rx   d 8 00 FF FF 00 00 02 0F 00
 1.277025 1  167             Rx   d 8 00 FF FF 00 00 02 0F 00
 1.288981 1  202             Rx   d 8 00 CC 00 00 00 00 00 00
 1.311760 1  84              Rx   d 8 00 00 00 01 02 0F 0C 00
 1.320860 1  76              Rx   d 8 00 00 1F F7 FC 00 00 F0
 1.341117 1  76              Rx   d 8 00 00 1F F7 FC 00 00 F0
 1.347654 1  167             Rx   d 8 00 FF FF 00 00 02 0F 00
 1.361028 1  76              Rx   d 8 00 00 1F F7 FC 00 00 F0
 1.381218 1  76              Rx   d 8 00 00 1F F7 FC 00 00 F0
 1.400915 1  48              Rx   d 8 00 00 00 00 00 00 E0 00
 1.411902 1  3CA             Rx   d 8 04 00 00 00 00 00 00 00
 1.429813 1  3B2             Rx   d 8 20 88 C0 0C E6 00 03 3E
 1.447615 1  167             Rx   d 8 00 FF FF 00 00 02 0F 00
 1.467345 1  167             Rx   d 8 00 FF FF 00 00 02 0F 00
 1.481085 1  76              Rx   d 8 00 00 1F F7 FC 00 00 F0
 1.501271 1  48              Rx   d 8 00 00 00 00 04 00 E0 00
 1.517225 1  167             Rx   d 8 00 FF FF 00 00 02 0F 00
 1.536884 1  167             Rx   d 8 00 FF FF 00 00 02 0F 00
 1.556876 1  167             Rx   d 8 00 FF FF 00 00 02 0F 00
 1.577196 1  167             Rx   d 8 00 FF FF 00 00 02 0F 00
 1.596828 1  167             Rx   d 8 00 FF FF 00 00 02 0F 00
 1.617098 1  167             Rx   d 8 00 FF FF 00 00 02 0F 00
 1.637054 1  167             Rx   d 8 00 FF FF 00 00 02 0F 00
 1.657191 1  167             Rx   d 8 00 FF FF 00 00 02 0F 00
 1.676895 1  167             Rx   d 8 00 FF FF 00 00 02 0F 00
 1.690163 1  421             Rx   d 8 04 00 11 00 00 00 FF 00
 1.707338 1  167             Rx   d 8 00 FF FF 00 00 02 0F 00
 1.721199 1  76              Rx   d 8 00 00 1F F7 FC 00 00 F0
 1.741092 1  76              Rx   d 8 00 00 1F F7 FC 00 00 F0
 1.757071 1  167             Rx   d 8 00 FF FF 00 00 02 0F 00
 1.776915 1  167             Rx   d 8 00 FF FF 00 00 02 0F 00
 1.790228 1  42D             Rx   d 8 00 03 FF 00 00 00 F0 00
 1.814580 1  38D             Rx   d 8 20 00 00 00 00 00 08 F0
 1.831792 1  3CA             Rx   d 8 04 00 00 00 00 00 00 00
 1.847313 1  167             Rx   d 8 00 FF FF 00 00 02 0F 00
 1.867333 1  167             Rx   d 8 00 FF FF 00 00 02 0F 00
 1.887177 1  156             Rx   d 8 BA 00 00 00 00 00 00 00
 1.901228 1  48              Rx   d 8 00 00 00 00 07 00 E0 00
 1.916301 1  42C             Rx   d 8 30 30 C4 80 00 00 00 97
 1.932389 1  3B2             Rx   d 8 80 8C C0 0C E6 00 03 3C
 1.947342 1  167             Rx   d 8 00 FF FF 00 00 02 0F 00
 1.967537 1  167             Rx   d 8 00 FF FF 00 00 02 0F 00
 1.987153 1  156             Rx   d 8 BA 00 00 00 00 00 00 00
 2.003102 1  277             Rx   d 8 00 00 00 00 02 53 00 00
 2.021318 1  76              Rx   d 8 00 00 1F F7 FC 00 00 F0
 2.037128 1  167             Rx   d 8 00 FF FF 00 00 02 0F 00
 2.056843 1  167             Rx   d 8 00 FF FF 00 00 02 0F 00
 2.072159 1  3CA             Rx   d 8 04 00 00 00 00 00 00 00
 2.088246 1  179             Rx   d 8 00 00 08 00 22 FF 00 00
 2.107338 1  167             Rx   d 8 00 FF FF 00 00 02 0F 00
 2.127433 1  167             Rx   d 8 00 FF FF 00 00 02 0F 00
 2.147309 1  167             Rx   d 8 00 FF FF 00 00 02 0F 00
 2.156856 1  167             Rx   d 8 00 FF FF 00 00 02 0F 00
 2.177308 1  167             Rx   d 8 00 FF FF 00 00 02 0F 00
 2.196922 1  167             Rx   d 8 00 FF FF 00 00 02 0F 00
 2.216887 1  167             Rx   d 8 00 FF FF 00 00 02 0F 00
 2.227980 1  202             Rx   d 8 00 CC 00 00 00 00 00 00
 2.247338 1  167             Rx   d 8 00 FF FF 00 00 02 0F 00
 2.267418 1  167             Rx   d 8 00 FF FF 00 00 02 0F 00
 2.276906 1  167             Rx   d 8 00 FF FF 00 00 02 0F 00
 2.296857 1  167             Rx   d 8 00 FF FF 00 00 02 0F 00
 2.312439 1  3CA             Rx   d 8 04 00 00 00 00 00 00 00
 2.327339 1  167             Rx   d 8 00 FF FF 00 00 02 0F 00
 2.347549 1  167             Rx   d 8 00 FF FF 00 00 02 0F 00
 2.361320 1  76              Rx   d 8 00 00 1F F7 FC 00 00 F0
 2.377055 1  167             Rx   d 8 00 FF FF 00 00 02 0F 00
 2.396858 1  167             Rx   d 8 00 FF FF 00 00 02 0F 00
 2.417366 1  167             Rx   d 8 00 FF FF 00 00 02 0F 00
 2.432031 1  3CA             Rx   d 8 04 00 00 00 00 00 00 00
 2.447501 1  167             Rx   d 8 00 FF FF 00 00 02 0F 00
 2.461316 1  76              Rx   d 8 00 00 1F F7 FC 00 00 F0
 2.481448 1  76              Rx   d 8 00 00 1F F7 FC 00 00 F0
 2.492442 1  3CA             Rx   d 8 04 00 00 00 00 00 00 00
 2.507328 1  167             Rx   d 8 00 FF FF 00 00 02 0F 00
 2.521405 1  76              Rx   d 8 00 00 1F F7 FC 00 00 F0
 2.541433 1  76              Rx   d 8 00 00 1F F7 FC 00 00 F0
 2.552990 1  3CA             Rx   d 8 04 00 00 00 00 00 00 00
 2.576911 1  167             Rx   d 8 00 FF FF 00 00 02 0F 00
 2.588326 1  166             Rx   d 8 76 00 00 FF FF FF 00 00
 2.607321 1  167             Rx   d 8 00 FF FF 00 00 02 0F 00
 2.626338 1  48              Rx   d 8 00 00 00 00 07 00 E0 00
 2.641764 1  76              Rx   d 8 00 00 1F F7 FC 00 00 F0
 2.661492 1  76              Rx   d 8 00 00 1F F7 FC 00 00 F0
 2.676863 1  167             Rx   d 8 00 FF FF 00 00 02 0F 00
 2.690202 1  42D             Rx   d 8 00 03 FF 00 00 00 F0 00
 2.707999 1  202             Rx   d 8 00 CC 00 00 00 00 00 00
 2.727443 1  167             Rx   d 8 00 FF FF 00 00 02 0F 00
 2.747352 1  167             Rx   d 8 00 FF FF 00 00 02 0F 00
 2.761961 1  76              Rx   d 8 00 00 1F F7 FC 00 00 F0
 2.781473 1  76              Rx   d 8 00 00 1F F7 FC 00 00 F0
 2.796999 1  167             Rx   d 8 00 FF FF 00 00 02 0F 00
 2.817001 1  167             Rx   d 8 00 FF FF 00 00 02 0F 00
 2.841579 1  76              Rx   d 8 00 00 1F F7 FC 00 00 F0
 2.861770 1  76              Rx   d 8 00 00 1F F7 FC 00 00 F0
 2.881482 1  76              Rx   d 8 00 00 1F F7 FC 00 00 F0
 2.901751 1  48              Rx   d 8 00 00 00 00 07 00 E0 00
 2.912337 1  3CA             Rx   d 8 04 00 00 00 00 00 00 00
 2.928038 1  204             Rx   d 8 00 00 FF 00 00 00 00 00
 2.941906 1  76              Rx   d 8 00 00 1F F7 FC 00 00 F0
 2.961550 1  76              Rx   d 8 00 00 1F F7 FC 00 00 F0
 2.972334 1  3CA             Rx   d 8 04 00 00 00 00 00 00 00
 2.977607 1  167             Rx   d 8 00 FF FF 00 00 02 0F 00
 2.989709 1  421             Rx   d 8 04 00 11 00 00 00 FF 00
 3.001874 1  76              Rx   d 8 00 00 1F F7 FC 00 00 F0
 3.005271 1  279             Rx   d 8 00 50 00 3C A8 96 01 00
 3.007003 1  432             Rx   d 8 00 00 00 00 00 00 00 00
 3.008688 1  204             Rx   d 8 00 00 FF 00 00 00 00 00
 3.016893 1  167             Rx   d 8 00 FF FF 00 00 02 0F 00
 3.027356 1  167             Rx   d 8 00 FF FF 00 00 02 0F 00
 3.036866 1  167             Rx   d 8 00 FF FF 00 00 02 0F 00
 3.052490 1  412             Rx   d 8 7D 00 80 80 00 00 00 00
 3.067325 1  167             Rx   d 8 00 FF FF 00 00 02 0F 00
 3.081619 1  76              Rx   d 8 00 00 1F F7 FC 00 00 F0
 3.101758 1  48              Rx   d 8 00 00 00 00 07 00 E0 00
 3.116926 1  167             Rx   d 8 00 FF FF 00 00 02 0F 00
 3.127296 1  167             Rx   d 8 00 FF FF 00 00 02 0F 00
 3.136887 1  167             Rx   d 8 00 FF FF 00 00 02 0F 00
 3.147461 1  167             Rx   d 8 00 FF FF 00 00 02 0F 00
 3.153323 1  3CA             Rx   d 8 04 00 00 00 00 00 00 00
 3.167317 1  167             Rx   d 8 00 FF FF 00 00 02 0F 00
 3.176925 1  167             Rx   d 8 00 FF FF 00 00 02 0F 00
 3.187138 1  156             Rx   d 8 BA 00 00 00 00 00 00 00
 3.196847 1  167             Rx   d 8 00 FF FF 00 00 02 0F 00
 3.201665 1  48              Rx   d 8 00 00 00 00 07 00 E0 00
 3.221976 1  76              Rx   d 8 00 00 1F F7 FC 00 00 F0
 3.236872 1  167             Rx   d 8 00 FF FF 00 00 02 0F 00
 3.247526 1  167             Rx   d 8 00 FF FF 00 00 02 0F 00
 3.257041 1  167             Rx   d 8 00 FF FF 00 00 02 0F 00
 3.276841 1  167             Rx   d 8 00 FF FF 00 00 02 0F 00
 3.296902 1  167             Rx   d 8 00 FF FF 00 00 02 0F 00
 3.307330 1  167             Rx   d 8 00 FF FF 00 00 02 0F 00
 3.317099 1  167             Rx   d 8 00 FF FF 00 00 02 0F 00
 3.327685 1  167             Rx   d 8 00 FF FF 00 00 02 0F 00
 3.336905 1  167             Rx   d 8 00 FF FF 00 00 02 0F 00
 3.348962 1  3B5             Rx   d 8 FF FD FF FD FF FD FF FD
 3.377006 1  167             Rx   d 8 00 FF FF 00 00 02 0F 00
 3.387210 1  156             Rx   d 8 BA 00 00 00 00 00 00 00
 3.397005 1  167             Rx   d 8 00 FF FF 00 00 02 0F 00
 3.407295 1  167             Rx   d 8 00 FF FF 00 00 02 0F 00
 3.421908 1  76              Rx   d 8 00 00 1F F7 FC 00 00 F0
 3.427471 1  167             Rx   d 8 00 FF FF 00 00 02 0F 00
 3.436850 1  167             Rx   d 8 00 FF FF 00 00 02 0F 00
 3.447314 1  167             Rx   d 8 00 FF FF 00 00 02 0F 00
 3.457044 1  167             Rx   d 8 00 FF FF 00 00 02 0F 00
 3.476880 1  167             Rx   d 8 00 FF FF 00 00 02 0F 00
 3.481742 1  76              Rx   d 8 00 00 1F F7 FC 00 00 F0
 3.502048 1  48              Rx   d 8 00 00 00 00 07 00 E0 00
 3.521880 1  76              Rx   d 8 00 00 1F F7 FC 00 00 F0
 3.537151 1  167             Rx   d 8 00 FF FF 00 00 02 0F 00
 3.547314 1  167             Rx   d 8 00 FF FF 00 00 02 0F 00
 3.556893 1  167             Rx   d 8 00 FF FF 00 00 02 0F 00
 3.572487 1  3CA             Rx   d 8 04 00 00 00 00 00 00 00
 3.581860 1  76              Rx   d 8 00 00 1F F7 FC 00 00 F0
 3.607317 1  167             Rx   d 8 00 FF FF 00 00 02 0F 00
 3.627462 1  167             Rx   d 8 00 FF FF 00 00 02 0F 00
 3.641992 1  76              Rx   d 8 00 00 1F F7 FC 00 00 F0
 3.652518 1  412             Rx   d 8 7D 00 80 80 00 00 00 00
 3.676849 1  167             Rx   d 8 00 FF FF 00 00 02 0F 00
 3.677004 1  204             Rx   d 8 00 00 FF 00 00 00 00 00
 3.687100 1  156             Rx   d 8 BA 00 00 00 00 00 00 00
 3.702309 1  48              Rx   d 8 00 00 00 00 07 00 E0 00
 3.716863 1  167             Rx   d 8 00 FF FF 00 00 02 0F 00
 3.728094 1  202             Rx   d 8 00 CC 00 00 00 00 00 00
 3.736910 1  167             Rx   d 8 00 FF FF 00 00 02 0F 00
 3.747299 1  167             Rx   d 8 00 FF FF 00 00 02 0F 00
 3.756833 1  167             Rx   d 8 00 FF FF 00 00 02 0F 00
 3.777230 1  167             Rx   d 8 00 FF FF 00 00 02 0F 00
 3.777281 1  204             Rx   d 8 00 00 FF 00 00 00 00 00
 3.796868 1  167             Rx   d 8 00 FF FF 00 00 02 0F 00
 3.812744 1  3CA             Rx   d 8 04 00 00 00 00 00 00 00
 3.828436 1  3B4             Rx   d 8 34 21 11 FF 1E 1A 00 00
 3.837034 1  167             Rx   d 8 00 FF FF 00 00 02 0F 00
 3.856881 1  167             Rx   d 8 00 FF FF 00 00 02 0F 00
 3.877380 1  167             Rx   d 8 00 FF FF 00 00 02 0F 00
 3.882516 1  76              Rx   d 8 00 00 1F F7 FC 00 00 F0
 3.898373 1  38D             Rx   d 8 20 00 00 00 E0 00 00 F0
 3.917095 1  167             Rx   d 8 00 FF FF 00 00 02 0F 00
 3.927346 1  167             Rx   d 8 00 FF FF 00 00 02 0F 00
 3.937037 1  167             Rx   d 8 00 FF FF 00 00 02 0F 00
 3.952651 1  412             Rx   d 8 7D 00 80 80 00 00 00 00
 3.967288 1  167             Rx   d 8 00 FF FF 00 00 02 0F 00
 3.977018 1  167             Rx   d 8 00 FF FF 00 00 02 0F 00
 3.987749 1  167             Rx   d 8 00 FF FF 00 00 02 0F 00
 3.996880 1  167             Rx   d 8 00 FF FF 00 00 02 0F 00
 4.017035 1  167             Rx   d 8 00 FF FF 00 00 02 0F 00
 4.027319 1  167             Rx   d 8 00 FF FF 00 00 02 0F 00
 4.042255 1  76              Rx   d 8 00 00 1F F7 FC 00 00 F0
 4.052922 1  3CA             Rx   d 8 04 00 00 00 00 00 00 00
 4.077003 1  167             Rx   d 8 00 FF FF 00 00 02 0F 00
 4.088445 1  179             Rx   d 8 00 00 08 00 22 FF 00 00
 4.107337 1  167             Rx   d 8 00 FF FF 00 00 02 0F 00
 4.127249 1  167             Rx   d 8 00 FF FF 00 00 02 0F 00
 4.136876 1  167             Rx   d 8 00 FF FF 00 00 02 0F 00
 4.152996 1  412             Rx   d 8 7D 00 80 80 00 00 00 00
 4.162042 1  76              Rx   d 8 00 00 1F F7 FC 00 00 F0
 4.172704 1  3CA             Rx   d 8 04 00 00 00 00 00 00 00
 4.182183 1  76              Rx   d 8 00 00 1F F7 FC 00 00 F0
 4.202055 1  48              Rx   d 8 00 00 00 00 07 00 E0 00
 4.217028 1  167             Rx   d 8 00 FF FF 00 00 02 0F 00
 4.222520 1  76              Rx   d 8 00 00 1F F7 FC 00 00 F0
 4.232716 1  3CA             Rx   d 8 04 00 00 00 00 00 00 00
 4.242195 1  76              Rx   d 8 00 00 1F F7 FC 00 00 F0
 4.253237 1  412             Rx   d 8 7D 00 80 80 00 00 00 00
 4.262304 1  76              Rx   d 8 00 00 1F F7 FC 00 00 F0
 4.267963 1  202             Rx   d 8 00 CC 00 00 00 00 00 00
 4.282084 1  76              Rx   d 8 00 00 1F F7 FC 00 00 F0
 4.297116 1  167             Rx   d 8 00 FF FF 00 00 02 0F 00
 4.317072 1  167             Rx   d 8 00 FF FF 00 00 02 0F 00
 4.322634 1  76              Rx   d 8 00 00 1F F7 FC 00 00 F0
 4.342043 1  76              Rx   d 8 00 00 1F F7 FC 00 00 F0
 4.347323 1  167             Rx   d 8 00 FF FF 00 00 02 0F 00
 4.353049 1  3CA             Rx   d 8 04 00 00 00 00 00 00 00
 4.362599 1  76              Rx   d 8 00 00 1F F7 FC 00 00 F0
 4.381987 1  76              Rx   d 8 00 00 1F F7 FC 00 00 F0
 4.387181 1  156             Rx   d 8 BA 00 00 00 00 00 00 00
 4.402077 1  48              Rx   d 8 00 00 00 00 07 00 E0 00
 4.413286 1  3CA             Rx   d 8 04 00 00 00 00 00 00 00
 4.436842 1  167             Rx   d 8 00 FF FF 00 00 02 0F 00
 4.447317 1  167             Rx   d 8 00 FF FF 00 00 02 0F 00
 4.467442 1  167             Rx   d 8 00 FF FF 00 00 02 0F 00
 4.482094 1  76              Rx   d 8 00 00 1F F7 FC 00 00 F0
 4.507231 1  167             Rx   d 8 00 FF FF 00 00 02 0F 00
 4.522157 1  76              Rx   d 8 00 00 1F F7 FC 00 00 F0
 4.542177 1  76              Rx   d 8 00 00 1F F7 FC 00 00 F0
 4.562129 1  76              Rx   d 8 00 00 1F F7 FC 00 00 F0
 4.582005 1  76              Rx   d 8 00 00 1F F7 FC 00 00 F0
 4.596887 1  167             Rx   d 8 00 FF FF 00 00 02 0F 00
 4.616848 1  167             Rx   d 8 00 FF FF 00 00 02 0F 00
 4.636891 1  167             Rx   d 8 00 FF FF 00 00 02 0F 00
 4.656820 1  167             Rx   d 8 00 FF FF 00 00 02 0F 00
 4.676884 1  167             Rx   d 8 00 FF FF 00 00 02 0F 00
 4.689436 1  204             Rx   d 8 00 00 FF 00 00 00 00 00
 4.713116 1  3CA             Rx   d 8 04 00 00 00 00 00 00 00
 4.727273 1  167             Rx   d 8 00 FF FF 00 00 02 0F 00
 4.747301 1  167             Rx   d 8 00 FF FF 00 00 02 0F 00
 4.762033 1  76              Rx   d 8 00 00 1F F7 FC 00 00 F0
 4.776961 1  167             Rx   d 8 00 FF FF 00 00 02 0F 00
 4.796841 1  167             Rx   d 8 00 FF FF 00 00 02 0F 00
 4.816863 1  167             Rx   d 8 00 FF FF 00 00 02 0F 00
 4.832999 1  3CA             Rx   d 8 04 00 00 00 00 00 00 00
 4.847345 1  167             Rx   d 8 00 FF FF 00 00 02 0F 00
 4.862545 1  76              Rx   d 8 00 00 1F F7 FC 00 00 F0
 4.882360 1  76              Rx   d 8 00 00 1F F7 FC 00 00 F0
 4.902402 1  48              Rx   d 8 00 00 00 00 07 00 E0 00
 4.916857 1  167             Rx   d 8 00 FF FF 00 00 02 0F 00
 4.937054 1  167             Rx   d 8 00 FF FF 00 00 02 0F 00
 4.952866 1  3CA             Rx   d 8 04 00 00 00 00 00 00 00
 4.967268 1  167             Rx   d 8 00 FF FF 00 00 02 0F 00
 4.982355 1  76              Rx   d 8 00 00 1F F7 FC 00 00 F0
 4.996858 1  167             Rx   d 8 00 FF FF 00 00 02 0F 00
 5.017415 1  167             Rx   d 8 00 FF FF 00 00 02 0F 00
 5.017449 1  171             Rx   d 8 F0 E0 00 00 00 00 00 00
 5.022277 1  76              Rx   d 8 00 00 1F F7 FC 00 00 F0
 5.022417 1  20A             Rx   d 8 F1 F8 00 00 00 00 4E 20
 5.027324 1  167             Rx   d 8 00 FF FF 00 00 02 0F 00
 5.027743 1  202             Rx   d 8 00 CC 00 00 00 00 00 00
 5.027965 1  204             Rx   d 8 00 00 FF 00 00 00 00 00
 5.036826 1  167             Rx   d 8 00 FF FF 00 00 02 0F 00
 5.036989 1  204             Rx   d 8 00 00 FF 00 00 00 00 00
 5.042603 1  76              Rx   d 8 00 00 1F F7 FC 00 00 F0
 5.053282 1  412             Rx   d 8 7D 00 80 80 00 00 00 00
 5.072960 1  3CA             Rx   d 8 04 00 00 00 00 00 00 00
 5.089651 1  421             Rx   d 8 04 00 11 00 00 00 FF 00
 5.107291 1  167             Rx   d 8 00 FF FF 00 00 02 0F 00
 5.122539 1  76              Rx   d 8 00 00 1F F7 FC 00 00 F0
 5.137256 1  204             Rx   d 8 00 00 FF 00 00 00 00 00
 5.157004 1  40A             Rx   d 8 C1 04 01 8A 07 54 85 41
 5.177005 1  167             Rx   d 8 00 FF FF 00 00 02 0F 00
 5.193463 1  3CA             Rx   d 8 04 00 00 00 00 00 00 00
 5.217085 1  167             Rx   d 8 00 FF FF 00 00 02 0F 00
 5.236840 1  167             Rx   d 8 00 FF FF 00 00 02 0F 00
 5.247387 1  167             Rx   d 8 00 FF FF 00 00 02 0F 00
 5.267232 1  167             Rx   d 8 00 FF FF 00 00 02 0F 00
 5.287166 1  156             Rx   d 8 BA 00 00 00 00 00 00 00
 5.302756 1  20A             Rx   d 8 F1 F8 00 00 00 00 4E 20
 5.322758 1  76              Rx   d 8 00 00 1F F7 FC 00 00 F0
 5.342309 1  76              Rx   d 8 00 00 1F F7 FC 00 00 F0
 5.362527 1  76              Rx   d 8 00 00 1F F7 FC 00 00 F0
 5.376868 1  167             Rx   d 8 00 FF FF 00 00 02 0F 00
 5.397136 1  167             Rx   d 8 00 FF FF 00 00 02 0F 00
 5.416815 1  167             Rx   d 8 00 FF FF 00 00 02 0F 00
 5.433561 1  3CA             Rx   d 8 04 00 00 00 00 00 00 00
 5.453383 1  412             Rx   d 8 7D 00 80 80 00 00 00 00
 5.462383 1  76              Rx   d 8 00 00 1F F7 FC 00 00 F0
 5.482330 1  76              Rx   d 8 00 00 1F F7 FC 00 00 F0
 5.503406 1  48              Rx   d 8 00 00 00 00 07 00 E0 00
 5.527489 1  167             Rx   d 8 00 FF FF 00 00 02 0F 00
 5.547300 1  167             Rx   d 8 00 FF FF 00 00 02 0F 00
 5.562665 1  76              Rx   d 8 00 00 1F F7 FC 00 00 F0
 5.582373 1  76              Rx   d 8 00 00 1F F7 FC 00 00 F0
 5.596996 1  167             Rx   d 8 00 FF FF 00 00 02 0F 00
 5.613057 1  3CA             Rx   d 8 04 00 00 00 00 00 00 00
 5.637223 1  167             Rx   d 8 00 FF FF 00 00 02 0F 00
 5.642416 1  76              Rx   d 8 00 00 1F F7 FC 00 00 F0
 5.662644 1  76              Rx   d 8 00 00 1F F7 FC 00 00 F0
 5.682346 1  76              Rx   d 8 00 00 1F F7 FC 00 00 F0
 5.697044 1  167             Rx   d 8 00 FF FF 00 00 02 0F 00
 5.716827 1  167             Rx   d 8 00 FF FF 00 00 02 0F 00
 5.737014 1  167             Rx   d 8 00 FF FF 00 00 02 0F 00
 5.753474 1  412             Rx   d 8 7D 00 80 80 00 00 00 00
 5.777300 1  167             Rx   d 8 00 FF FF 00 00 02 0F 00
 5.788964 1  202             Rx   d 8 00 CC 00 00 00 00 00 00
 5.802631 1  48              Rx   d 8 00 00 00 00 07 00 E0 00
 5.822470 1  76              Rx   d 8 00 00 1F F7 FC 00 00 F0
 5.842757 1  76              Rx   d 8 00 00 1F F7 FC 00 00 F0
 5.856807 1  167             Rx   d 8 00 FF FF 00 00 02 0F 00
 5.876971 1  167             Rx   d 8 00 FF FF 00 00 02 0F 00
 5.889169 1  202             Rx   d 8 00 CC 00 00 00 00 00 00
 5.907371 1  167             Rx   d 8 00 FF FF 00 00 02 0F 00
 5.927299 1  167             Rx   d 8 00 FF FF 00 00 02 0F 00
 5.942700 1  76              Rx   d 8 00 00 1F F7 FC 00 00 F0
 5.962553 1  76              Rx   d 8 00 00 1F F7 FC 00 00 F0
 5.983272 1  76              Rx   d 8 00 00 1F F7 FC 00 00 F0
 6.002241 1  59E             Rx   d 8 9E 00 FF FF FF FF FF FF
 6.027235 1  167             Rx   d 8 00 FF FF 00 00 02 0F 00
 6.047528 1  167             Rx   d 8 00 FF FF 00 00 02 0F 00
 6.067300 1  167             Rx   d 8 00 FF FF 00 00 02 0F 00
 6.082758 1  76              Rx   d 8 00 00 1F F7 FC 00 00 F0
 6.102984 1  48              Rx   d 8 00 00 00 00 07 00 E0 00
 6.123099 1  76              Rx   d 8 00 00 1F F7 FC 00 00 F0
 6.139654 1  40A             Rx   d 8 C1 02 32 38 38 33 36 00
 6.156865 1  167             Rx   d 8 00 FF FF 00 00 02 0F 00
 6.176867 1  167             Rx   d 8 00 FF FF 00 00 02 0F 00
 6.196814 1  167             Rx   d 8 00 FF FF 00 00 02 0F 00
 6.213298 1  3CA             Rx   d 8 04 00 00 00 00 00 00 00
 6.227537 1  167             Rx   d 8 00 FF FF 00 00 02 0F 00
 6.236846 1  167             Rx   d 8 00 FF FF 00 00 02 0F 00
 6.256897 1  167             Rx   d 8 00 FF FF 00 00 02 0F 00
 6.276809 1  167             Rx   d 8 00 FF FF 00 00 02 0F 00
 6.297330 1  167             Rx   d 8 00 FF FF 00 00 02 0F 00
 6.315608 1  84              Rx   d 8 00 00 00 01 02 14 0C 00
 6.327353 1  167             Rx   d 8 00 FF FF 00 00 02 0F 00
 6.342808 1  76              Rx   d 8 00 00 1F F7 FC 00 00 F0
 6.362921 1  76              Rx   d 8 00 00 1F F7 FC 00 00 F0
 6.382694 1  76              Rx   d 8 00 00 1F F7 FC 00 00 F0
 6.402772 1  48              Rx   d 8 00 00 00 00 07 00 E0 00
 6.416880 1  167             Rx   d 8 00 FF FF 00 00 02 0F 00
 6.436826 1  167             Rx   d 8 00 FF FF 00 00 02 0F 00
 6.453176 1  3CA             Rx   d 8 04 00 00 00 00 00 00 00
 6.476849 1  167             Rx   d 8 00 FF FF 00 00 02 0F 00
 6.489432 1  204             Rx   d 8 00 00 FF 00 00 00 00 00
 6.512186 1  3C3             Rx   d 8 5C 80 10 C1 01 00 01 00
 6.532912 1  40A             Rx   d 8 C1 10 40 84 20 08 80 00
 6.547965 1  202             Rx   d 8 00 CC 00 00 00 00 00 00
 6.567353 1  167             Rx   d 8 00 FF FF 00 00 02 0F 00
 6.587023 1  156             Rx   d 8 BA 00 00 00 00 00 00 00
 6.602953 1  48              Rx   d 8 00 00 00 00 07 00 E0 00
 6.627374 1  167             Rx   d 8 00 FF FF 00 00 02 0F 00
 6.647219 1  167             Rx   d 8 00 FF FF 00 00 02 0F 00
 6.663071 1  76              Rx   d 8 00 00 1F F7 FC 00 00 F0
 6.677069 1  167             Rx   d 8 00 FF FF 00 00 02 0F 00
 6.687997 1  178             Rx   d 8 00 00 02 00 02 54 CA 53
 6.703791 1  48              Rx   d 8 00 00 00 00 07 00 E0 00
 6.716828 1  167             Rx   d 8 00 FF FF 00 00 02 0F 00
 6.737057 1  167             Rx   d 8 00 FF FF 00 00 02 0F 00
 6.753326 1  3CA             Rx   d 8 04 00 00 00 00 00 00 00
 6.777306 1  167             Rx   d 8 00 FF FF 00 00 02 0F 00
 6.786964 1  156             Rx   d 8 BA 00 00 00 00 00 00 00
 6.807647 1  167             Rx   d 8 00 FF FF 00 00 02 0F 00
 6.814079 1  3CA             Rx   d 8 04 00 00 00 00 00 00 00
 6.837096 1  167             Rx   d 8 00 FF FF 00 00 02 0F 00
 6.853683 1  412             Rx   d 8 7D 00 80 80 00 00 00 00
 6.867264 1  167             Rx   d 8 00 FF FF 00 00 02 0F 00
 6.883209 1  76              Rx   d 8 00 00 1F F7 FC 00 00 F0
 6.903104 1  48              Rx   d 8 00 00 00 00 07 00 E0 00
 6.922919 1  76              Rx   d 8 00 00 1F F7 FC 00 00 F0
 6.933313 1  3CA             Rx   d 8 04 00 00 00 00 00 00 00
 6.953353 1  412             Rx   d 8 7D 00 80 80 00 00 00 00
 6.967263 1  167             Rx   d 8 00 FF FF 00 00 02 0F 00
 6.987252 1  156             Rx   d 8 BA 00 00 00 00 00 00 00
 7.002650 1  59E             Rx   d 8 9E 00 FF FF FF FF FF FF
 7.023094 1  76              Rx   d 8 00 00 1F F7 FC 00 00 F0
 7.023124 1  20A             Rx   d 8 F1 F8 00 00 00 00 4E 20
 7.023415 1  3CA             Rx   d 8 04 00 00 00 00 00 00 00
 7.027271 1  167             Rx   d 8 00 FF FF 00 00 02 0F 00
 7.027448 1  171             Rx   d 8 F0 E0 00 00 00 00 00 00
 7.027989 1  202             Rx   d 8 00 CC 00 00 00 00 00 00
 7.028201 1  204             Rx   d 8 00 00 FF 00 00 00 00 00
 7.036824 1  167             Rx   d 8 00 FF FF 00 00 02 0F 00
 7.036960 1  204             Rx   d 8 00 00 FF 00 00 00 00 00
 7.043148 1  76              Rx   d 8 00 00 1F F7 FC 00 00 F0
 7.043184 1  20A             Rx   d 8 F1 F8 00 00 00 00 4E 20
 7.047376 1  167             Rx   d 8 00 FF FF 00 00 02 0F 00
 7.047811 1  202             Rx   d 8 00 CC 00 00 00 00 00 00
 7.062928 1  76              Rx   d 8 00 00 1F F7 FC 00 00 F0
 7.083486 1  76              Rx   d 8 00 00 1F F7 FC 00 00 F0
 7.103203 1  48              Rx   d 8 00 00 00 00 07 00 E0 00
 7.117087 1  167             Rx   d 8 00 FF FF 00 00 02 0F 00
 7.136877 1  167             Rx   d 8 00 FF FF 00 00 02 0F 00
 7.153636 1  412             Rx   d 8 7D 00 80 80 00 00 00 00
 7.173730 1  3CA             Rx   d 8 04 00 00 00 00 00 00 00
 7.183253 1  76              Rx   d 8 00 00 1F F7 FC 00 00 F0
 7.197120 1  167             Rx   d 8 00 FF FF 00 00 02 0F 00
 7.217021 1  167             Rx   d 8 00 FF FF 00 00 02 0F 00
 7.233560 1  3CA             Rx   d 8 04 00 00 00 00 00 00 00
 7.247278 1  167             Rx   d 8 00 FF FF 00 00 02 0F 00
 7.263366 1  76              Rx   d 8 00 00 1F F7 FC 00 00 F0
 7.276813 1  167             Rx   d 8 00 FF FF 00 00 02 0F 00
 7.293917 1  3CA             Rx   d 8 04 00 00 00 00 00 00 00
 7.316860 1  167             Rx   d 8 00 FF FF 00 00 02 0F 00
 7.324028 1  76              Rx   d 8 00 00 1F F7 FC 00 00 F0
 7.343108 1  76              Rx   d 8 00 00 1F F7 FC 00 00 F0
 7.363326 1  76              Rx   d 8 00 00 1F F7 FC 00 00 F0
 7.383191 1  76              Rx   d 8 00 00 1F F7 FC 00 00 F0
 7.397134 1  167             Rx   d 8 00 FF FF 00 00 02 0F 00
 7.413621 1  3CA             Rx   d 8 04 00 00 00 00 00 00 00
 7.423151 1  76              Rx   d 8 00 00 1F F7 FC 00 00 F0
 7.443429 1  76              Rx   d 8 00 00 1F F7 FC 00 00 F0
 7.453596 1  412             Rx   d 8 7D 00 80 80 00 00 00 00
 7.463357 1  76              Rx   d 8 00 00 1F F7 FC 00 00 F0
 7.483087 1  76              Rx   d 8 00 00 1F F7 FC 00 00 F0
 7.503401 1  48              Rx   d 8 00 00 00 00 07 00 E0 00
 7.523213 1  76              Rx   d 8 00 00 1F F7 FC 00 00 F0
 7.527308 1  167             Rx   d 8 00 FF FF 00 00 02 0F 00
 7.527746 1  202             Rx   d 8 00 CC 00 00 00 00 00 00
 7.527948 1  204             Rx   d 8 00 00 FF 00 00 00 00 00
 7.533653 1  3CA             Rx   d 8 04 00 00 00 00 00 00 00
 7.536979 1  167             Rx   d 8 00 FF FF 00 00 02 0F 00
 7.537014 1  171             Rx   d 8 F0 E0 00 00 00 00 00 00
 7.537235 1  204             Rx   d 8 00 00 FF 00 00 00 00 00
 7.543240 1  76              Rx   d 8 00 00 1F F7 FC 00 00 F0
 7.563193 1  76              Rx   d 8 00 00 1F F7 FC 00 00 F0
 7.576848 1  167             Rx   d 8 00 FF FF 00 00 02 0F 00
 7.589658 1  421             Rx   d 8 04 00 11 00 00 00 FF 00
 7.607298 1  167             Rx   d 8 00 FF FF 00 00 02 0F 00
 7.617206 1  167             Rx   d 8 00 FF FF 00 00 02 0F 00
 7.627262 1  167             Rx   d 8 00 FF FF 00 00 02 0F 00
 7.643559 1  76              Rx   d 8 00 00 1F F7 FC 00 00 F0
 7.663578 1  76              Rx   d 8 00 00 1F F7 FC 00 00 F0
 7.677005 1  167             Rx   d 8 00 FF FF 00 00 02 0F 00
 7.689877 1  421             Rx   d 8 04 00 11 00 00 00 FF 00
 7.713208 1  38D             Rx   d 8 20 00 00 00 E0 00 00 F0
 7.727194 1  167             Rx   d 8 00 FF FF 00 00 02 0F 00
 7.747648 1  167             Rx   d 8 00 FF FF 00 00 02 0F 00
 7.763548 1  76              Rx   d 8 00 00 1F F7 FC 00 00 F0
 7.783443 1  76              Rx   d 8 00 00 1F F7 FC 00 00 F0
 7.807220 1  167             Rx   d 8 00 FF FF 00 00 02 0F 00
 7.827239 1  167             Rx   d 8 00 FF FF 00 00 02 0F 00
 7.843302 1  76              Rx   d 8 00 00 1F F7 FC 00 00 F0
 7.856980 1  167             Rx   d 8 00 FF FF 00 00 02 0F 00
 7.876812 1  167             Rx   d 8 00 FF FF 00 00 02 0F 00
 7.894135 1  3CA             Rx   d 8 04 00 00 00 00 00 00 00
 7.917036 1  167             Rx   d 8 00 FF FF 00 00 02 0F 00
 7.936865 1  167             Rx   d 8 00 FF FF 00 00 02 0F 00
 7.943368 1  76              Rx   d 8 00 00 1F F7 FC 00 00 F0
 7.963445 1  76              Rx   d 8 00 00 1F F7 FC 00 00 F0
 7.976798 1  167             Rx   d 8 00 FF FF 00 00 02 0F 00
 7.989665 1  204             Rx   d 8 00 00 FF 00 00 00 00 00
 8.008737 1  431             Rx   d 8 00 00 00 00 00 00 00 00
 8.027547 1  167             Rx   d 8 00 FF FF 00 00 02 0F 00
 8.043446 1  76              Rx   d 8 00 00 1F F7 FC 00 00 F0
 8.063666 1  76              Rx   d 8 00 00 1F F7 FC 00 00 F0
 8.083448 1  76              Rx   d 8 00 00 1F F7 FC 00 00 F0
 8.097069 1  167             Rx   d 8 00 FF FF 00 00 02 0F 00
 8.107241 1  167             Rx   d 8 00 FF FF 00 00 02 0F 00
 8.123424 1  76              Rx   d 8 00 00 1F F7 FC 00 00 F0
 8.137334 1  167             Rx   d 8 00 FF FF 00 00 02 0F 00
 8.156749 1  167             Rx   d 8 00 FF FF 00 00 02 0F 00
 8.167302 1  167             Rx   d 8 00 FF FF 00 00 02 0F 00
 8.187018 1  156             Rx   d 8 BA 00 00 00 00 00 00 00
 8.203486 1  48              Rx   d 8 00 00 00 00 07 00 E0 00
 8.223805 1  76              Rx   d 8 00 00 1F F7 FC 00 00 F0
 8.236944 1  167             Rx   d 8 00 FF FF 00 00 02 0F 00
 8.247236 1  167             Rx   d 8 00 FF FF 00 00 02 0F 00
 8.267360 1  167             Rx   d 8 00 FF FF 00 00 02 0F 00
 8.283457 1  76              Rx   d 8 00 00 1F F7 FC 00 00 F0
 8.303040 1  3B2             Rx   d 8 44 8C C0 0C E6 00 03 3E
 8.316735 1  167             Rx   d 8 00 FF FF 00 00 02 0F 00
 8.337034 1  167             Rx   d 8 00 FF FF 00 00 02 0F 00
 8.347478 1  167             Rx   d 8 00 FF FF 00 00 02 0F 00
 8.367393 1  167             Rx   d 8 00 FF FF 00 00 02 0F 00
 8.376848 1  167             Rx   d 8 00 FF FF 00 00 02 0F 00
 8.396797 1  167             Rx   d 8 00 FF FF 00 00 02 0F 00
 8.416864 1  167             Rx   d 8 00 FF FF 00 00 02 0F 00
 8.433744 1  3CA             Rx   d 8 04 00 00 00 00 00 00 00
 8.453734 1  412             Rx   d 8 7D 00 80 80 00 00 00 00
 8.467237 1  167             Rx   d 8 00 FF FF 00 00 02 0F 00
 8.487028 1  156             Rx   d 8 BA 00 00 00 00 00 00 00
 8.504183 1  48              Rx   d 8 00 00 00 00 07 00 E0 00
 8.516873 1  167             Rx   d 8 00 FF FF 00 00 02 0F 00
 8.527939 1  202             Rx   d 8 00 CC 00 00 00 00 00 00
 8.543839 1  76              Rx   d 8 00 00 1F F7 FC 00 00 F0
 8.563617 1  76              Rx   d 8 00 00 1F F7 FC 00 00 F0
 8.583650 1  76              Rx   d 8 00 00 1F F7 FC 00 00 F0
 8.596776 1  167             Rx   d 8 00 FF FF 00 00 02 0F 00
 8.616934 1  167             Rx   d 8 00 FF FF 00 00 02 0F 00
 8.636815 1  167             Rx   d 8 00 FF FF 00 00 02 0F 00
 8.654013 1  412             Rx   d 8 7D 00 80 80 00 00 00 00
 8.673791 1  3CA             Rx   d 8 04 00 00 00 00 00 00 00
 8.687766 1  167             Rx   d 8 00 FF FF 00 00 02 0F 00
 8.707217 1  167             Rx   d 8 00 FF FF 00 00 02 0F 00
 8.727312 1  167             Rx   d 8 00 FF FF 00 00 02 0F 00
 8.743362 1  3B4             Rx   d 8 34 21 11 FF 1E 1A 00 00
 8.763686 1  76              Rx   d 8 00 00 1F F7 FC 00 00 F0
 8.783857 1  76              Rx   d 8 00 00 1F F7 FC 00 00 F0
 8.793918 1  3B2             Rx   d 8 44 8C C0 0C E6 00 03 3E
 8.817061 1  167             Rx   d 8 00 FF FF 00 00 02 0F 00
 8.836807 1  167             Rx   d 8 00 FF FF 00 00 02 0F 00
 8.847693 1  202             Rx   d 8 00 CC 00 00 00 00 00 00
 8.864087 1  76              Rx   d 8 00 00 1F F7 FC 00 00 F0
 8.883746 1  76              Rx   d 8 00 00 1F F7 FC 00 00 F0
 8.903721 1  48              Rx   d 8 00 00 00 00 07 00 E0 00
 8.923992 1  76              Rx   d 8 00 00 1F F7 FC 00 00 F0
 8.936804 1  167             Rx   d 8 00 FF FF 00 00 02 0F 00
 8.954155 1  412             Rx   d 8 7D 00 80 80 00 00 00 00
 8.974151 1  3CA             Rx   d 8 04 00 00 00 00 00 00 00
 8.983753 1  76              Rx   d 8 00 00 1F F7 FC 00 00 F0
 9.003576 1  59E             Rx   d 8 9E 00 FF FF FF FF FF FF
 9.016793 1  167             Rx   d 8 00 FF FF 00 00 02 0F 00
 9.034170 1  3CA             Rx   d 8 04 00 00 00 00 00 00 00
 9.053925 1  412             Rx   d 8 7D 00 80 80 00 00 00 00
 9.068541 1  202             Rx   d 8 00 CC 00 00 00 00 00 00
 9.086986 1  156             Rx   d 8 BA 00 00 00 00 00 00 00
 9.104092 1  48              Rx   d 8 00 00 00 00 07 00 E0 00
 9.123863 1  76              Rx   d 8 00 00 1F F7 FC 00 00 F0
 9.137058 1  167             Rx   d 8 00 FF FF 00 00 02 0F 00
 9.154037 1  3CA             Rx   d 8 04 00 00 00 00 00 00 00
 9.167460 1  167             Rx   d 8 00 FF FF 00 00 02 0F 00
 9.183840 1  76              Rx   d 8 00 00 1F F7 FC 00 00 F0
 9.204092 1  48              Rx   d 8 00 00 00 00 07 00 E0 00
 9.223896 1  76              Rx   d 8 00 00 1F F7 FC 00 00 F0
 9.236959 1  167             Rx   d 8 00 FF FF 00 00 02 0F 00
 9.256774 1  167             Rx   d 8 00 FF FF 00 00 02 0F 00
 9.274150 1  3CA             Rx   d 8 04 00 00 00 00 00 00 00
 9.296959 1  167             Rx   d 8 00 FF FF 00 00 02 0F 00
 9.313561 1  84              Rx   d 8 00 00 00 01 02 17 0C 00
 9.327276 1  167             Rx   d 8 00 FF FF 00 00 02 0F 00
 9.344404 1  76              Rx   d 8 00 00 1F F7 FC 00 00 F0
 9.364202 1  76              Rx   d 8 00 00 1F F7 FC 00 00 F0
 9.377034 1  167             Rx   d 8 00 FF FF 00 00 02 0F 00
 9.394501 1  3CA             Rx   d 8 04 00 00 00 00 00 00 00
 9.411641 1  331             Rx   d 8 C0 00 48 E5 02 00 00 00
 9.427432 1  171             Rx   d 8 F0 E0 00 00 00 00 00 00
 9.447425 1  167             Rx   d 8 00 FF FF 00 00 02 0F 00
 9.463929 1  76              Rx   d 8 00 00 1F F7 FC 00 00 F0
 9.481887 1  40A             Rx   d 8 C1 01 47 41 48 4A 48 45
 9.504110 1  48              Rx   d 8 00 00 00 00 07 00 E0 00
 9.516838 1  167             Rx   d 8 00 FF FF 00 00 02 0F 00
 9.536814 1  167             Rx   d 8 00 FF FF 00 00 02 0F 00
 9.554343 1  412             Rx   d 8 7D 00 80 80 00 00 00 00
 9.574173 1  3CA             Rx   d 8 04 00 00 00 00 00 00 00
 9.584476 1  76              Rx   d 8 00 00 1F F7 FC 00 00 F0
 9.604308 1  48              Rx   d 8 00 00 00 00 07 00 E0 00
 9.624492 1  76              Rx   d 8 00 00 1F F7 FC 00 00 F0
 9.636725 1  167             Rx   d 8 00 FF FF 00 00 02 0F 00
 9.654408 1  412             Rx   d 8 7D 00 80 80 00 00 00 00
 9.667643 1  167             Rx   d 8 00 FF FF 00 00 02 0F 00
 9.686956 1  156             Rx   d 8 BA 00 00 00 00 00 00 00
 9.704340 1  48              Rx   d 8 00 00 00 00 07 00 E0 00
 9.724306 1  76              Rx   d 8 00 00 1F F7 FC 00 00 F0
 9.744055 1  76              Rx   d 8 00 00 1F F7 FC 00 00 F0
 9.756726 1  167             Rx   d 8 00 FF FF 00 00 02 0F 00
 9.784100 1  76              Rx   d 8 00 00 1F F7 FC 00 00 F0
 9.804256 1  48              Rx   d 8 00 00 00 00 07 00 E0 00
 9.816775 1  167             Rx   d 8 00 FF FF 00 00 02 0E 00
 9.836938 1  167             Rx   d 8 00 FF FF 00 00 02 0F 00
 9.854257 1  412             Rx   d 8 7D 00 80 80 00 00 00 00
 9.874547 1  3CA             Rx   d 8 04 00 00 00 00 00 00 00
 9.887041 1  156             Rx   d 8 BA 00 00 00 00 00 00 00
 9.904441 1  48              Rx   d 8 00 00 00 00 07 00 E0 00
 9.922747 1  331             Rx   d 8 C0 00 48 E5 02 00 00 00
 9.927326 1  167             Rx   d 8 00 FF FF 00 00 02 0E 00
 9.927786 1  202             Rx   d 8 00 CC 00 00 00 00 00 00
 9.934338 1  3CA             Rx   d 8 04 00 00 00 00 00 00 00
 9.937056 1  167             Rx   d 8 00 FF FF 00 00 02 0E 00
 9.937104 1  171             Rx   d 8 F0 E0 00 00 00 00 00 00
 9.937275 1  204             Rx   d 8 00 00 FF 00 00 00 00 00
 9.944284 1  76              Rx   d 8 00 00 1F F7 FC 00 00 F0
 9.944321 1  20A             Rx   d 8 F1 F8 00 00 00 00 4E 20
 9.947488 1  167             Rx   d 8 00 FF FF 00 00 02 0E 00
 9.948174 1  202             Rx   d 8 00 CC 00 00 00 00 00 00
 9.956730 1  167             Rx   d 8 00 FF FF 00 00 02 0E 00
 9.977125 1  167             Rx   d 8 00 FF FF 00 00 02 0E 00
 9.995061 1  3CA             Rx   d 8 04 00 00 00 00 00 00 00
 10.009054 1  42C             Rx   d 8 30 31 C4 80 00 00 00 96
 10.024452 1  76              Rx   d 8 00 00 1F F7 FC 00 00 F0
 10.047288 1  167             Rx   d 8 00 FF FF 00 00 02 0E 00
 10.064151 1  76              Rx   d 8 00 00 1F F7 FC 00 00 F0
 10.084234 1  76              Rx   d 8 00 00 1F F7 FC 00 00 F0
 10.104290 1  48              Rx   d 8 00 00 00 00 07 00 E0 00
 10.117012 1  167             Rx   d 8 00 FF FF 00 00 02 0E 00
 10.136768 1  167             Rx   d 8 00 FF FF 00 00 02 0E 00
 10.154513 1  412             Rx   d 8 7D 00 80 80 00 00 00 00
 10.167232 1  167             Rx   d 8 00 FF FF 00 00 02 0E 00
 10.184393 1  76              Rx   d 8 00 00 1F F7 FC 00 00 F0
 10.204257 1  48              Rx   d 8 00 00 00 00 07 00 E0 00
 10.224421 1  76              Rx   d 8 00 00 1F F7 FC 00 00 F0
 10.236760 1  167             Rx   d 8 00 FF FF 00 00 02 0E 00
 10.254611 1  412             Rx   d 8 7D 00 80 80 00 00 00 00
 10.276769 1  167             Rx   d 8 00 FF FF 00 00 02 0E 00
 10.290196 1  42D             Rx   d 8 00 03 FF 00 00 00 F0 00
 10.308083 1  204             Rx   d 8 00 00 FF 00 00 00 00 00
 10.327241 1  167             Rx   d 8 00 FF FF 00 00 02 0E 00
 10.344286 1  76              Rx   d 8 00 00 1F F7 FC 00 00 F0
 10.364331 1  76              Rx   d 8 00 00 1F F7 FC 00 00 F0
 10.376786 1  167             Rx   d 8 00 FF FF 00 00 02 0E 00
 10.396839 1  167             Rx   d 8 00 FF FF 00 00 02 0E 00
 10.414675 1  3CA             Rx   d 8 04 00 00 00 00 00 00 00
 10.427419 1  167             Rx   d 8 00 FF FF 00 00 02 0E 00
 10.447228 1  167             Rx   d 8 00 FF FF 00 00 02 0E 00
 10.464419 1  76              Rx   d 8 00 00 1F F7 FC 00 00 F0
 10.484323 1  76              Rx   d 8 00 00 1F F7 FC 00 00 F0
 10.504781 1  48              Rx   d 8 00 00 00 00 07 00 E0 00
 10.516817 1  167             Rx   d 8 00 FF FF 00 00 02 0E 00
 10.536895 1  167             Rx   d 8 00 FF FF 00 00 02 0E 00
 10.554547 1  412             Rx   d 8 7D 00 80 80 00 00 00 00
 10.576862 1  167             Rx   d 8 00 FF FF 00 00 02 0E 00
 10.587660 1  167             Rx   d 8 00 FF FF 00 00 02 0E 00
 10.605820 1  433             Rx   d 8 C0 00 00 00 00 90 00 00
 10.624733 1  76              Rx   d 8 00 00 1F F7 FC 00 00 F0
 10.644465 1  76              Rx   d 8 00 00 1F F7 FC 00 00 F0
 10.661567 1  38D             Rx   d 8 20 00 00 00 00 00 00 F0
 10.676824 1  167             Rx   d 8 00 FF FF 00 00 02 0E 00
 10.689119 1  202             Rx   d 8 00 CC 00 00 00 00 00 00
 10.707243 1  167             Rx   d 8 00 FF FF 00 00 02 0E 00
 10.724417 1  76              Rx   d 8 00 00 1F F7 FC 00 00 F0
 10.744723 1  76              Rx   d 8 00 00 1F F7 FC 00 00 F0
 10.764520 1  76              Rx   d 8 00 00 1F F7 FC 00 00 F0
 10.784503 1  76              Rx   d 8 00 00 1F F7 FC 00 00 F0
 10.796795 1  167             Rx   d 8 00 FF FF 00 00 02 0E 00
 10.816808 1  167             Rx   d 8 00 FF FF 00 00 02 0E 00
 10.834754 1  3CA             Rx   d 8 04 00 00 00 00 00 00 00
 10.854847 1  412             Rx   d 8 7D 00 80 80 00 00 00 00
 10.867299 1  167             Rx   d 8 00 FF FF 00 00 02 0E 00
 10.884581 1  76              Rx   d 8 00 00 1F F7 FC 00 00 F0
 10.896737 1  167             Rx   d 8 00 FF FF 00 00 02 0E 00
 10.916815 1  167             Rx   d 8 00 FF FF 00 00 02 0E 00
 10.927216 1  167             Rx   d 8 00 FF FF 00 00 02 0E 00
 10.944759 1  76              Rx   d 8 00 00 1F F7 FC 00 00 F0
 10.964535 1  76              Rx   d 8 00 00 1F F7 FC 00 00 F0
 10.984602 1  76              Rx   d 8 00 00 1F F7 FC 00 00 F0
 11.004288 1  59E             Rx   d 8 9E 00 FF FF FF FF FF FF
 11.016900 1  167             Rx   d 8 00 FF FF 00 00 02 0E 00
 11.036757 1  167             Rx   d 8 00 FF FF 00 00 02 0E 00
 11.054688 1  40A             Rx   d 8 C1 04 01 8A 07 54 85 41
 11.064640 1  76              Rx   d 8 00 00 1F F7 FC 00 00 F0
 11.084649 1  76              Rx   d 8 00 00 1F F7 FC 00 00 F0
 11.104962 1  48              Rx   d 8 00 00 00 00 07 00 E0 00
 11.124751 1  76              Rx   d 8 00 00 1F F7 FC 00 00 F0
 11.136797 1  167             Rx   d 8 00 FF FF 00 00 02 0E 00
 11.155065 1  412             Rx   d 8 7D 00 80 80 00 00 00 00
 11.176773 1  167             Rx   d 8 00 FF FF 00 00 02 0E 00
 11.189610 1  421             Rx   d 8 04 00 11 00 00 00 FF 00
 11.207637 1  202             Rx   d 8 00 CC 00 00 00 00 00 00
 11.224703 1  76              Rx   d 8 00 00 1F F7 FC 00 00 F0
 11.244694 1  76              Rx   d 8 00 00 1F F7 FC 00 00 F0
 11.255870 1  412             Rx   d 8 7D 00 80 80 00 00 00 00
 11.276754 1  167             Rx   d 8 00 FF FF 00 00 02 0E 00
 11.296976 1  167             Rx   d 8 00 FF FF 00 00 02 0E 00
 11.314943 1  3CA             Rx   d 8 04 00 00 00 00 00 00 00
 11.327673 1  202             Rx   d 8 00 CC 00 00 00 00 00 00
 11.347189 1  167             Rx   d 8 00 FF FF 00 00 02 0E 00
 11.377073 1  167             Rx   d 8 00 FF FF 00 00 02 0E 00
 11.384871 1  76              Rx   d 8 00 00 1F F7 FC 00 00 F0
 11.384905 1  20A             Rx   d 8 F1 F8 00 00 00 00 4E 20
 11.387103 1  156             Rx   d 8 BA 00 00 00 00 00 00 00
 11.387475 1  166             Rx   d 8 76 00 00 FF FF FF 00 00
 11.388025 1  167             Rx   d 8 00 FF FF 00 00 02 0E 00
 11.388187 1  178             Rx   d 8 00 00 02 00 02 54 CA 53
 11.388431 1  179             Rx   d 8 00 00 08 00 22 FF 00 00
 11.404896 1  48              Rx   d 8 00 00 00 00 07 00 E0 00
 11.416777 1  167             Rx   d 8 00 FF FF 00 00 02 0E 00
 11.435029 1  3CA             Rx   d 8 04 00 00 00 00 00 00 00
 11.447927 1  202             Rx   d 8 00 CC 00 00 00 00 00 00
 11.467369 1  167             Rx   d 8 00 FF FF 00 00 02 0E 00
 11.486954 1  156             Rx   d 8 BA 00 00 00 00 00 00 00
 11.505420 1  412             Rx   d 8 7D 00 80 80 00 00 00 00
 11.524772 1  76              Rx   d 8 00 00 1F F7 FC 00 00 F0
 11.544794 1  76              Rx   d 8 00 00 1F F7 FC 00 00 F0
 11.555019 1  3CA             Rx   d 8 04 00 00 00 00 00 00 00
 11.555171 1  412             Rx   d 8 7D 00 80 80 00 00 00 00
 11.555427 1  42F             Rx   d 8 7D 02 05 4E 26 0B 00 00
 11.555657 1  479             Rx   d 8 00 00 00 00 00 00 00 00
 11.556717 1  167             Rx   d 8 00 FF FF 00 00 02 0E 00
 11.556915 1  171             Rx   d 8 F0 E0 00 00 00 00 00 00
 11.557161 1  204             Rx   d 8 00 00 FF 00 00 00 00 00
 11.567692 1  202             Rx   d 8 00 CC 00 00 00 00 00 00
 11.586952 1  156             Rx   d 8 BA 00 00 00 00 00 00 00
 11.605046 1  48              Rx   d 8 00 00 00 00 07 00 E0 00
 11.616688 1  167             Rx   d 8 00 FF FF 00 00 02 0E 00
 11.636920 1  167             Rx   d 8 00 FF FF 00 00 02 0E 00
 11.655019 1  412             Rx   d 8 7D 00 80 80 00 00 00 00
 11.675046 1  3CA             Rx   d 8 04 00 00 00 00 00 00 00
 11.685165 1  76              Rx   d 8 00 00 1F F7 FC 00 00 F0
 11.702847 1  3B5             Rx   d 8 FF FD FF FD FF FD FF FD
 11.725265 1  76              Rx   d 8 00 00 1F F7 FC 00 00 F0
 11.742364 1  3B2             Rx   d 8 44 8C C0 0C E6 00 03 3E
 11.765129 1  76              Rx   d 8 00 00 1F F7 FC 00 00 F0
 11.776944 1  167             Rx   d 8 00 FF FF 00 00 02 0E 00
 11.795074 1  3CA             Rx   d 8 04 00 00 00 00 00 00 00
 11.816818 1  167             Rx   d 8 00 FF FF 00 00 02 0E 00
 11.836774 1  167             Rx   d 8 00 FF FF 00 00 02 0E 00
 11.855220 1  3CA             Rx   d 8 04 00 00 00 00 00 00 00
 11.867174 1  167             Rx   d 8 00 FF FF 00 00 02 0E 00
 11.885069 1  76              Rx   d 8 00 00 1F F7 FC 00 00 F0
 11.891342 1  42D             Rx   d 8 00 03 FF 00 00 00 F0 00
 11.915294 1  3CA             Rx   d 8 04 00 00 00 00 00 00 00
 11.924950 1  76              Rx   d 8 00 00 1F F7 FC 00 00 F0
 11.945132 1  76              Rx   d 8 00 00 1F F7 FC 00 00 F0
 11.956937 1  204             Rx   d 8 00 00 FF 00 00 00 00 00
 11.975137 1  3CA             Rx   d 8 04 00 00 00 00 00 00 00
 11.996773 1  167             Rx   d 8 00 FF FF 00 00 02 0E 00
 12.009858 1  412             Rx   d 8 7D 00 80 80 00 00 00 00
 12.027687 1  202             Rx   d 8 00 CC 00 00 00 00 00 00
 12.045129 1  76              Rx   d 8 00 00 1F F7 FC 00 00 F0
 12.064983 1  76              Rx   d 8 00 00 1F F7 FC 00 00 F0
 12.085137 1  76              Rx   d 8 00 00 1F F7 FC 00 00 F0
 12.105200 1  48              Rx   d 8 00 00 00 00 07 00 E0 00
 12.117039 1  167             Rx   d 8 00 FF FF 00 00 02 0E 00
 12.136139 1  3B8             Rx   d 8 FF FF FF FF 00 00 00 00
 12.147242 1  167             Rx   d 8 00 FF FF 00 00 02 0E 00
 12.165064 1  76              Rx   d 8 00 00 1F F7 FC 00 00 F0
 12.185554 1  76              Rx   d 8 00 00 1F F7 FC 00 00 F0
 12.194812 1  3B5             Rx   d 8 FF FD FF FD FF FD FF FD
 12.215380 1  3CA             Rx   d 8 04 00 00 00 00 00 00 00
 12.227212 1  167             Rx   d 8 00 FF FF 00 00 02 0E 00
 12.245037 1  76              Rx   d 8 00 00 1F F7 FC 00 00 F0
 12.265236 1  76              Rx   d 8 00 00 1F F7 FC 00 00 F0
 12.285423 1  76              Rx   d 8 00 00 1F F7 FC 00 00 F0
 12.305087 1  48              Rx   d 8 00 00 00 00 07 00 E0 00
 12.316796 1  167             Rx   d 8 00 FF FF 00 00 02 0E 00
 12.335604 1  3CA             Rx   d 8 04 00 00 00 00 00 00 00
 12.355700 1  412             Rx   d 8 7D 00 80 80 00 00 00 00
 12.376787 1  167             Rx   d 8 00 FF FF 00 00 02 0E 00
 12.386916 1  156             Rx   d 8 BA 00 00 00 00 00 00 00
 12.405153 1  48              Rx   d 8 00 00 00 00 07 00 E0 00
 12.425306 1  76              Rx   d 8 00 00 1F F7 FC 00 00 F0
 12.445168 1  76              Rx   d 8 00 00 1F F7 FC 00 00 F0
 12.465226 1  76              Rx   d 8 00 00 1F F7 FC 00 00 F0
 12.476798 1  167             Rx   d 8 00 FF FF 00 00 02 0E 00
 12.488119 1  178             Rx   d 8 00 00 02 00 02 54 CA 53
 12.505299 1  48              Rx   d 8 00 00 00 00 07 00 E0 00
 12.525208 1  76              Rx   d 8 00 00 1F F7 FC 00 00 F0
 12.536788 1  167             Rx   d 8 00 FF FF 00 00 02 0E 00
 12.555387 1  412             Rx   d 8 7D 00 80 80 00 00 00 00
 12.575406 1  3CA             Rx   d 8 04 00 00 00 00 00 00 00
 12.590602 1  42D             Rx   d 8 00 03 FF 00 00 00 F0 00
 12.608323 1  204             Rx   d 8 00 00 FF 00 00 00 00 00
 12.627434 1  167             Rx   d 8 00 FF FF 00 00 02 0E 00
 12.645386 1  76              Rx   d 8 00 00 1F F7 FC 00 00 F0
 12.656762 1  167             Rx   d 8 00 FF FF 00 00 02 0E 00
 12.675182 1  3B4             Rx   d 8 34 21 11 FF 1E 1A 00 00
 12.695382 1  3CA             Rx   d 8 04 00 00 00 00 00 00 00
 12.716797 1  167             Rx   d 8 00 FF FF 00 00 02 0E 00
 12.725327 1  3B2             Rx   d 8 44 8C C0 0C E6 00 03 3E
 12.736906 1  167             Rx   d 8 00 FF FF 00 00 02 0E 00
 12.755435 1  3CA             Rx   d 8 04 00 00 00 00 00 00 00
 12.776935 1  167             Rx   d 8 00 FF FF 00 00 02 0E 00
 12.789348 1  204             Rx   d 8 00 00 FF 00 00 00 00 00
 12.806663 1  433             Rx   d 8 C0 00 00 00 00 90 00 00
 12.824092 1  40A             Rx   d 8 C1 00 57 46 30 4A 58 58
 12.845375 1  76              Rx   d 8 00 00 1F F7 FC 00 00 F0
 12.855659 1  412             Rx   d 8 7D 00 80 80 00 00 00 00
 12.871662 1  331             Rx   d 8 C0 00 48 E8 02 00 00 00
 12.885458 1  76              Rx   d 8 00 00 1F F7 FC 00 00 F0
 12.905583 1  48              Rx   d 8 00 00 00 00 07 00 E0 00
 12.916885 1  167             Rx   d 8 00 FF FF 00 00 02 0E 00
 12.935533 1  3CA             Rx   d 8 04 00 00 00 00 00 00 00
 12.947211 1  167             Rx   d 8 00 FF FF 00 00 02 0E 00
 12.965336 1  76              Rx   d 8 00 00 1F F7 FC 00 00 F0
 12.985739 1  76              Rx   d 8 00 00 1F F7 FC 00 00 F0
 12.995590 1  3CA             Rx   d 8 04 00 00 00 00 00 00 00
 13.016881 1  167             Rx   d 8 00 FF FF 00 00 02 0E 00
 13.036766 1  167             Rx   d 8 00 FF FF 00 00 02 0E 00
 13.055759 1  3CA             Rx   d 8 04 00 00 00 00 00 00 00
 13.067632 1  202             Rx   d 8 00 CC 00 00 00 00 00 00
 13.085559 1  76              Rx   d 8 00 00 1F F7 FC 00 00 F0
 13.105458 1  48              Rx   d 8 00 00 00 00 07 00 E0 00
 13.115807 1  3CA             Rx   d 8 04 00 00 00 00 00 00 00
 13.136769 1  167             Rx   d 8 00 FF FF 00 00 02 0E 00
 13.145420 1  76              Rx   d 8 00 00 1F F7 FC 00 00 F0
 13.165475 1  76              Rx   d 8 00 00 1F F7 FC 00 00 F0
 13.176709 1  167             Rx   d 8 00 FF FF 00 00 02 0E 00
 13.196779 1  167             Rx   d 8 00 FF FF 00 00 02 0E 00
 13.206599 1  412             Rx   d 8 7D 00 80 80 00 00 00 00
 13.225622 1  76              Rx   d 8 00 00 1F F7 FC 00 00 F0
 13.245502 1  76              Rx   d 8 00 00 1F F7 FC 00 00 F0
 13.265917 1  76              Rx   d 8 00 00 1F F7 FC 00 00 F0
 13.285473 1  76              Rx   d 8 00 00 1F F7 FC 00 00 F0
 13.290098 1  42D             Rx   d 8 00 03 FF 00 00 00 F0 00
 13.315048 1  84              Rx   d 8 00 00 00 01 02 1B 0C 00
 13.325723 1  76              Rx   d 8 00 00 1F F7 FC 00 00 F0
 13.345508 1  76              Rx   d 8 00 00 1F F7 FC 00 00 F0
 13.355786 1  3CA             Rx   d 8 04 00 00 00 00 00 00 00
 13.376768 1  167             Rx   d 8 00 FF FF 00 00 02 0E 00
 13.396898 1  167             Rx   d 8 00 FF FF 00 00 02 0E 00
 13.413897 1  331             Rx   d 8 C0 00 48 E9 02 00 00 00
 13.427230 1  167             Rx   d 8 00 FF FF 00 00 02 0E 00
 13.445548 1  76              Rx   d 8 00 00 1F F7 FC 00 00 F0
 13.465888 1  76              Rx   d 8 00 00 1F F7 FC 00 00 F0
 13.485569 1  76              Rx   d 8 00 00 1F F7 FC 00 00 F0
 13.505802 1  48              Rx   d 8 00 00 00 00 07 00 E0 00
 13.516870 1  167             Rx   d 8 00 FF FF 00 00 02 0E 00
 13.536299 1  3CA             Rx   d 8 04 00 00 00 00 00 00 00
 13.547890 1  204             Rx   d 8 00 00 FF 00 00 00 00 00
 13.565602 1  76              Rx   d 8 00 00 1F F7 FC 00 00 F0
 13.585606 1  76              Rx   d 8 00 00 1F F7 FC 00 00 F0
 13.595794 1  3CA             Rx   d 8 04 00 00 00 00 00 00 00
 13.616961 1  167             Rx   d 8 00 FF FF 00 00 02 0E 00
 13.636920 1  167             Rx   d 8 00 FF FF 00 00 02 0E 00
 13.645760 1  76              Rx   d 8 00 00 1F F7 FC 00 00 F0
 13.665598 1  76              Rx   d 8 00 00 1F F7 FC 00 00 F0
 13.685713 1  76              Rx   d 8 00 00 1F F7 FC 00 00 F0
 13.696747 1  167             Rx   d 8 00 FF FF 00 00 02 0E 00
 13.716121 1  3CA             Rx   d 8 04 00 00 00 00 00 00 00
 13.727906 1  202             Rx   d 8 00 CC 00 00 00 00 00 00
 13.745695 1  76              Rx   d 8 00 00 1F F7 FC 00 00 F0
 13.765666 1  76              Rx   d 8 00 00 1F F7 FC 00 00 F0
 13.785723 1  76              Rx   d 8 00 00 1F F7 FC 00 00 F0
 13.805906 1  48              Rx   d 8 00 00 00 00 07 00 E0 00
 13.817063 1  167             Rx   d 8 00 FF FF 00 00 02 0E 00
 13.835965 1  3CA             Rx   d 8 04 00 00 00 00 00 00 00
 13.847209 1  167             Rx   d 8 00 FF FF 00 00 02 0E 00
 13.865677 1  76              Rx   d 8 00 00 1F F7 FC 00 00 F0
 13.886199 1  76              Rx   d 8 00 00 1F F7 FC 00 00 F0
 13.906114 1  48              Rx   d 8 00 00 00 00 07 00 E0 00
 13.926004 1  76              Rx   d 8 00 00 1F F7 FC 00 00 F0
 13.936798 1  167             Rx   d 8 00 FF FF 00 00 02 0E 00
 13.956369 1  3CA             Rx   d 8 04 00 00 00 00 00 00 00
 13.967645 1  202             Rx   d 8 00 CC 00 00 00 00 00 00
 13.985790 1  76              Rx   d 8 00 00 1F F7 FC 00 00 F0
 14.003830 1  40A             Rx   d 8 C1 00 57 46 30 4A 58 58
 14.016150 1  3CA             Rx   d 8 04 00 00 00 00 00 00 00
 14.036777 1  167             Rx   d 8 00 FF FF 00 00 02 0E 00
 14.056225 1  412             Rx   d 8 7D 00 80 80 00 00 00 00
 14.075967 1  3CA             Rx   d 8 04 00 00 00 00 00 00 00
 14.086941 1  156             Rx   d 8 BA 00 00 00 00 00 00 00
 14.106292 1  48              Rx   d 8 00 00 00 00 07 00 E0 00
 14.126243 1  76              Rx   d 8 00 00 1F F7 FC 00 00 F0
 14.145850 1  76              Rx   d 8 00 00 1F F7 FC 00 00 F0
 14.160655 1  3B5             Rx   d 8 FF FD FF FD FF FD FF FD
 14.176738 1  167             Rx   d 8 00 FF FF 00 00 02 0E 00
 14.196180 1  3CA             Rx   d 8 04 00 00 00 00 00 00 00
 14.216865 1  167             Rx   d 8 00 FF FF 00 00 02 0E 00
 14.236797 1  167             Rx   d 8 00 FF FF 00 00 02 0E 00
 14.245898 1  76              Rx   d 8 00 00 1F F7 FC 00 00 F0
 14.265917 1  76              Rx   d 8 00 00 1F F7 FC 00 00 F0
 14.285944 1  76              Rx   d 8 00 00 1F F7 FC 00 00 F0
 14.296891 1  167             Rx   d 8 00 FF FF 00 00 02 0E 00
 14.308273 1  204             Rx   d 8 00 00 FF 00 00 00 00 00
 14.326111 1  76              Rx   d 8 00 00 1F F7 FC 00 00 F0
 14.345931 1  76              Rx   d 8 00 00 1F F7 FC 00 00 F0
 14.365935 1  76              Rx   d 8 00 00 1F F7 FC 00 00 F0
 14.385947 1  76              Rx   d 8 00 00 1F F7 FC 00 00 F0
 14.405965 1  48              Rx   d 8 00 00 00 00 07 00 E0 00
 14.416702 1  167             Rx   d 8 00 FF FF 00 00 02 0E 00
 14.436476 1  3CA             Rx   d 8 04 00 00 00 00 00 00 00
 14.447615 1  202             Rx   d 8 00 CC 00 00 00 00 00 00
 14.466185 1  76              Rx   d 8 00 00 1F F7 FC 00 00 F0
 14.485939 1  76              Rx   d 8 00 00 1F F7 FC 00 00 F0
 14.496460 1  3CA             Rx   d 8 04 00 00 00 00 00 00 00
 14.516984 1  167             Rx   d 8 00 FF FF 00 00 02 0E 00
 14.536866 1  167             Rx   d 8 00 FF FF 00 00 02 0E 00
 14.556412 1  3CA             Rx   d 8 04 00 00 00 00 00 00 00
 14.566204 1  76              Rx   d 8 00 00 1F F7 FC 00 00 F0
 14.586003 1  76              Rx   d 8 00 00 1F F7 FC 00 00 F0
 14.596065 1  447             Rx   d 8 20 00 00 4B 00 20 00 00
 14.616287 1  3CA             Rx   d 8 04 00 00 00 00 00 00 00
 14.636899 1  167             Rx   d 8 00 FF FF 00 00 02 0E 00
 14.651293 1  3B5             Rx   d 8 FF FD FF FD FF FD FF FD
 14.667166 1  167             Rx   d 8 00 FF FF 00 00 02 0E 00
 14.686175 1  76              Rx   d 8 00 00 1F F7 FC 00 00 F0
 14.706272 1  48              Rx   d 8 00 00 00 00 07 00 E0 00
 14.716837 1  167             Rx   d 8 00 FF FF 00 00 02 0E 00
 14.736369 1  3CA             Rx   d 8 04 00 00 00 00 00 00 00
 14.756263 1  412             Rx   d 8 7D 00 80 80 00 00 00 00
 14.776925 1  167             Rx   d 8 00 FF FF 00 00 02 0E 00
 14.788100 1  179             Rx   d 8 00 00 08 00 22 FF 00 00
 14.806298 1  48              Rx   d 8 00 00 00 00 07 00 E0 00
 14.826258 1  76              Rx   d 8 00 00 1F F7 FC 00 00 F0
 14.836731 1  167             Rx   d 8 00 FF FF 00 00 02 0E 00
 14.856268 1  3CA             Rx   d 8 04 00 00 00 00 00 00 00
 14.876799 1  167             Rx   d 8 00 FF FF 00 00 02 0E 00
 14.889619 1  204             Rx   d 8 00 00 FF 00 00 00 00 00
 14.907263 1  433             Rx   d 8 C0 00 00 00 00 90 00 00
 14.926258 1  76              Rx   d 8 00 00 1F F7 FC 00 00 F0
 14.946332 1  76              Rx   d 8 00 00 1F F7 FC 00 00 F0
 14.966393 1  76              Rx   d 8 00 00 1F F7 FC 00 00 F0
 14.986317 1  76              Rx   d 8 00 00 1F F7 FC 00 00 F0
 14.996754 1  167             Rx   d 8 00 FF FF 00 00 02 0E 00
 15.008819 1  275             Rx   d 8 00 00 00 00 00 00 00 00
 63.845381 1  59E             Rx   d 8 9E 00 FF FF FF FF FF FF
 63.845917 1  48              Rx   d 8 00 00 00 00 04 00 E0 00
 63.846149 1  4A              Rx   d 8 02 00 00 00 00 00 00 00
 63.846399 1  4B              Rx   d 8 00 00 00 00 00 00 00 00
 63.846639 1  76              Rx   d 8 00 00 1F F7 FC 00 00 F0
 63.846889 1  77              Rx   d 8 1F FE 0F FE 00 01 00 00
 63.847134 1  108             Rx   d 8 00 04 00 00 80 00 72 64
 63.847374 1  109             Rx   d 8 00 00 EE 00 00 00 04 01
 63.847622 1  14C             Rx   d 8 08 00 00 01 00 00 00 00
 63.847869 1  167             Rx   d 8 00 FF FF 00 00 02 0E 00
 63.848110 1  171             Rx   d 8 F0 E0 00 00 00 00 00 00
 63.848358 1  202             Rx   d 8 00 CC 00 00 00 00 00 00
 63.848610 1  204             Rx   d 8 00 00 FF 00 00 00 00 00
 63.848851 1  20A             Rx   d 8 F1 F8 00 00 00 00 4E 20
 63.849101 1  263             Rx   d 8 00 00 00 00 00 00 00 00
 63.849352 1  275             Rx   d 8 00 00 00 00 00 00 00 00
 63.849600 1  277             Rx   d 8 00 00 00 00 02 53 00 00
 63.849834 1  279             Rx   d 8 00 50 00 3C A8 96 01 00
 63.850084 1  27A             Rx   d 8 00 FF FE 00 00 00 00 00
 63.850334 1  303             Rx   d 8 00 00 00 00 00 00 00 00
 63.850601 1  307             Rx   d 8 06 00 00 00 00 00 00 00
 63.850833 1  38A             Rx   d 8 4E 00 00 01 00 46 00 00
 63.851078 1  3A8             Rx   d 8 06 00 00 00 00 00 00 00
 63.851321 1  3AE             Rx   d 8 00 00 00 00 00 00 00 00
 63.851564 1  3B3             Rx   d 8 20 80 00 0C FE 00 00 00
 63.851821 1  3CA             Rx   d 8 04 00 00 00 00 00 00 00
 63.852056 1  3D0             Rx   d 8 01 0F 49 1B 80 00 1F FE
 63.852300 1  412             Rx   d 8 7D 00 80 80 00 00 00 00
 63.852544 1  424             Rx   d 8 00 26 80 03 00 00 30 00
 63.852785 1  42C             Rx   d 8 30 30 C4 80 00 00 00 97
 63.853021 1  42F             Rx   d 8 7D 02 05 4E 26 0B 00 00
 63.853271 1  431             Rx   d 8 00 00 00 00 00 00 00 00
 63.853518 1  432             Rx   d 8 00 00 00 00 00 00 00 00
 63.853764 1  433             Rx   d 8 C0 00 00 00 00 90 00 00
 63.854007 1  46A             Rx   d 8 00 00 00 88 00 10 C0 00
 63.854243 1  46B             Rx   d 8 B8 A0 48 00 00 00 D2 09
 63.854496 1  470             Rx   d 8 00 00 40 00 00 00 00 00
 63.854763 1  479             Rx   d 8 00 00 00 00 00 00 00 00
 63.856167 1  167             Rx   d 8 00 FF FF 00 00 02 0E 00
 63.856379 1  204             Rx   d 8 00 00 FF 00 00 00 00 00
 63.861846 1  3B2             Rx   d 8 20 88 C0 0C E6 00 03 3E
 63.862030 1  3C3             Rx   d 8 40 88 00 C8 01 00 81 00
 63.865907 1  76              Rx   d 8 00 00 1F F7 FC 00 00 F0
 63.866138 1  20A             Rx   d 8 F1 F8 00 00 00 00 4E 20
 63.866606 1  167             Rx   d 8 00 FF FF 00 00 02 0E 00
 63.867088 1  202             Rx   d 8 00 CC 00 00 00 00 00 00
 63.867340 1  204             Rx   d 8 00 00 FF 00 00 00 00 00
 63.875800 1  3CA             Rx   d 8 04 00 00 00 00 00 00 00
 63.876195 1  167             Rx   d 8 00 FF FF 00 00 02 0E 00
 63.876394 1  171             Rx   d 8 F0 E0 00 00 00 00 00 00
 63.876640 1  204             Rx   d 8 00 00 FF 00 00 00 00 00
 63.885612 1  76              Rx   d 8 00 00 1F F7 FC 00 00 F0
 63.885764 1  20A             Rx   d 8 F1 F8 00 00 00 00 4E 20
 63.886370 1  156             Rx   d 8 BA 00 00 00 00 00 00 00
 63.886863 1  166             Rx   d 8 76 00 00 FF FF FF 00 00
 63.887129 1  167             Rx   d 8 00 FF FF 00 00 02 0E 00
 63.887345 1  178             Rx   d 8 00 00 02 00 02 54 CA 53
 63.887581 1  179             Rx   d 8 00 00 08 00 22 FF 00 00
 63.887835 1  17C             Rx   d 8 00 00 00 00 00 00 00 00
 63.888311 1  202             Rx   d 8 00 CC 00 00 00 00 00 00
 63.888560 1  204             Rx   d 8 00 00 FF 00 00 00 00 00
 63.889038 1  421             Rx   d 8 04 00 11 00 00 00 FF 00
 63.889859 1  42D             Rx   d 8 00 03 FF 00 00 00 F0 00
 63.895836 1  412             Rx   d 8 7D 00 80 80 00 00 00 00
 63.895989 1  42F             Rx   d 8 7D 02 05 4E 26 0B 00 00
 63.896228 1  167             Rx   d 8 00 FF FF 00 00 02 0E 00
 63.896425 1  204             Rx   d 8 00 00 FF 00 00 00 00 00
 63.901371 1  46B             Rx   d 8 B9 A0 48 00 00 00 D2 01
 63.906273 1  76              Rx   d 8 00 00 1F F7 FC 00 00 F0
 63.906315 1  20A             Rx   d 8 F1 F8 00 00 00 00 4E 20
 63.906320 1  3CA             Rx   d 8 04 00 00 00 00 00 00 00
 63.906666 1  167             Rx   d 8 00 FF FF 00 00 02 0E 00
 63.906872 1  171             Rx   d 8 F0 E0 00 00 00 00 00 00
 63.907409 1  202             Rx   d 8 00 CC 00 00 00 00 00 00
 63.907607 1  204             Rx   d 8 00 00 FF 00 00 00 00 00
 63.916256 1  167             Rx   d 8 00 FF FF 00 00 02 0E 00
 63.916390 1  204             Rx   d 8 00 00 FF 00 00 00 00 00
 63.925596 1  76              Rx   d 8 00 00 1F F7 FC 00 00 F0
 63.925779 1  20A             Rx   d 8 F1 F8 00 00 00 00 4E 20
 63.926646 1  167             Rx   d 8 00 FF FF 00 00 02 0E 00
 63.927126 1  202             Rx   d 8 00 CC 00 00 00 00 00 00
 63.927360 1  204             Rx   d 8 00 00 FF 00 00 00 00 00
 63.936351 1  3CA             Rx   d 8 04 00 00 00 00 00 00 00
 63.936401 1  167             Rx   d 8 00 FF FF 00 00 02 0E 00
 63.936573 1  171             Rx   d 8 F0 E0 00 00 00 00 00 00
 63.936876 1  204             Rx   d 8 00 00 FF 00 00 00 00 00
 63.940108 1  40A             Rx   d 8 C1 02 32 38 38 33 36 00
 63.945857 1  48              Rx   d 8 00 00 00 00 04 00 E0 00
 63.945896 1  76              Rx   d 8 00 00 1F F7 FC 00 00 F0
 63.946630 1  20A             Rx   d 8 F1 F8 00 00 00 00 4E 20
 63.946674 1  38A             Rx   d 8 4E 00 00 01 00 46 00 00
 63.946684 1  412             Rx   d 8 7D 00 80 80 00 00 00 00
 63.947129 1  42F             Rx   d 8 7D 02 05 4E 26 0B 00 00
 63.947152 1  167             Rx   d 8 00 FF FF 00 00 02 0E 00
 63.947551 1  433             Rx   d 8 C0 00 00 00 00 90 00 00
 63.947574 1  202             Rx   d 8 00 CC 00 00 00 00 00 00
 63.947983 1  204             Rx   d 8 00 00 FF 00 00 00 00 00
 63.947996 1  470             Rx   d 8 00 00 40 00 00 00 00 00
 63.956241 1  167             Rx   d 8 00 FF FF 00 00 02 0E 00
 63.956374 1  204             Rx   d 8 00 00 FF 00 00 00 00 00
 63.958615 1  331             Rx   d 8 C0 00 00 00 02 00 00 00
 63.958866 1  3B2             Rx   d 8 10 88 C0 0C E6 00 03 3C
 63.959106 1  3C3             Rx   d 8 40 88 20 E8 01 00 81 00
 63.961083 1  3B3             Rx   d 8 10 80 00 0C FE 00 00 00
 63.965677 1  76              Rx   d 8 00 00 1F F7 FC 00 00 F0
 63.965909 1  20A             Rx   d 8 F1 F8 00 00 00 00 4E 20
 63.966255 1  3CA             Rx   d 8 04 00 00 00 00 00 00 00
 63.966670 1  167             Rx   d 8 00 FF FF 00 00 02 0E 00
 63.966879 1  171             Rx   d 8 F0 E0 00 00 00 00 00 00
 63.967376 1  202             Rx   d 8 00 CC 00 00 00 00 00 00
 63.967619 1  204             Rx   d 8 00 00 FF 00 00 00 00 00
 63.971385 1  48              Rx   d 8 00 00 00 00 00 00 E0 00
 63.976391 1  167             Rx   d 8 00 FF FF 00 00 02 0E 00
 63.976434 1  204             Rx   d 8 00 00 FF 00 00 00 00 00
 63.985650 1  76              Rx   d 8 00 00 1F F7 FC 00 00 F0
 63.985861 1  20A             Rx   d 8 F1 F8 00 00 00 00 4E 20
 63.986536 1  156             Rx   d 8 BA 00 00 00 00 00 00 00
 63.987002 1  166             Rx   d 8 76 00 00 FF FF FF 00 00
 63.987231 1  167             Rx   d 8 00 FF FF 00 00 02 0E 00
 63.987429 1  178             Rx   d 8 00 00 02 00 02 54 CA 53
 63.987792 1  179             Rx   d 8 00 00 08 00 22 FF 00 00
 63.988063 1  17C             Rx   d 8 00 00 00 00 00 00 00 00
 63.988405 1  202             Rx   d 8 00 CC 00 00 00 00 00 00
 63.988582 1  204             Rx   d 8 00 00 FF 00 00 00 00 00
 63.989048 1  331             Rx   d 8 C0 00 00 00 02 00 00 00
 63.989787 1  421             Rx   d 8 04 00 11 00 00 00 FF 00
 63.990602 1  42D             Rx   d 8 00 03 FF 00 00 00 F0 00
 63.995781 1  3CA             Rx   d 8 04 00 00 00 00 00 00 00
 63.995960 1  412             Rx   d 8 7D 00 80 80 00 00 00 00
 63.996206 1  42F             Rx   d 8 7D 02 05 4E 26 0B 00 00
 63.996458 1  167             Rx   d 8 00 FF FF 00 00 02 0E 00
 63.996700 1  171             Rx   d 8 F0 E0 00 00 00 00 00 00
 63.996951 1  204             Rx   d 8 00 00 FF 00 00 00 00 00
 63.997199 1  479             Rx   d 8 00 00 00 00 00 00 00 00
 64.005652 1  76              Rx   d 8 00 00 1F F7 FC 00 00 F0
 64.005795 1  20A             Rx   d 8 F1 F8 00 00 00 00 4E 20
 64.006641 1  167             Rx   d 8 00 FF FF 00 00 02 0E 00
 64.007114 1  202             Rx   d 8 00 CC 00 00 00 00 00 00
 64.007352 1  204             Rx   d 8 00 00 FF 00 00 00 00 00
 64.016469 1  167             Rx   d 8 00 FF FF 00 00 02 0E 00
 64.016516 1  204             Rx   d 8 00 00 FF 00 00 00 00 00
 64.026229 1  76              Rx   d 8 00 00 1F F7 FC 00 00 F0
 64.026283 1  20A             Rx   d 8 F1 F8 00 00 00 00 4E 20
 64.026290 1  3CA             Rx   d 8 04 00 00 00 00 00 00 00
 64.027013 1  167             Rx   d 8 00 FF FF 00 00 02 0E 00
 64.027049 1  171             Rx   d 8 F0 E0 00 00 00 00 00 00
 64.027465 1  202             Rx   d 8 00 CC 00 00 00 00 00 00
 64.027594 1  204             Rx   d 8 00 00 FF 00 00 00 00 00
 64.028204 1  3B2             Rx   d 8 10 88 00 00 E6 00 03 3C
 64.031646 1  3B3             Rx   d 8 10 80 00 00 FE 00 00 00
 64.036391 1  167             Rx   d 8 00 FF FF 00 00 02 0E 00
 64.036582 1  204             Rx   d 8 00 00 FF 00 00 00 00 00
 64.045687 1  48              Rx   d 8 00 00 00 00 00 00 E0 00
 64.045839 1  76              Rx   d 8 00 00 1F F7 FC 00 00 F0
 64.046167 1  14C             Rx   d 8 08 00 00 01 00 00 00 00
 64.046324 1  20A             Rx   d 8 F1 F8 00 00 00 00 4E 20
 64.046587 1  412             Rx   d 8 7D 00 80 80 00 00 00 00
 64.046872 1  42F             Rx   d 8 7D 02 05 4E 26 0B 00 00
 64.047088 1  167             Rx   d 8 00 FF FF 00 00 02 0E 00
 64.047400 1  433             Rx   d 8 C0 00 00 00 00 90 00 00
 64.047554 1  202             Rx   d 8 00 CC 00 00 00 00 00 00
 64.047910 1  204             Rx   d 8 00 00 FF 00 00 00 00 00
 64.048107 1  470             Rx   d 8 00 00 40 00 00 00 00 00
 64.055905 1  3CA             Rx   d 8 04 00 00 00 00 00 00 00
 64.056182 1  167             Rx   d 8 00 FF FF 00 00 02 0E 00
 64.056383 1  171             Rx   d 8 F0 E0 00 00 00 00 00 00
 64.056633 1  204             Rx   d 8 00 00 FF 00 00 00 00 00
 64.065651 1  76              Rx   d 8 00 00 1F F7 FC 00 00 F0
 64.065824 1  20A             Rx   d 8 F1 F8 00 00 00 00 4E 20
 64.066607 1  167             Rx   d 8 00 FF FF 00 00 02 0E 00
 64.067101 1  202             Rx   d 8 00 CC 00 00 00 00 00 00
 64.067367 1  204             Rx   d 8 00 00 FF 00 00 00 00 00
 64.076264 1  167             Rx   d 8 00 FF FF 00 00 02 0E 00
 64.076645 1  204             Rx   d 8 00 00 FF 00 00 00 00 00
 64.085892 1  76              Rx   d 8 00 00 1F F7 FC 00 00 F0
 64.085938 1  20A             Rx   d 8 F1 F8 00 00 00 00 4E 20
 64.086236 1  3CA             Rx   d 8 04 00 00 00 00 00 00 00
 64.086397 1  156             Rx   d 8 BA 00 00 00 00 00 00 00
 64.087231 1  166             Rx   d 8 76 00 00 FF FF FF 00 00
 64.087254 1  167             Rx   d 8 00 FF FF 00 00 02 0E 00
 64.087371 1  171             Rx   d 8 F0 E0 00 00 00 00 00 00
 64.087593 1  178             Rx   d 8 00 00 02 00 02 54 CA 53
 64.087850 1  179             Rx   d 8 00 00 08 00 22 FF 00 00
 64.088094 1  17C             Rx   d 8 00 00 00 00 00 00 00 00
 64.088610 1  202             Rx   d 8 00 CC 00 00 00 00 00 00
 64.088862 1  204             Rx   d 8 00 00 FF 00 00 00 00 00
 64.089350 1  421             Rx   d 8 04 00 11 00 00 00 FF 00
 64.089884 1  42D             Rx   d 8 00 03 FF 00 00 00 F0 00
 64.096615 1  412             Rx   d 8 7D 00 80 80 00 00 00 00
 64.096670 1  42C             Rx   d 8 30 30 C4 80 00 00 00 96
 64.096677 1  167             Rx   d 8 00 FF FF 00 00 02 0E 00
 64.096684 1  204             Rx   d 8 00 00 FF 00 00 00 00 00
 64.096944 1  42F             Rx   d 8 7D 02 05 4E 26 0B 00 00
 64.105706 1  76              Rx   d 8 00 00 1F F7 FC 00 00 F0
 64.105838 1  20A             Rx   d 8 F1 F8 00 00 00 00 4E 20
 64.106608 1  167             Rx   d 8 00 FF FF 00 00 02 0E 00
 64.107089 1  202             Rx   d 8 00 CC 00 00 00 00 00 00
 64.107340 1  204             Rx   d 8 00 00 FF 00 00 00 00 00
 64.115880 1  3CA             Rx   d 8 04 00 00 00 00 00 00 00
 64.116181 1  167             Rx   d 8 00 FF FF 00 00 02 0E 00
 64.116387 1  171             Rx   d 8 F0 E0 00 00 00 00 00 00
 64.116648 1  204             Rx   d 8 00 00 FF 00 00 00 00 00
 64.125922 1  76              Rx   d 8 00 00 1F F7 FC 00 00 F0
 64.125977 1  20A             Rx   d 8 F1 F8 00 00 00 00 4E 20
 64.126702 1  167             Rx   d 8 00 FF FF 00 00 02 0E 00
 64.127198 1  202             Rx   d 8 00 CC 00 00 00 00 00 00
 64.127390 1  204             Rx   d 8 00 00 FF 00 00 00 00 00
 64.136766 1  167             Rx   d 8 00 FF FF 00 00 02 0E 00
 64.136821 1  204             Rx   d 8 00 00 FF 00 00 00 00 00
 64.137856 1  40A             Rx   d 8 C1 04 01 8A 07 54 85 41
 64.145694 1  48              Rx   d 8 00 00 00 00 00 00 E0 00
 64.145900 1  76              Rx   d 8 00 00 1F F7 FC 00 00 F0
 64.146181 1  20A             Rx   d 8 F1 F8 00 00 00 00 4E 20
 64.146346 1  3CA             Rx   d 8 04 00 00 00 00 00 00 00
 64.146587 1  412             Rx   d 8 7D 00 80 80 00 00 00 00
 64.146827 1  167             Rx   d 8 00 FF FF 00 00 02 0E 00
 64.147063 1  171             Rx   d 8 F0 E0 00 00 00 00 00 00
 64.147301 1  42F             Rx   d 8 7D 02 05 4E 26 0B 00 00
 64.147566 1  202             Rx   d 8 00 CC 00 00 00 00 00 00
 64.147869 1  204             Rx   d 8 00 00 FF 00 00 00 00 00
 64.148060 1  433             Rx   d 8 C0 00 00 00 00 90 00 00
 64.148307 1  470             Rx   d 8 00 00 40 00 00 00 00 00
 64.148548 1  479             Rx   d 8 00 00 00 00 00 00 00 00
 64.156291 1  167             Rx   d 8 00 FF FF 00 00 02 0E 00
 64.156431 1  204             Rx   d 8 00 00 FF 00 00 00 00 00
 64.166113 1  76              Rx   d 8 00 00 1F F7 FC 00 00 F0
 64.166194 1  20A             Rx   d 8 F1 F8 00 00 00 00 4E 20
 64.167005 1  167             Rx   d 8 00 FF FF 00 00 02 0E 00
 64.167178 1  202             Rx   d 8 00 CC 00 00 00 00 00 00
 64.167375 1  204             Rx   d 8 00 00 FF 00 00 00 00 00
 64.176238 1  167             Rx   d 8 00 FF FF 00 00 02 0E 00
 64.176373 1  3CA             Rx   d 8 04 00 00 00 00 00 00 00
 64.176625 1  171             Rx   d 8 F0 E0 00 00 00 00 00 00
 64.176869 1  204             Rx   d 8 00 00 FF 00 00 00 00 00
 64.186189 1  76              Rx   d 8 00 00 1F F7 FC 00 00 F0
 64.186219 1  20A             Rx   d 8 F1 F8 00 00 00 00 4E 20
 64.186405 1  156             Rx   d 8 BA 00 00 00 00 00 00 00
 64.186871 1  166             Rx   d 8 76 00 00 FF FF FF 00 00
 64.187104 1  167             Rx   d 8 00 FF FF 00 00 02 0E 00
 64.187336 1  178             Rx   d 8 00 00 02 00 02 54 CA 53
 64.187575 1  179             Rx   d 8 00 00 08 00 22 FF 00 00
 64.187857 1  17C             Rx   d 8 00 00 00 00 00 00 00 00
 64.188314 1  202             Rx   d 8 00 CC 00 00 00 00 00 00
 64.188564 1  204             Rx   d 8 00 00 FF 00 00 00 00 00
 64.189064 1  421             Rx   d 8 04 00 11 00 00 00 FF 00
 64.189550 1  42D             Rx   d 8 00 03 FF 00 00 00 F0 00
 64.195101 1  3C3             Rx   d 8 40 88 00 E8 01 00 81 00
 64.195878 1  412             Rx   d 8 7D 00 80 80 00 00 00 00
 64.195999 1  42F             Rx   d 8 7D 02 05 4E 26 0B 00 00
 64.196276 1  167             Rx   d 8 00 FF FF 00 00 02 0E 00
 64.196529 1  204             Rx   d 8 00 00 FF 00 00 00 00 00
 64.205858 1  76              Rx   d 8 00 00 1F F7 FC 00 00 F0
 64.205918 1  20A             Rx   d 8 F1 F8 00 00 00 00 4E 20
 64.206182 1  3CA             Rx   d 8 04 00 00 00 00 00 00 00
 64.206620 1  167             Rx   d 8 00 FF FF 00 00 02 0E 00
 64.206887 1  171             Rx   d 8 F0 E0 00 00 00 00 00 00
 64.207355 1  202             Rx   d 8 00 CC 00 00 00 00 00 00
 64.207596 1  204             Rx   d 8 00 00 FF 00 00 00 00 00
 64.216265 1  167             Rx   d 8 00 FF FF 00 00 02 0E 00
 64.216403 1  204             Rx   d 8 00 00 FF 00 00 00 00 00
 64.225788 1  76              Rx   d 8 00 00 1F F7 FC 00 00 F0
 64.225940 1  20A             Rx   d 8 F1 F8 00 00 00 00 4E 20
 64.226665 1  167             Rx   d 8 00 FF FF 00 00 02 0E 00
 64.227104 1  202             Rx   d 8 00 CC 00 00 00 00 00 00
 64.227344 1  204             Rx   d 8 00 00 FF 00 00 00 00 00
 64.235017 1  3B8             Rx   d 8 FF FF FF FF 00 00 00 00
 64.236439 1  167             Rx   d 8 00 FF FF 00 00 02 0E 00
 64.236472 1  3CA             Rx   d 8 04 00 00 00 00 00 00 00
 64.236698 1  171             Rx   d 8 F0 E0 00 00 00 00 00 00
 64.236957 1  204             Rx   d 8 00 00 FF 00 00 00 00 00
 64.245978 1  48              Rx   d 8 00 00 00 00 00 00 E0 00
 64.246099 1  76              Rx   d 8 00 00 1F F7 FC 00 00 F0
 64.248199 1  14C             Rx   d 8 08 00 00 01 00 00 00 00
 64.248225 1  20A             Rx   d 8 F1 F8 00 00 00 00 4E 20
 64.248230 1  412             Rx   d 8 7D 00 80 80 00 00 00 00
 64.248235 1  167             Rx   d 8 00 FF FF 00 00 02 0E 00
 64.248238 1  42F             Rx   d 8 7D 02 05 4E 26 0B 00 00
 64.248241 1  202             Rx   d 8 00 CC 00 00 00 00 00 00
 64.248244 1  204             Rx   d 8 00 00 FF 00 00 00 00 00
 64.248246 1  433             Rx   d 8 C0 00 00 00 00 90 00 00
 64.248249 1  470             Rx   d 8 00 00 40 00 00 00 00 00
 64.256247 1  167             Rx   d 8 00 FF FF 00 00 02 0E 00
 64.256381 1  204             Rx   d 8 00 00 FF 00 00 00 00 00
 64.276441 1  167             Rx   d 8 00 FF FF 00 00 02 0E 00
 64.288347 1  202             Rx   d 8 00 CC 00 00 00 00 00 00
 64.305797 1  76              Rx   d 8 00 00 1F F7 FC 00 00 F0
 64.325768 1  76              Rx   d 8 00 00 1F F7 FC 00 00 F0
 64.345803 1  48              Rx   d 8 00 00 00 00 00 00 E0 00
 64.356078 1  3CA             Rx   d 8 04 00 00 00 00 00 00 00
 64.376258 1  167             Rx   d 8 00 FF FF 00 00 02 0E 00
 64.396743 1  412             Rx   d 8 7D 00 80 80 00 00 00 00
 64.416212 1  3CA             Rx   d 8 04 00 00 00 00 00 00 00
 64.436551 1  167             Rx   d 8 00 FF FF 00 00 02 0E 00
 64.445810 1  48              Rx   d 8 00 00 00 00 00 00 E0 00
 64.466432 1  76              Rx   d 8 00 00 1F F7 FC 00 00 F0
 64.476002 1  3CA             Rx   d 8 04 00 00 00 00 00 00 00
 64.486883 1  166             Rx   d 8 76 00 00 FF FF FF 00 00
 64.506012 1  76              Rx   d 8 00 00 1F F7 FC 00 00 F0
 64.516226 1  167             Rx   d 8 00 FF FF 00 00 02 0E 00
 64.529758 1  40A             Rx   d 8 C0 00 00 23 61 0B F0 00
 64.556247 1  167             Rx   d 8 00 FF FF 00 00 02 0E 00
 64.565873 1  76              Rx   d 8 00 00 1F F7 FC 00 00 F0
 64.586381 1  76              Rx   d 8 00 00 1F F7 FC 00 00 F0
 64.605888 1  76              Rx   d 8 00 00 1F F7 FC 00 00 F0
 64.626061 1  76              Rx   d 8 00 00 1F F7 FC 00 00 F0
 64.636354 1  167             Rx   d 8 00 FF FF 00 00 02 0E 00
 64.656298 1  3CA             Rx   d 8 04 00 00 00 00 00 00 00
 64.665915 1  76              Rx   d 8 00 00 1F F7 FC 00 00 F0
 64.676264 1  167             Rx   d 8 00 FF FF 00 00 02 0E 00
 64.696621 1  412             Rx   d 8 7D 00 80 80 00 00 00 00
 64.706128 1  76              Rx   d 8 00 00 1F F7 FC 00 00 F0
 64.726188 1  76              Rx   d 8 00 00 1F F7 FC 00 00 F0
 64.730521 1  447             Rx   d 8 20 00 00 4B 00 00 00 00
 64.756235 1  167             Rx   d 8 00 FF FF 00 00 02 0E 00
 64.774382 1  3B4             Rx   d 8 34 21 11 FF 1E 1A 00 00
 64.786849 1  166             Rx   d 8 76 00 00 FF FF FF 00 00
 64.806557 1  76              Rx   d 8 00 00 1F F7 FC 00 00 F0
 64.824166 1  3B2             Rx   d 8 10 88 00 00 E6 00 03 3C
 64.836449 1  167             Rx   d 8 00 FF FF 00 00 02 0E 00
 64.845756 1  59E             Rx   d 8 9E 00 FF FF FF FF FF FF
 64.866065 1  76              Rx   d 8 00 00 1F F7 FC 00 00 F0
 64.886557 1  76              Rx   d 8 00 00 1F F7 FC 00 00 F0
 64.906072 1  76              Rx   d 8 00 00 1F F7 FC 00 00 F0
 64.907136 1  202             Rx   d 8 00 CC 00 00 00 00 00 00
 64.916423 1  167             Rx   d 8 00 FF FF 00 00 02 0E 00
 64.916461 1  204             Rx   d 8 00 00 FF 00 00 00 00 00
 64.923101 1  40A             Rx   d 8 C1 01 47 41 48 4A 48 45
 64.927357 1  76              Rx   d 8 00 00 1F F7 FC 00 00 F0
 64.927415 1  167             Rx   d 8 00 FF FF 00 00 02 0E 00
 64.946209 1  48              Rx   d 8 00 00 00 00 00 00 E0 00
 64.970559 1  331             Rx   d 8 C0 00 00 00 02 00 00 00
 65.006338 1  76              Rx   d 8 00 00 1F F7 FC 00 00 F0
 65.026421 1  76              Rx   d 8 00 00 1F F7 FC 00 00 F0
 65.046214 1  48              Rx   d 8 00 00 00 00 00 00 E0 00
 65.066272 1  76              Rx   d 8 00 00 1F F7 FC 00 00 F0
 65.076778 1  167             Rx   d 8 00 FF FF 00 00 02 0E 00
 65.086288 1  76              Rx   d 8 00 00 1F F7 FC 00 00 F0
 65.106273 1  76              Rx   d 8 00 00 1F F7 FC 00 00 F0
 65.116243 1  167             Rx   d 8 00 FF FF 00 00 02 0E 00
 65.136262 1  167             Rx   d 8 00 FF FF 00 00 02 0E 00
 65.156354 1  167             Rx   d 8 00 FF FF 00 00 02 0E 00
 65.176419 1  167             Rx   d 8 00 FF FF 00 00 02 0E 00
 65.186377 1  76              Rx   d 8 00 00 1F F7 FC 00 00 F0
 65.216426 1  167             Rx   d 8 00 FF FF 00 00 02 0E 00
 65.236233 1  167             Rx   d 8 00 FF FF 00 00 02 0E 00
 65.266782 1  76              Rx   d 8 00 00 1F F7 FC 00 00 F0
 65.276328 1  167             Rx   d 8 00 FF FF 00 00 02 0E 00
 65.306225 1  76              Rx   d 8 00 00 1F F7 FC 00 00 F0
 65.326353 1  76              Rx   d 8 00 00 1F F7 FC 00 00 F0
 65.336478 1  167             Rx   d 8 00 FF FF 00 00 02 0E 00
 65.348794 1  433             Rx   d 8 C0 00 00 00 00 90 00 00
 65.366618 1  76              Rx   d 8 00 00 1F F7 FC 00 00 F0
