date Fri Mar 21 06:56:24.989 PM 2025
base hex  timestamps absolute
internal events logged
Begin Triggerblock Fri Mar 21 06:56:24.994 PM 2025
 0.000000 Start of measurement
 0.000000 1  76              Rx   d 8 00 00 1F F7 FC 00 00 F0
 0.000188 1  167             Rx   d 8 00 FF FF 00 00 02 0E 00
 0.000367 1  204             Rx   d 8 00 00 FF 00 00 00 00 00
 0.000610 1  20A             Rx   d 8 F1 F8 00 00 00 00 4E 20
 0.004150 1  318             Rx   d 8 00 00 00 00 00 00 00 00
 0.004331 1  346             Rx   d 8 00 00 00 03 03 00 C0 00
 0.004576 1  348             Rx   d 8 00 00 00 01 00 00 00 00
 0.004853 1  430             Rx   d 8 48 00 40 9B 00 20 64 00
 0.005118 1  434             Rx   d 8 40 00 70 00 20 4D 28 00
 0.010546 1  167             Rx   d 8 00 FF FF 00 00 02 0E 00
 0.010785 1  171             Rx   d 8 F0 E0 00 00 00 00 00 00
 0.011015 1  3CA             Rx   d 8 04 00 00 00 00 00 00 00
 0.011266 1  202             Rx   d 8 00 CC 00 00 00 00 00 00
 0.011514 1  204             Rx   d 8 00 00 FF 00 00 00 00 00
 0.019917 1  76              Rx   d 8 00 00 1F F7 FC 00 00 F0
 0.020096 1  167             Rx   d 8 00 FF FF 00 00 02 0E 00
 0.020337 1  204             Rx   d 8 00 00 FF 00 00 00 00 00
 0.020577 1  20A             Rx   d 8 F1 F8 00 00 00 00 4E 20
 0.025542 1  46B             Rx   d 8 B7 A0 48 00 00 00 D2 09
 0.030055 1  412             Rx   d 8 7D 00 80 80 00 00 00 00
 0.030216 1  42F             Rx   d 8 7D 02 05 4E 26 0B 00 00
 0.030421 1  156             Rx   d 8 BA 00 00 00 00 00 00 00
 0.030818 1  166             Rx   d 8 76 00 00 FF FF FF 00 00
 0.030997 1  167             Rx   d 8 00 FF FF 00 00 02 0E 00
 0.031276 1  178             Rx   d 8 00 00 02 00 02 54 CA 53
 0.031510 1  179             Rx   d 8 00 00 08 00 22 FF 00 00
 0.031802 1  17C             Rx   d 8 00 00 00 00 00 00 00 00
 0.032249 1  202             Rx   d 8 00 CC 00 00 00 00 00 00
 0.032490 1  204             Rx   d 8 00 00 FF 00 00 00 00 00
 0.032970 1  331             Rx   d 8 C0 00 49 3F 04 00 00 00
 0.033737 1  421             Rx   d 8 04 00 11 00 00 00 FF 00
 0.034513 1  42D             Rx   d 8 00 03 FF 00 00 00 F0 00
 0.040157 1  76              Rx   d 8 00 00 1F F7 FC 00 00 F0
 0.040188 1  167             Rx   d 8 00 FF FF 00 00 02 0E 00
 0.040427 1  20A             Rx   d 8 F1 F8 00 00 00 00 4E 20
 0.040684 1  171             Rx   d 8 F0 E0 00 00 00 00 00 00
 0.040895 1  204             Rx   d 8 00 00 FF 00 00 00 00 00
 0.041156 1  3CA             Rx   d 8 04 00 00 00 00 00 00 00
 0.050624 1  167             Rx   d 8 00 FF FF 00 00 02 0E 00
 0.051022 1  202             Rx   d 8 00 CC 00 00 00 00 00 00
 0.051259 1  204             Rx   d 8 00 00 FF 00 00 00 00 00
 0.060228 1  76              Rx   d 8 00 00 1F F7 FC 00 00 F0
 0.060275 1  167             Rx   d 8 00 FF FF 00 00 02 0E 00
 0.060479 1  204             Rx   d 8 00 00 FF 00 00 00 00 00
 0.060755 1  20A             Rx   d 8 F1 F8 00 00 00 00 4E 20
 0.069682 1  59E             Rx   d 8 9E 00 FF FF FF FF FF FF
 0.070012 1  3CA             Rx   d 8 04 00 00 00 00 00 00 00
 0.070565 1  167             Rx   d 8 00 FF FF 00 00 02 0E 00
 0.070794 1  171             Rx   d 8 F0 E0 00 00 00 00 00 00
 0.071341 1  202             Rx   d 8 00 CC 00 00 00 00 00 00
 0.071572 1  204             Rx   d 8 00 00 FF 00 00 00 00 00
 0.080038 1  48              Rx   d 8 00 00 00 00 07 00 E0 00
 0.080186 1  76              Rx   d 8 00 00 1F F7 FC 00 00 F0
 0.080394 1  77              Rx   d 8 1F FE 0F FE 00 01 00 00
 0.080624 1  108             Rx   d 8 00 04 00 00 80 00 72 64
 0.080866 1  109             Rx   d 8 00 00 EE 00 00 00 04 01
 0.081116 1  14C             Rx   d 8 08 00 00 01 00 00 00 00
 0.081375 1  167             Rx   d 8 00 FF FF 00 00 02 0E 00
 0.081617 1  204             Rx   d 8 00 00 FF 00 00 00 00 00
 0.081865 1  20A             Rx   d 8 F1 F8 00 00 00 00 4E 20
 0.082110 1  275             Rx   d 8 00 00 00 00 00 00 00 00
 0.082355 1  277             Rx   d 8 00 00 00 00 02 53 00 00
 0.082587 1  279             Rx   d 8 00 50 00 3C A8 96 01 00
 0.082844 1  27A             Rx   d 8 00 FF FE 00 00 00 00 00
 0.083103 1  303             Rx   d 8 00 00 00 00 00 00 00 00
 0.083379 1  3A8             Rx   d 8 06 00 00 00 00 00 00 00
 0.083596 1  3B3             Rx   d 8 44 80 00 0C FE 00 00 00
 0.083822 1  3D0             Rx   d 8 01 0F 49 3F 80 00 1F FE
 0.084071 1  412             Rx   d 8 7D 00 80 80 00 00 00 00
 0.084313 1  424             Rx   d 8 00 26 80 03 00 00 30 00
 0.084561 1  42C             Rx   d 8 30 31 C4 80 00 00 00 96
 0.084861 1  42F             Rx   d 8 7D 02 05 4E 26 0B 00 00
 0.085178 1  431             Rx   d 8 00 00 00 00 00 00 00 00
 0.085296 1  432             Rx   d 8 00 00 00 00 00 00 00 00
 0.085545 1  433             Rx   d 8 C0 00 00 00 00 A0 00 00
 0.085781 1  46A             Rx   d 8 00 00 00 88 00 10 C0 00
 0.086013 1  46B             Rx   d 8 B7 A0 48 00 00 00 D2 09
 0.086269 1  470             Rx   d 8 00 00 40 00 00 00 00 00
 0.090714 1  167             Rx   d 8 00 FF FF 00 00 02 0E 00
 0.091106 1  202             Rx   d 8 00 CC 00 00 00 00 00 00
 0.091315 1  204             Rx   d 8 00 00 FF 00 00 00 00 00
 0.100004 1  76              Rx   d 8 00 00 1F F7 FC 00 00 F0
 0.100159 1  167             Rx   d 8 00 FF FF 00 00 02 0E 00
 0.100410 1  20A             Rx   d 8 F1 F8 00 00 00 00 4E 20
 0.100632 1  171             Rx   d 8 F0 E0 00 00 00 00 00 00
 0.100912 1  204             Rx   d 8 00 00 FF 00 00 00 00 00
 0.101261 1  3CA             Rx   d 8 04 00 00 00 00 00 00 00
 0.104507 1  287             Rx   d 8 00 00 00 00 00 00 00 00
 0.104537 1  30A             Rx   d 8 85 00 00 00 00 00 00 00
 0.104686 1  318             Rx   d 8 00 00 00 00 00 00 00 00
 0.105258 1  346             Rx   d 8 00 00 00 03 03 00 C0 00
 0.105298 1  348             Rx   d 8 00 00 00 01 00 00 00 00
 0.105491 1  430             Rx   d 8 48 00 40 9B 00 20 64 00
 0.105695 1  434             Rx   d 8 40 00 70 00 20 4D 28 00
 0.110844 1  167             Rx   d 8 00 FF FF 00 00 02 0E 00
 0.111039 1  202             Rx   d 8 00 CC 00 00 00 00 00 00
 0.111330 1  204             Rx   d 8 00 00 FF 00 00 00 00 00
 0.120304 1  76              Rx   d 8 00 00 1F F7 FC 00 00 F0
 0.120350 1  167             Rx   d 8 00 FF FF 00 00 02 0E 00
 0.120530 1  20A             Rx   d 8 F1 F8 00 00 00 00 4E 20
 0.120677 1  204             Rx   d 8 00 00 FF 00 00 00 00 00
 0.130547 1  156             Rx   d 8 BA 00 00 00 00 00 00 00
 0.130590 1  3CA             Rx   d 8 04 00 00 00 00 00 00 00
 0.130832 1  412             Rx   d 8 7D 00 80 80 00 00 00 00
 0.131014 1  166             Rx   d 8 76 00 00 FF FF FF 00 00
 0.131288 1  167             Rx   d 8 00 FF FF 00 00 02 0E 00
 0.131521 1  171             Rx   d 8 F0 E0 00 00 00 00 00 00
 0.131780 1  178             Rx   d 8 00 00 02 00 02 54 CA 53
 0.132010 1  179             Rx   d 8 00 00 08 00 22 FF 00 00
 0.132260 1  17C             Rx   d 8 00 00 00 00 00 00 00 00
 0.132498 1  42F             Rx   d 8 7D 02 05 4E 26 0B 00 00
 0.133037 1  202             Rx   d 8 00 CC 00 00 00 00 00 00
 0.133126 1  204             Rx   d 8 00 00 FF 00 00 00 00 00
 0.133305 1  479             Rx   d 8 00 00 00 00 00 00 00 00
 0.133491 1  421             Rx   d 8 04 00 11 00 00 00 FF 00
 0.133756 1  42D             Rx   d 8 00 03 FF 00 00 00 F0 00
 0.140869 1  76              Rx   d 8 00 00 1F F7 FC 00 00 F0
 0.140955 1  167             Rx   d 8 00 FF FF 00 00 02 0E 00
 0.140964 1  204             Rx   d 8 00 00 FF 00 00 00 00 00
 0.140975 1  20A             Rx   d 8 F1 F8 00 00 00 00 4E 20
 0.150648 1  167             Rx   d 8 00 FF FF 00 00 02 0E 00
 0.151051 1  202             Rx   d 8 00 CC 00 00 00 00 00 00
 0.151274 1  204             Rx   d 8 00 00 FF 00 00 00 00 00
 0.160291 1  76              Rx   d 8 00 00 1F F7 FC 00 00 F0
 0.160344 1  167             Rx   d 8 00 FF FF 00 00 02 0E 00
 0.160715 1  20A             Rx   d 8 F1 F8 00 00 00 00 4E 20
 0.160731 1  171             Rx   d 8 F0 E0 00 00 00 00 00 00
 0.161274 1  204             Rx   d 8 00 00 FF 00 00 00 00 00
 0.161290 1  3CA             Rx   d 8 04 00 00 00 00 00 00 00
 0.171159 1  167             Rx   d 8 00 FF FF 00 00 02 0E 00
 0.171227 1  202             Rx   d 8 00 CC 00 00 00 00 00 00
 0.171598 1  204             Rx   d 8 00 00 FF 00 00 00 00 00
 0.180013 1  48              Rx   d 8 00 00 00 00 07 00 E0 00
 0.180149 1  76              Rx   d 8 00 00 1F F7 FC 00 00 F0
 0.180396 1  167             Rx   d 8 00 FF FF 00 00 02 0E 00
 0.180643 1  204             Rx   d 8 00 00 FF 00 00 00 00 00
 0.180902 1  20A             Rx   d 8 F1 F8 00 00 00 00 4E 20
 0.181119 1  38A             Rx   d 8 4E 00 00 01 00 46 00 00
 0.181354 1  40A             Rx   d 8 C1 04 01 8A 07 54 85 41
 0.181600 1  412             Rx   d 8 7D 00 80 80 00 00 00 00
 0.181839 1  42F             Rx   d 8 7D 02 05 4E 26 0B 00 00
 0.182082 1  433             Rx   d 8 C0 00 00 00 00 A0 00 00
 0.182337 1  470             Rx   d 8 00 00 40 00 00 00 00 00
 0.190224 1  3CA             Rx   d 8 04 00 00 00 00 00 00 00
 0.190615 1  167             Rx   d 8 00 FF FF 00 00 02 0E 00
 0.190928 1  171             Rx   d 8 F0 E0 00 00 00 00 00 00
 0.191307 1  202             Rx   d 8 00 CC 00 00 00 00 00 00
 0.191785 1  204             Rx   d 8 00 00 FF 00 00 00 00 00
 0.200276 1  76              Rx   d 8 00 00 1F F7 FC 00 00 F0
 0.200312 1  167             Rx   d 8 00 FF FF 00 00 02 0E 00
 0.200460 1  204             Rx   d 8 00 00 FF 00 00 00 00 00
 0.200678 1  20A             Rx   d 8 F1 F8 00 00 00 00 4E 20
 0.204203 1  318             Rx   d 8 00 00 00 00 00 00 00 00
 0.204362 1  346             Rx   d 8 00 00 00 03 03 00 C0 00
 0.204611 1  348             Rx   d 8 00 00 00 01 00 00 00 00
 0.204884 1  430             Rx   d 8 48 00 40 9B 00 20 64 00
 0.205166 1  434             Rx   d 8 40 00 70 00 20 4D 28 00
 0.210629 1  167             Rx   d 8 00 FF FF 00 00 02 0E 00
 0.211009 1  202             Rx   d 8 00 CC 00 00 00 00 00 00
 0.211235 1  204             Rx   d 8 00 00 FF 00 00 00 00 00
 0.220140 1  167             Rx   d 8 00 FF FF 00 00 02 0E 00
 0.220282 1  171             Rx   d 8 F0 E0 00 00 00 00 00 00
 0.220529 1  76              Rx   d 8 00 00 1F F7 FC 00 00 F0
 0.220897 1  204             Rx   d 8 00 00 FF 00 00 00 00 00
 0.221042 1  20A             Rx   d 8 F1 F8 00 00 00 00 4E 20
 0.221321 1  3CA             Rx   d 8 04 00 00 00 00 00 00 00
 0.230296 1  156             Rx   d 8 BA 00 00 00 00 00 00 00
 0.230481 1  412             Rx   d 8 7D 00 80 80 00 00 00 00
 0.230715 1  42F             Rx   d 8 7D 02 05 4E 26 0B 00 00
 0.230954 1  166             Rx   d 8 76 00 00 FF FF FF 00 00
 0.231202 1  167             Rx   d 8 00 FF FF 00 00 02 0E 00
 0.231441 1  178             Rx   d 8 00 00 02 00 02 54 CA 53
 0.231700 1  179             Rx   d 8 00 00 08 00 22 FF 00 00
 0.231955 1  17C             Rx   d 8 00 00 00 00 00 00 00 00
 0.232200 1  202             Rx   d 8 00 CC 00 00 00 00 00 00
 0.232492 1  204             Rx   d 8 00 00 FF 00 00 00 00 00
 0.233061 1  421             Rx   d 8 04 00 11 00 00 00 FF 00
 0.233507 1  42D             Rx   d 8 00 03 FF 00 00 00 F0 00
 0.240073 1  76              Rx   d 8 00 00 1F F7 FC 00 00 F0
 0.240200 1  167             Rx   d 8 00 FF FF 00 00 02 0E 00
 0.240452 1  204             Rx   d 8 00 00 FF 00 00 00 00 00
 0.240690 1  20A             Rx   d 8 F1 F8 00 00 00 00 4E 20
 0.250091 1  3CA             Rx   d 8 04 00 00 00 00 00 00 00
 0.250501 1  167             Rx   d 8 00 FF FF 00 00 02 0E 00
 0.250732 1  171             Rx   d 8 F0 E0 00 00 00 00 00 00
 0.251224 1  202             Rx   d 8 00 CC 00 00 00 00 00 00
 0.251498 1  204             Rx   d 8 00 00 FF 00 00 00 00 00
 0.260091 1  167             Rx   d 8 00 FF FF 00 00 02 0E 00
 0.260274 1  204             Rx   d 8 00 00 FF 00 00 00 00 00
 0.260510 1  76              Rx   d 8 00 00 1F F7 FC 00 00 F0
 0.260778 1  20A             Rx   d 8 F1 F8 00 00 00 00 4E 20
 0.271110 1  167             Rx   d 8 00 FF FF 00 00 02 0E 00
 0.271170 1  202             Rx   d 8 00 CC 00 00 00 00 00 00
 0.271433 1  204             Rx   d 8 00 00 FF 00 00 00 00 00
 0.279041 1  3B8             Rx   d 8 FF FF FF FF 00 00 00 00
 0.280625 1  167             Rx   d 8 00 FF FF 00 00 02 0E 00
 0.280696 1  171             Rx   d 8 F0 E0 00 00 00 00 00 00
 0.280704 1  48              Rx   d 8 00 00 00 00 07 00 E0 00
 0.281142 1  76              Rx   d 8 00 00 1F F7 FC 00 00 F0
 0.281163 1  14C             Rx   d 8 08 00 00 01 00 00 00 00
 0.281411 1  204             Rx   d 8 00 00 FF 00 00 00 00 00
 0.281840 1  20A             Rx   d 8 F1 F8 00 00 00 00 4E 20
 0.281863 1  3CA             Rx   d 8 04 00 00 00 00 00 00 00
 0.282371 1  412             Rx   d 8 7D 00 80 80 00 00 00 00
 0.282398 1  42F             Rx   d 8 7D 02 05 4E 26 0B 00 00
 0.282565 1  433             Rx   d 8 C0 00 00 00 00 A0 00 00
 0.283179 1  470             Rx   d 8 00 00 40 00 00 00 00 00
 0.283211 1  479             Rx   d 8 00 00 00 00 00 00 00 00
 0.290728 1  167             Rx   d 8 00 FF FF 00 00 02 0E 00
 0.291525 1  202             Rx   d 8 00 CC 00 00 00 00 00 00
 0.291566 1  204             Rx   d 8 00 00 FF 00 00 00 00 00
 0.300282 1  167             Rx   d 8 00 FF FF 00 00 02 0E 00
 0.300317 1  204             Rx   d 8 00 00 FF 00 00 00 00 00
 0.300589 1  76              Rx   d 8 00 00 1F F7 FC 00 00 F0
 0.300890 1  20A             Rx   d 8 F1 F8 00 00 00 00 4E 20
 0.304313 1  287             Rx   d 8 00 00 00 00 00 00 00 00
 0.304362 1  30A             Rx   d 8 85 00 00 00 00 00 00 00
 0.304624 1  318             Rx   d 8 00 00 00 00 00 00 00 00
 0.304861 1  346             Rx   d 8 00 00 00 03 03 00 C0 00
 0.305476 1  348             Rx   d 8 00 00 00 01 00 00 00 00
 0.305523 1  430             Rx   d 8 48 00 40 9B 00 20 64 00
 0.305855 1  434             Rx   d 8 40 00 70 00 20 4D 28 00
 0.310912 1  167             Rx   d 8 00 FF FF 00 00 02 0E 00
 0.310970 1  171             Rx   d 8 F0 E0 00 00 00 00 00 00
 0.311391 1  3CA             Rx   d 8 04 00 00 00 00 00 00 00
 0.311409 1  202             Rx   d 8 00 CC 00 00 00 00 00 00
 0.311653 1  204             Rx   d 8 00 00 FF 00 00 00 00 00
 0.320268 1  76              Rx   d 8 00 00 1F F7 FC 00 00 F0
 0.320314 1  167             Rx   d 8 00 FF FF 00 00 02 0E 00
 0.320752 1  204             Rx   d 8 00 00 FF 00 00 00 00 00
 0.320778 1  20A             Rx   d 8 F1 F8 00 00 00 00 4E 20
 0.330554 1  156             Rx   d 8 BA 00 00 00 00 00 00 00
 0.330607 1  412             Rx   d 8 7D 00 80 80 00 00 00 00
 0.330849 1  42C             Rx   d 8 30 31 C4 80 00 00 00 96
 0.330998 1  166             Rx   d 8 76 00 00 FF FF FF 00 00
 0.331267 1  167             Rx   d 8 00 FF FF 00 00 02 0E 00
 0.331493 1  178             Rx   d 8 00 00 02 00 02 54 CA 53
 0.331774 1  179             Rx   d 8 00 00 08 00 22 FF 00 00
 0.332084 1  17C             Rx   d 8 00 00 00 00 00 00 00 00
 0.332544 1  42F             Rx   d 8 7D 02 05 4E 26 0B 00 00
 0.332568 1  202             Rx   d 8 00 CC 00 00 00 00 00 00
 0.333167 1  204             Rx   d 8 00 00 FF 00 00 00 00 00
 0.333192 1  421             Rx   d 8 04 00 11 00 00 00 FF 00
 0.333655 1  42D             Rx   d 8 00 03 FF 00 00 00 F0 00
 0.337526 1  3B5             Rx   d 8 FF FD FF FD FF FD FF FD
 0.340253 1  167             Rx   d 8 00 FF FF 00 00 02 0E 00
 0.340288 1  171             Rx   d 8 F0 E0 00 00 00 00 00 00
 0.340535 1  76              Rx   d 8 00 00 1F F7 FC 00 00 F0
 0.340863 1  204             Rx   d 8 00 00 FF 00 00 00 00 00
 0.341037 1  20A             Rx   d 8 F1 F8 00 00 00 00 4E 20
 0.341263 1  3CA             Rx   d 8 04 00 00 00 00 00 00 00
 0.350647 1  167             Rx   d 8 00 FF FF 00 00 02 0E 00
 0.351018 1  202             Rx   d 8 00 CC 00 00 00 00 00 00
 0.351254 1  204             Rx   d 8 00 00 FF 00 00 00 00 00
 0.360165 1  167             Rx   d 8 00 FF FF 00 00 02 0E 00
 0.360362 1  76              Rx   d 8 00 00 1F F7 FC 00 00 F0
 0.360590 1  204             Rx   d 8 00 00 FF 00 00 00 00 00
 0.360864 1  20A             Rx   d 8 F1 F8 00 00 00 00 4E 20
 0.370293 1  3CA             Rx   d 8 04 00 00 00 00 00 00 00
 0.370638 1  167             Rx   d 8 00 FF FF 00 00 02 0E 00
 0.370818 1  171             Rx   d 8 F0 E0 00 00 00 00 00 00
 0.371564 1  202             Rx   d 8 00 CC 00 00 00 00 00 00
 0.371596 1  204             Rx   d 8 00 00 FF 00 00 00 00 00
 0.377050 1  3B2             Rx   d 8 44 8C C0 0C E6 00 03 3E
 0.377200 1  40A             Rx   d 8 C1 10 40 84 20 08 80 00
 0.380061 1  167             Rx   d 8 00 FF FF 00 00 02 0E 00
 0.380275 1  204             Rx   d 8 00 00 FF 00 00 00 00 00
 0.380926 1  48              Rx   d 8 00 00 00 00 07 00 E0 00
 0.381113 1  76              Rx   d 8 00 00 1F F7 FC 00 00 F0
 0.381349 1  20A             Rx   d 8 F1 F8 00 00 00 00 4E 20
 0.381599 1  412             Rx   d 8 7D 00 80 80 00 00 00 00
 0.381836 1  42F             Rx   d 8 7D 02 05 4E 26 0B 00 00
 0.382119 1  433             Rx   d 8 C0 00 00 00 00 A0 00 00
 0.382350 1  470             Rx   d 8 00 00 40 00 00 00 00 00
 0.390596 1  167             Rx   d 8 00 FF FF 00 00 02 0E 00
 0.391011 1  202             Rx   d 8 00 CC 00 00 00 00 00 00
 0.391258 1  204             Rx   d 8 00 00 FF 00 00 00 00 00
 0.400354 1  167             Rx   d 8 00 FF FF 00 00 02 0E 00
 0.400399 1  76              Rx   d 8 00 00 1F F7 FC 00 00 F0
 0.400544 1  171             Rx   d 8 F0 E0 00 00 00 00 00 00
 0.400798 1  204             Rx   d 8 00 00 FF 00 00 00 00 00
 0.401044 1  20A             Rx   d 8 F1 F8 00 00 00 00 4E 20
 0.401358 1  3CA             Rx   d 8 04 00 00 00 00 00 00 00
 0.404265 1  318             Rx   d 8 00 00 00 00 00 00 00 00
 0.404415 1  346             Rx   d 8 00 00 00 03 03 00 C0 00
 0.404650 1  348             Rx   d 8 00 00 00 01 00 00 00 00
 0.404955 1  430             Rx   d 8 48 00 40 9B 00 20 64 00
 0.405163 1  434             Rx   d 8 40 00 70 00 20 4D 28 00
 0.410855 1  167             Rx   d 8 00 FF FF 00 00 02 0E 00
 0.411026 1  202             Rx   d 8 00 CC 00 00 00 00 00 00
 0.411277 1  204             Rx   d 8 00 00 FF 00 00 00 00 00
 0.420156 1  167             Rx   d 8 00 FF FF 00 00 02 0E 00
 0.420310 1  204             Rx   d 8 00 00 FF 00 00 00 00 00
 0.420552 1  76              Rx   d 8 00 00 1F F7 FC 00 00 F0
 0.420872 1  20A             Rx   d 8 F1 F8 00 00 00 00 4E 20
 0.421029 1  46B             Rx   d 8 B8 A0 48 00 00 00 D2 09
 0.430366 1  3CA             Rx   d 8 04 00 00 00 00 00 00 00
 0.430405 1  412             Rx   d 8 7D 00 80 80 00 00 00 00
 0.430649 1  156             Rx   d 8 BA 00 00 00 00 00 00 00
 0.430943 1  42F             Rx   d 8 7D 02 05 4E 26 0B 00 00
 0.431073 1  166             Rx   d 8 76 00 00 FF FF FF 00 00
 0.431328 1  167             Rx   d 8 00 FF FF 00 00 02 0E 00
 0.440402 1  167             Rx   d 8 00 FF FF 00 00 02 0E 00
 0.456185 1  46B             Rx   d 8 B7 A0 48 00 00 00 D2 09
 0.470810 1  167             Rx   d 8 00 FF FF 00 00 02 0E 00
 0.490222 1  3CA             Rx   d 8 04 00 00 00 00 00 00 00
 0.500325 1  167             Rx   d 8 00 FF FF 00 00 02 0E 00
 0.510694 1  167             Rx   d 8 00 FF FF 00 00 02 0E 00
 0.520278 1  167             Rx   d 8 00 FF FF 00 00 02 0E 00
 0.540293 1  167             Rx   d 8 00 FF FF 00 00 02 0E 00
 0.550230 1  3CA             Rx   d 8 04 00 00 00 00 00 00 00
 0.570646 1  167             Rx   d 8 00 FF FF 00 00 02 0E 00
 0.580313 1  167             Rx   d 8 00 FF FF 00 00 02 0E 00
 0.600146 1  167             Rx   d 8 00 FF FF 00 00 02 0E 00
 0.610646 1  167             Rx   d 8 00 FF FF 00 00 02 0E 00
 0.630281 1  412             Rx   d 8 7D 00 80 80 00 00 00 00
 0.640252 1  167             Rx   d 8 00 FF FF 00 00 02 0E 00
 0.660157 1  167             Rx   d 8 00 FF FF 00 00 02 0E 00
 0.680325 1  167             Rx   d 8 00 FF FF 00 00 02 0E 00
 0.700110 1  167             Rx   d 8 00 FF FF 00 00 02 0E 00
 0.704824 1  346             Rx   d 8 00 00 00 03 03 00 C0 00
 0.730337 1  3CA             Rx   d 8 04 00 00 00 00 00 00 00
 0.740282 1  167             Rx   d 8 00 FF FF 00 00 02 0E 00
 0.750695 1  167             Rx   d 8 00 FF FF 00 00 02 0E 00
 0.770122 1  38D             Rx   d 8 20 00 00 00 00 00 00 F0
 0.790558 1  3CA             Rx   d 8 04 00 00 00 00 00 00 00
 0.804074 1  318             Rx   d 8 00 00 00 00 00 00 00 00
 0.820106 1  167             Rx   d 8 00 FF FF 00 00 02 0E 00
 0.840106 1  167             Rx   d 8 00 FF FF 00 00 02 0E 00
 0.850751 1  167             Rx   d 8 00 FF FF 00 00 02 0E 00
 0.867908 1  3B2             Rx   d 8 44 8C C0 0C E6 00 03 3E
 0.880265 1  167             Rx   d 8 00 FF FF 00 00 02 0E 00
 0.900288 1  167             Rx   d 8 00 FF FF 00 00 02 0E 00
 0.910828 1  171             Rx   d 8 F0 E0 00 00 00 00 00 00
 0.930348 1  156             Rx   d 8 BA 00 00 00 00 00 00 00
 0.940136 1  167             Rx   d 8 00 FF FF 00 00 02 0E 00
 0.950665 1  167             Rx   d 8 00 FF FF 00 00 02 0E 00
 0.960310 1  167             Rx   d 8 00 FF FF 00 00 02 0E 00
 0.980110 1  167             Rx   d 8 00 FF FF 00 00 02 0E 00
 0.990654 1  167             Rx   d 8 00 FF FF 00 00 02 0E 00
 1.004052 1  318             Rx   d 8 00 00 00 00 00 00 00 00
 1.020291 1  167             Rx   d 8 00 FF FF 00 00 02 0E 00
 1.040166 1  167             Rx   d 8 00 FF FF 00 00 02 0E 00
 1.060320 1  167             Rx   d 8 00 FF FF 00 00 02 0E 00
 1.080117 1  167             Rx   d 8 00 FF FF 00 00 02 0E 00
 1.090541 1  3CA             Rx   d 8 04 00 00 00 00 00 00 00
 1.104321 1  287             Rx   d 8 00 00 00 00 00 00 00 00
 1.120141 1  167             Rx   d 8 00 FF FF 00 00 02 0E 00
 1.125959 1  46B             Rx   d 8 B8 A0 48 00 00 00 D2 09
 1.131954 1  17C             Rx   d 8 00 00 00 00 00 00 00 00
 1.160294 1  167             Rx   d 8 00 FF FF 00 00 02 0E 00
 1.180162 1  167             Rx   d 8 00 FF FF 00 00 02 0E 00
 1.200299 1  167             Rx   d 8 00 FF FF 00 00 02 0E 00
 1.204847 1  318             Rx   d 8 00 00 00 00 00 00 00 00
 1.210586 1  167             Rx   d 8 00 FF FF 00 00 02 0E 00
 1.210772 1  171             Rx   d 8 F0 E0 00 00 00 00 00 00
 1.211066 1  3CA             Rx   d 8 04 00 00 00 00 00 00 00
 1.211305 1  202             Rx   d 8 00 CC 00 00 00 00 00 00
 1.211538 1  204             Rx   d 8 00 00 FF 00 00 00 00 00
 1.220136 1  167             Rx   d 8 00 FF FF 00 00 02 0E 00
 1.233129 1  421             Rx   d 8 04 00 11 00 00 00 FF 00
 1.240615 1  167             Rx   d 8 00 FF FF 00 00 02 0E 00
 1.250572 1  167             Rx   d 8 00 FF FF 00 00 02 0E 00
 1.260181 1  167             Rx   d 8 00 FF FF 00 00 02 0E 00
 1.271903 1  204             Rx   d 8 00 00 FF 00 00 00 00 00
 1.290652 1  167             Rx   d 8 00 FF FF 00 00 02 0E 00
 1.300377 1  167             Rx   d 8 00 FF FF 00 00 02 0E 00
 1.311157 1  167             Rx   d 8 00 FF FF 00 00 02 0E 00
 1.330350 1  156             Rx   d 8 BA 00 00 00 00 00 00 00
 1.340294 1  167             Rx   d 8 00 FF FF 00 00 02 0E 00
 1.370765 1  167             Rx   d 8 00 FF FF 00 00 02 0E 00
 1.371144 1  202             Rx   d 8 00 CC 00 00 00 00 00 00
 1.371302 1  204             Rx   d 8 00 00 FF 00 00 00 00 00
 1.380332 1  167             Rx   d 8 00 FF FF 00 00 02 0E 00
 1.380905 1  48              Rx   d 8 00 00 00 00 07 00 E0 00
 1.400141 1  167             Rx   d 8 00 FF FF 00 00 02 0E 00
 1.410712 1  167             Rx   d 8 00 FF FF 00 00 02 0E 00
 1.430322 1  156             Rx   d 8 BA 00 00 00 00 00 00 00
 1.441109 1  76              Rx   d 8 00 00 1F F7 FC 00 00 F0
 1.460129 1  167             Rx   d 8 00 FF FF 00 00 02 0E 00
 1.470873 1  167             Rx   d 8 00 FF FF 00 00 02 0E 00
 1.490599 1  167             Rx   d 8 00 FF FF 00 00 02 0E 00
 1.504129 1  287             Rx   d 8 00 00 00 00 00 00 00 00
 1.520126 1  167             Rx   d 8 00 FF FF 00 00 02 0E 00
 1.531660 1  179             Rx   d 8 00 00 08 00 22 FF 00 00
 1.540307 1  167             Rx   d 8 00 FF FF 00 00 02 0E 00
 1.556626 1  40A             Rx   d 8 C1 10 40 84 20 08 80 00
 1.570580 1  167             Rx   d 8 00 FF FF 00 00 02 0E 00
 1.590625 1  167             Rx   d 8 00 FF FF 00 00 02 0E 00
 1.600140 1  167             Rx   d 8 00 FF FF 00 00 02 0E 00
 1.620313 1  167             Rx   d 8 00 FF FF 00 00 02 0E 00
 1.633160 1  204             Rx   d 8 00 00 FF 00 00 00 00 00
 1.640117 1  167             Rx   d 8 00 FF FF 00 00 02 0E 00
 1.650753 1  167             Rx   d 8 00 FF FF 00 00 02 0E 00
 1.670669 1  167             Rx   d 8 00 FF FF 00 00 02 0E 00
 1.680351 1  167             Rx   d 8 00 FF FF 00 00 02 0E 00
 1.690803 1  167             Rx   d 8 00 FF FF 00 00 02 0E 00
 1.710569 1  167             Rx   d 8 00 FF FF 00 00 02 0E 00
 1.720328 1  167             Rx   d 8 00 FF FF 00 00 02 0E 00
 1.732810 1  204             Rx   d 8 00 00 FF 00 00 00 00 00
 1.750856 1  167             Rx   d 8 00 FF FF 00 00 02 0E 00
 1.760300 1  167             Rx   d 8 00 FF FF 00 00 02 0E 00
 1.780141 1  167             Rx   d 8 00 FF FF 00 00 02 0E 00
 1.782529 1  433             Rx   d 8 C0 00 00 00 00 A0 00 00
 1.796784 1  46B             Rx   d 8 B8 A0 48 00 00 00 D2 09
 1.810578 1  167             Rx   d 8 00 FF FF 00 00 02 0E 00
 1.830507 1  156             Rx   d 8 BA 00 00 00 00 00 00 00
 1.850666 1  167             Rx   d 8 00 FF FF 00 00 02 0E 00
 1.851356 1  202             Rx   d 8 00 CC 00 00 00 00 00 00
 1.870865 1  167             Rx   d 8 00 FF FF 00 00 02 0E 00
 1.880957 1  48              Rx   d 8 00 00 00 00 07 00 E0 00
 1.900120 1  167             Rx   d 8 00 FF FF 00 00 02 0E 00
 1.906174 1  315             Rx   d 8 00 00 00 00 00 00 00 00
 1.920325 1  167             Rx   d 8 00 FF FF 00 00 02 0E 00
 1.932529 1  412             Rx   d 8 7D 00 80 80 00 00 00 00
 1.940087 1  167             Rx   d 8 00 FF FF 00 00 02 0E 00
 1.960307 1  167             Rx   d 8 00 FF FF 00 00 02 0E 00
 1.970822 1  167             Rx   d 8 00 FF FF 00 00 02 0E 00
 1.990610 1  167             Rx   d 8 00 FF FF 00 00 02 0E 00
 2.000143 1  167             Rx   d 8 00 FF FF 00 00 02 0E 00
 2.020124 1  167             Rx   d 8 00 FF FF 00 00 02 0E 00
 2.040446 1  167             Rx   d 8 00 FF FF 00 00 02 0E 00
 2.051257 1  202             Rx   d 8 00 CC 00 00 00 00 00 00
 2.070492 1  59E             Rx   d 8 9E 00 FF FF FF FF FF FF
 2.087592 1  479             Rx   d 8 00 00 00 00 00 00 00 00
 2.100284 1  167             Rx   d 8 00 FF FF 00 00 02 0E 00
 2.120096 1  167             Rx   d 8 00 FF FF 00 00 02 0E 00
 2.130434 1  156             Rx   d 8 BA 00 00 00 00 00 00 00
 2.131051 1  166             Rx   d 8 76 00 00 FF FF FF 00 00
 2.131084 1  167             Rx   d 8 00 FF FF 00 00 02 0E 00
 2.131287 1  412             Rx   d 8 7D 00 80 80 00 00 00 00
 2.131589 1  178             Rx   d 8 00 00 02 00 02 54 CA 53
 2.133097 1  202             Rx   d 8 00 CC 00 00 00 00 00 00
 2.140238 1  167             Rx   d 8 00 FF FF 00 00 02 0E 00
 2.160126 1  167             Rx   d 8 00 FF FF 00 00 02 0E 00
 2.170799 1  167             Rx   d 8 00 FF FF 00 00 02 0E 00
 2.190607 1  167             Rx   d 8 00 FF FF 00 00 02 0E 00
 2.200250 1  167             Rx   d 8 00 FF FF 00 00 02 0E 00
 2.220109 1  167             Rx   d 8 00 FF FF 00 00 02 0E 00
 2.240300 1  167             Rx   d 8 00 FF FF 00 00 02 0E 00
 2.258419 1  720             Rx   d 8 22 2F 1A 9B DE 22 00 00
 2.280359 1  167             Rx   d 8 00 FF FF 00 00 02 0E 00
 2.300112 1  167             Rx   d 8 00 FF FF 00 00 02 0E 00
 2.310870 1  167             Rx   d 8 00 FF FF 00 00 02 0E 00
 2.327473 1  7DF             Rx   d 8 02 3E 80 00 00 00 00 00
 2.350871 1  167             Rx   d 8 00 FF FF 00 00 02 0E 00
 2.370641 1  167             Rx   d 8 00 FF FF 00 00 02 0E 00
 2.390625 1  167             Rx   d 8 00 FF FF 00 00 02 0E 00
 2.404082 1  318             Rx   d 8 00 00 00 00 00 00 00 00
 2.420448 1  167             Rx   d 8 00 FF FF 00 00 02 0E 00
 2.440234 1  167             Rx   d 8 00 FF FF 00 00 02 0E 00
 2.460111 1  167             Rx   d 8 00 FF FF 00 00 02 0E 00
 2.470597 1  167             Rx   d 8 00 FF FF 00 00 02 0E 00
 2.490746 1  167             Rx   d 8 00 FF FF 00 00 02 0E 00
 2.510650 1  167             Rx   d 8 00 FF FF 00 00 02 0E 00
 2.530303 1  156             Rx   d 8 BA 00 00 00 00 00 00 00
 2.550694 1  167             Rx   d 8 00 FF FF 00 00 02 0E 00
 2.560367 1  167             Rx   d 8 00 FF FF 00 00 02 0E 00
 2.580318 1  167             Rx   d 8 00 FF FF 00 00 02 0E 00
 2.600091 1  167             Rx   d 8 00 FF FF 00 00 02 0E 00
 2.620313 1  167             Rx   d 8 00 FF FF 00 00 02 0E 00
 2.640141 1  167             Rx   d 8 00 FF FF 00 00 02 0E 00
 2.660449 1  167             Rx   d 8 00 FF FF 00 00 02 0E 00
 2.680111 1  167             Rx   d 8 00 FF FF 00 00 02 0E 00
 2.700111 1  167             Rx   d 8 00 FF FF 00 00 02 0E 00
 2.710579 1  167             Rx   d 8 00 FF FF 00 00 02 0E 00
 2.730532 1  156             Rx   d 8 BA 00 00 00 00 00 00 00
 2.750633 1  167             Rx   d 8 00 FF FF 00 00 02 0E 00
 2.770600 1  167             Rx   d 8 00 FF FF 00 00 02 0E 00
 2.783858 1  3B4             Rx   d 8 34 21 11 FF 1E 1A 00 00
 2.801325 1  76              Rx   d 8 00 00 1F F7 FC 00 00 F0
 2.820284 1  167             Rx   d 8 00 FF FF 00 00 02 0E 00
 2.840090 1  167             Rx   d 8 00 FF FF 00 00 02 0E 00
 2.860334 1  167             Rx   d 8 00 FF FF 00 00 02 0E 00
 2.874120 1  591             Rx   d 8 91 00 FF FF FF FF FF FF
 2.890815 1  167             Rx   d 8 00 FF FF 00 00 02 0E 00
 2.906012 1  30A             Rx   d 8 85 00 00 00 00 00 00 00
 2.930513 1  156             Rx   d 8 BA 00 00 00 00 00 00 00
 2.950618 1  167             Rx   d 8 00 FF FF 00 00 02 0E 00
 2.970823 1  167             Rx   d 8 00 FF FF 00 00 02 0E 00
 2.980841 1  331             Rx   d 8 C0 00 49 41 04 00 00 00
 3.000562 1  167             Rx   d 8 00 FF FF 00 00 02 0E 00
 3.020130 1  167             Rx   d 8 00 FF FF 00 00 02 0E 00
 3.040603 1  167             Rx   d 8 00 FF FF 00 00 02 0E 00
 3.060298 1  167             Rx   d 8 00 FF FF 00 00 02 0E 00
 3.070785 1  167             Rx   d 8 00 FF FF 00 00 02 0E 00
 3.080125 1  167             Rx   d 8 00 FF FF 00 00 02 0E 00
 3.081801 1  76              Rx   d 8 00 00 1F F7 FC 00 00 F0
 3.082817 1  14C             Rx   d 8 08 00 00 01 00 00 00 00
 3.083771 1  279             Rx   d 8 00 50 00 3C A8 96 01 00
 3.085135 1  3B3             Rx   d 8 44 80 00 0C FE 00 00 00
 3.086265 1  431             Rx   d 8 00 00 00 00 00 00 00 00
 3.090602 1  167             Rx   d 8 00 FF FF 00 00 02 0E 00
 3.091005 1  202             Rx   d 8 00 CC 00 00 00 00 00 00
 3.101508 1  76              Rx   d 8 00 00 1F F7 FC 00 00 F0
 3.110847 1  167             Rx   d 8 00 FF FF 00 00 02 0E 00
 3.111379 1  202             Rx   d 8 00 CC 00 00 00 00 00 00
 3.120118 1  167             Rx   d 8 00 FF FF 00 00 02 0E 00
 3.120252 1  204             Rx   d 8 00 00 FF 00 00 00 00 00
 3.129270 1  40A             Rx   d 8 C1 00 57 46 30 4A 58 58
 3.140433 1  167             Rx   d 8 00 FF FF 00 00 02 0E 00
 3.161479 1  76              Rx   d 8 00 00 1F F7 FC 00 00 F0
 3.180415 1  167             Rx   d 8 00 FF FF 00 00 02 0E 00
 3.200092 1  167             Rx   d 8 00 FF FF 00 00 02 0E 00
 3.220113 1  167             Rx   d 8 00 FF FF 00 00 02 0E 00
 3.230322 1  156             Rx   d 8 BA 00 00 00 00 00 00 00
 3.241319 1  76              Rx   d 8 00 00 1F F7 FC 00 00 F0
 3.260105 1  167             Rx   d 8 00 FF FF 00 00 02 0E 00
 3.280270 1  167             Rx   d 8 00 FF FF 00 00 02 0E 00
 3.300122 1  167             Rx   d 8 00 FF FF 00 00 02 0E 00
 3.320399 1  167             Rx   d 8 00 FF FF 00 00 02 0E 00
 3.340246 1  167             Rx   d 8 00 FF FF 00 00 02 0E 00
 3.350638 1  167             Rx   d 8 00 FF FF 00 00 02 0E 00
 3.370591 1  167             Rx   d 8 00 FF FF 00 00 02 0E 00
 3.380237 1  167             Rx   d 8 00 FF FF 00 00 02 0E 00
 3.400133 1  167             Rx   d 8 00 FF FF 00 00 02 0E 00
 3.420437 1  167             Rx   d 8 00 FF FF 00 00 02 0E 00
 3.430328 1  156             Rx   d 8 BA 00 00 00 00 00 00 00
 3.450689 1  167             Rx   d 8 00 FF FF 00 00 02 0E 00
 3.470582 1  167             Rx   d 8 00 FF FF 00 00 02 0E 00
 3.491134 1  167             Rx   d 8 00 FF FF 00 00 02 0E 00
 3.504232 1  287             Rx   d 8 00 00 00 00 00 00 00 00
 3.521559 1  76              Rx   d 8 00 00 1F F7 FC 00 00 F0
 3.540097 1  167             Rx   d 8 00 FF FF 00 00 02 0E 00
 3.560395 1  167             Rx   d 8 00 FF FF 00 00 02 0E 00
 3.580130 1  167             Rx   d 8 00 FF FF 00 00 02 0E 00
 3.600158 1  167             Rx   d 8 00 FF FF 00 00 02 0E 00
 3.610562 1  167             Rx   d 8 00 FF FF 00 00 02 0E 00
 3.630579 1  156             Rx   d 8 BA 00 00 00 00 00 00 00
 3.640294 1  167             Rx   d 8 00 FF FF 00 00 02 0E 00
 3.660362 1  167             Rx   d 8 00 FF FF 00 00 02 0E 00
 3.670876 1  167             Rx   d 8 00 FF FF 00 00 02 0E 00
 3.690580 1  167             Rx   d 8 00 FF FF 00 00 02 0E 00
 3.705187 1  346             Rx   d 8 00 00 00 03 03 00 C0 00
 3.722415 1  76              Rx   d 8 00 00 1F F7 FC 00 00 F0
 3.740260 1  167             Rx   d 8 00 FF FF 00 00 02 0E 00
 3.761961 1  76              Rx   d 8 00 00 1F F7 FC 00 00 F0
 3.781502 1  48              Rx   d 8 00 00 00 00 07 00 E0 00
 3.810793 1  167             Rx   d 8 00 FF FF 00 00 02 0E 00
 3.830287 1  156             Rx   d 8 BA 00 00 00 00 00 00 00
 3.850599 1  167             Rx   d 8 00 FF FF 00 00 02 0E 00
 3.870723 1  167             Rx   d 8 00 FF FF 00 00 02 0E 00
 3.880248 1  167             Rx   d 8 00 FF FF 00 00 02 0E 00
 3.900099 1  167             Rx   d 8 00 FF FF 00 00 02 0E 00
 3.917356 1  46B             Rx   d 8 B8 A0 48 00 00 00 D2 09
 3.940278 1  167             Rx   d 8 00 FF FF 00 00 02 0E 00
 3.956722 1  46B             Rx   d 8 B7 A0 48 00 00 00 D2 09
 3.970559 1  167             Rx   d 8 00 FF FF 00 00 02 0E 00
 3.990561 1  167             Rx   d 8 00 FF FF 00 00 02 0E 00
 4.000117 1  167             Rx   d 8 00 FF FF 00 00 02 0E 00
 4.010863 1  167             Rx   d 8 00 FF FF 00 00 02 0E 00
 4.011335 1  202             Rx   d 8 00 CC 00 00 00 00 00 00
 4.011364 1  204             Rx   d 8 00 00 FF 00 00 00 00 00
 4.020338 1  167             Rx   d 8 00 FF FF 00 00 02 0E 00
 4.020377 1  204             Rx   d 8 00 00 FF 00 00 00 00 00
 4.022111 1  76              Rx   d 8 00 00 1F F7 FC 00 00 F0
 4.022181 1  20A             Rx   d 8 F1 F8 00 00 00 00 4E 20
 4.030381 1  156             Rx   d 8 BA 00 00 00 00 00 00 00
 4.030812 1  166             Rx   d 8 76 00 00 FF FF FF 00 00
 4.030948 1  167             Rx   d 8 00 FF FF 00 00 02 0E 00
 4.031247 1  171             Rx   d 8 F0 E0 00 00 00 00 00 00
 4.031457 1  178             Rx   d 8 00 00 02 00 02 54 CA 53
 4.050726 1  167             Rx   d 8 00 FF FF 00 00 02 0E 00
 4.051048 1  202             Rx   d 8 00 CC 00 00 00 00 00 00
 4.060100 1  167             Rx   d 8 00 FF FF 00 00 02 0E 00
 4.080459 1  167             Rx   d 8 00 FF FF 00 00 02 0E 00
 4.082736 1  109             Rx   d 8 00 00 EE 00 00 00 04 01
 4.085894 1  303             Rx   d 8 00 00 00 00 00 00 00 00
 4.087549 1  470             Rx   d 8 00 00 40 00 00 00 00 00
 4.100119 1  167             Rx   d 8 00 FF FF 00 00 02 0E 00
 4.111233 1  204             Rx   d 8 00 00 FF 00 00 00 00 00
 4.130335 1  156             Rx   d 8 BA 00 00 00 00 00 00 00
 4.141890 1  20A             Rx   d 8 F1 F8 00 00 00 00 4E 20
 4.160408 1  167             Rx   d 8 00 FF FF 00 00 02 0E 00
 4.170765 1  167             Rx   d 8 00 FF FF 00 00 02 0E 00
 4.171172 1  202             Rx   d 8 00 CC 00 00 00 00 00 00
 4.182328 1  20A             Rx   d 8 F1 F8 00 00 00 00 4E 20
 4.200127 1  167             Rx   d 8 00 FF FF 00 00 02 0E 00
 4.204014 1  318             Rx   d 8 00 00 00 00 00 00 00 00
 4.220247 1  167             Rx   d 8 00 FF FF 00 00 02 0E 00
 4.230365 1  156             Rx   d 8 BA 00 00 00 00 00 00 00
 4.250598 1  167             Rx   d 8 00 FF FF 00 00 02 0E 00
 4.260147 1  167             Rx   d 8 00 FF FF 00 00 02 0E 00
 4.272622 1  3CA             Rx   d 8 04 00 00 00 00 00 00 00
 4.280092 1  167             Rx   d 8 00 FF FF 00 00 02 0E 00
 4.290661 1  167             Rx   d 8 00 FF FF 00 00 02 0E 00
 4.300250 1  167             Rx   d 8 00 FF FF 00 00 02 0E 00
 4.301828 1  76              Rx   d 8 00 00 1F F7 FC 00 00 F0
 4.320238 1  167             Rx   d 8 00 FF FF 00 00 02 0E 00
 4.331007 1  167             Rx   d 8 00 FF FF 00 00 02 0E 00
 4.340098 1  167             Rx   d 8 00 FF FF 00 00 02 0E 00
 4.360249 1  167             Rx   d 8 00 FF FF 00 00 02 0E 00
 4.370611 1  167             Rx   d 8 00 FF FF 00 00 02 0E 00
 4.390700 1  167             Rx   d 8 00 FF FF 00 00 02 0E 00
 4.400132 1  167             Rx   d 8 00 FF FF 00 00 02 0E 00
 4.420095 1  167             Rx   d 8 00 FF FF 00 00 02 0E 00
 4.420231 1  171             Rx   d 8 F0 E0 00 00 00 00 00 00
 4.431802 1  17C             Rx   d 8 00 00 00 00 00 00 00 00
 4.440243 1  167             Rx   d 8 00 FF FF 00 00 02 0E 00
 4.452352 1  3CA             Rx   d 8 04 00 00 00 00 00 00 00
 4.470665 1  167             Rx   d 8 00 FF FF 00 00 02 0E 00
 4.480105 1  167             Rx   d 8 00 FF FF 00 00 02 0E 00
 4.500336 1  167             Rx   d 8 00 FF FF 00 00 02 0E 00
 4.510620 1  167             Rx   d 8 00 FF FF 00 00 02 0E 00
 4.530412 1  156             Rx   d 8 BA 00 00 00 00 00 00 00
 4.540253 1  167             Rx   d 8 00 FF FF 00 00 02 0E 00
 4.546956 1  46B             Rx   d 8 B8 A0 48 00 00 00 D2 09
 4.560116 1  167             Rx   d 8 00 FF FF 00 00 02 0E 00
 4.560264 1  204             Rx   d 8 00 00 FF 00 00 00 00 00
 4.580115 1  167             Rx   d 8 00 FF FF 00 00 02 0E 00
 4.600278 1  167             Rx   d 8 00 FF FF 00 00 02 0E 00
 4.601984 1  76              Rx   d 8 00 00 1F F7 FC 00 00 F0
 4.620275 1  167             Rx   d 8 00 FF FF 00 00 02 0E 00
 4.631740 1  179             Rx   d 8 00 00 08 00 22 FF 00 00
 4.650620 1  167             Rx   d 8 00 FF FF 00 00 02 0E 00
 4.660089 1  167             Rx   d 8 00 FF FF 00 00 02 0E 00
 4.670697 1  167             Rx   d 8 00 FF FF 00 00 02 0E 00
 4.681958 1  48              Rx   d 8 00 00 00 00 07 00 E0 00
 4.700081 1  167             Rx   d 8 00 FF FF 00 00 02 0E 00
 4.710987 1  202             Rx   d 8 00 CC 00 00 00 00 00 00
 4.730317 1  156             Rx   d 8 BA 00 00 00 00 00 00 00
 4.742257 1  76              Rx   d 8 00 00 1F F7 FC 00 00 F0
 4.760199 1  167             Rx   d 8 00 FF FF 00 00 02 0E 00
 4.770615 1  167             Rx   d 8 00 FF FF 00 00 02 0E 00
 4.780432 1  167             Rx   d 8 00 FF FF 00 00 02 0E 00
 4.790570 1  167             Rx   d 8 00 FF FF 00 00 02 0E 00
 4.805025 1  430             Rx   d 8 48 00 4E 20 00 20 64 00
 4.820219 1  167             Rx   d 8 00 FF FF 00 00 02 0E 00
 4.850728 1  167             Rx   d 8 00 FF FF 00 00 02 0E 00
 4.860158 1  167             Rx   d 8 00 FF FF 00 00 02 0E 00
 4.870552 1  167             Rx   d 8 00 FF FF 00 00 02 0E 00
 4.880218 1  167             Rx   d 8 00 FF FF 00 00 02 0E 00
 4.898841 1  40A             Rx   d 8 C1 04 01 8A 07 54 85 41
 4.908207 1  3FB             Rx   d 8 00 00 00 00 04 00 00 00
 4.930302 1  156             Rx   d 8 BA 00 00 00 00 00 00 00
 4.940067 1  167             Rx   d 8 00 FF FF 00 00 02 0E 00
 4.946771 1  331             Rx   d 8 C0 00 49 43 04 00 00 00
 4.951402 1  167             Rx   d 8 00 FF FF 00 00 02 0E 00
 4.951459 1  720             Rx   d 8 02 11 01 00 00 00 00 00
 4.951466 1  202             Rx   d 8 00 CC 00 00 00 00 00 00
 4.954386 1  728             Rx   d 8 02 51 01 00 00 00 00 00
 4.960136 1  167             Rx   d 8 00 FF FF 00 00 02 0E 00
 4.960278 1  171             Rx   d 8 F0 E0 00 00 00 00 00 00
 4.970621 1  167             Rx   d 8 00 FF FF 00 00 02 0E 00
 4.971009 1  202             Rx   d 8 00 CC 00 00 00 00 00 00
 4.980302 1  167             Rx   d 8 00 FF FF 00 00 02 0E 00
 4.991087 1  167             Rx   d 8 00 FF FF 00 00 02 0E 00
 5.010676 1  167             Rx   d 8 00 FF FF 00 00 02 0E 00
 5.011218 1  204             Rx   d 8 00 00 FF 00 00 00 00 00
 5.030512 1  156             Rx   d 8 BA 00 00 00 00 00 00 00
 5.033239 1  421             Rx   d 8 04 00 11 00 00 00 FF 00
 5.035631 1  331             Rx   d 8 C0 00 49 44 04 00 00 00
 5.050812 1  167             Rx   d 8 00 FF FF 00 00 02 0E 00
 5.053054 1  3CA             Rx   d 8 04 00 00 00 00 00 00 00
 5.060293 1  167             Rx   d 8 00 FF FF 00 00 02 0E 00
 5.080254 1  167             Rx   d 8 00 FF FF 00 00 02 0E 00
 5.090578 1  167             Rx   d 8 00 FF FF 00 00 02 0E 00
 5.103521 1  76              Rx   d 8 00 00 1F F7 FC 00 00 F0
 5.110986 1  167             Rx   d 8 00 FF FF 00 00 02 0E 00
 5.111038 1  171             Rx   d 8 F0 E0 00 00 00 00 00 00
 5.111629 1  202             Rx   d 8 00 CC 00 00 00 00 00 00
 5.111801 1  204             Rx   d 8 00 00 FF 00 00 00 00 00
 5.120248 1  167             Rx   d 8 00 FF FF 00 00 02 0E 00
 5.131002 1  167             Rx   d 8 00 FF FF 00 00 02 0E 00
 5.154711 1  225             Rx   d 8 20 80 00 00 00 00 00 00
 5.160325 1  167             Rx   d 8 00 FF FF 00 00 02 0E 00
 5.162398 1  76              Rx   d 8 00 00 1F F7 FC 00 00 F0
 5.171049 1  167             Rx   d 8 00 FF FF 00 00 02 0E 00
 5.171110 1  171             Rx   d 8 F0 E0 00 00 00 00 00 00
 5.171568 1  202             Rx   d 8 00 CC 00 00 00 00 00 00
 5.171590 1  204             Rx   d 8 00 00 FF 00 00 00 00 00
 5.182344 1  48              Rx   d 8 00 00 00 00 07 00 E0 00
 5.182885 1  20A             Rx   d 8 F1 F8 00 00 00 00 4E 20
 5.190685 1  167             Rx   d 8 00 FF FF 00 00 02 0E 00
 5.200279 1  167             Rx   d 8 00 FF FF 00 00 02 0E 00
 5.200317 1  171             Rx   d 8 F0 E0 00 00 00 00 00 00
 5.200614 1  204             Rx   d 8 00 00 FF 00 00 00 00 00
 5.210533 1  167             Rx   d 8 00 FF FF 00 00 02 0E 00
 5.211007 1  202             Rx   d 8 00 CC 00 00 00 00 00 00
 5.211200 1  204             Rx   d 8 00 00 FF 00 00 00 00 00
 5.220109 1  167             Rx   d 8 00 FF FF 00 00 02 0E 00
 5.220264 1  204             Rx   d 8 00 00 FF 00 00 00 00 00
 5.222067 1  76              Rx   d 8 00 00 1F F7 FC 00 00 F0
 5.222230 1  20A             Rx   d 8 F1 F8 00 00 00 00 4E 20
 5.224428 1  430             Rx   d 8 40 00 4E 20 08 00 24 00
 5.224623 1  434             Rx   d 8 00 00 00 00 60 FF F0 00
 5.230312 1  156             Rx   d 8 BA 00 00 00 00 00 00 00
 5.230746 1  166             Rx   d 8 76 00 00 FF FF FF 00 00
 5.230939 1  167             Rx   d 8 00 FF FF 00 00 02 0E 00
 5.240037 1  167             Rx   d 8 00 FF FF 00 00 02 0E 00
 5.250550 1  167             Rx   d 8 00 FF FF 00 00 02 0E 00
 5.250989 1  202             Rx   d 8 00 CC 00 00 00 00 00 00
 5.251209 1  204             Rx   d 8 00 00 FF 00 00 00 00 00
 5.252187 1  3B5             Rx   d 8 FF FD FF FD FF FD FF FD
 5.260083 1  167             Rx   d 8 00 FF FF 00 00 02 0E 00
 5.270846 1  167             Rx   d 8 00 FF FF 00 00 02 0E 00
 5.283676 1  433             Rx   d 8 C0 00 00 00 00 A0 00 00
 5.292853 1  3B2             Rx   d 8 44 8C C0 0C E6 00 03 3E
 5.300450 1  167             Rx   d 8 00 FF FF 00 00 02 0E 00
 5.304590 1  2FD             Rx   d 8 09 00 00 04 FC 02 00 00
 5.311527 1  202             Rx   d 8 00 CC 00 00 00 00 00 00
 5.324821 1  225             Rx   d 8 20 81 80 00 00 00 00 00
 5.342654 1  76              Rx   d 8 00 00 1F F7 FC 00 00 F0
 5.350897 1  167             Rx   d 8 00 FF FF 00 00 02 0E 00
 5.351994 1  202             Rx   d 8 00 CC 00 00 00 00 00 00
 5.360296 1  167             Rx   d 8 00 FF FF 00 00 02 0E 00
 5.370841 1  167             Rx   d 8 00 FF FF 00 00 02 0E 00
 5.371528 1  202             Rx   d 8 00 CC 00 00 00 00 00 00
 5.371563 1  204             Rx   d 8 00 00 FF 00 00 00 00 00
 5.380862 1  167             Rx   d 8 00 FF FF 00 00 02 0E 00
 5.383310 1  412             Rx   d 8 7D 00 80 80 00 00 00 00
 5.390870 1  167             Rx   d 8 00 FF FF 00 00 02 0E 00
 5.400416 1  167             Rx   d 8 00 FF FF 00 00 02 0E 00
 5.400462 1  204             Rx   d 8 00 00 FF 00 00 00 00 00
 5.405149 1  2FD             Rx   d 8 09 00 00 04 FD 02 00 00
 5.411257 1  202             Rx   d 8 00 CC 00 00 00 00 00 00
 5.420413 1  167             Rx   d 8 00 FF FF 00 00 02 0E 00
 5.420462 1  204             Rx   d 8 00 00 FF 00 00 00 00 00
 5.424530 1  434             Rx   d 8 40 00 70 00 20 50 78 00
 5.430838 1  166             Rx   d 8 76 00 00 FF FF FF 00 00
 5.440089 1  167             Rx   d 8 00 FF FF 00 00 02 0E 00
 5.460241 1  167             Rx   d 8 00 FF FF 00 00 02 0E 00
 5.470572 1  167             Rx   d 8 00 FF FF 00 00 02 0E 00
 5.470756 1  171             Rx   d 8 F0 E0 00 00 00 00 00 00
 5.480114 1  167             Rx   d 8 00 FF FF 00 00 02 0E 00
 5.480266 1  204             Rx   d 8 00 00 FF 00 00 00 00 00
 5.482192 1  48              Rx   d 8 00 00 00 00 07 00 E0 00
 5.482371 1  76              Rx   d 8 00 00 1F F7 FC 00 00 F0
 5.488780 1  40A             Rx   d 8 C1 00 57 46 30 4A 58 58
 5.500074 1  167             Rx   d 8 00 FF FF 00 00 02 0E 00
 5.520111 1  167             Rx   d 8 00 FF FF 00 00 02 0E 00
 5.534342 1  479             Rx   d 8 00 00 00 00 00 00 00 00
 5.560326 1  167             Rx   d 8 00 FF FF 00 00 02 0E 00
 5.570829 1  167             Rx   d 8 00 FF FF 00 00 02 0E 00
 5.590550 1  167             Rx   d 8 00 FF FF 00 00 02 0E 00
 5.610573 1  167             Rx   d 8 00 FF FF 00 00 02 0E 00
 5.630519 1  156             Rx   d 8 BA 00 00 00 00 00 00 00
 5.650571 1  167             Rx   d 8 00 FF FF 00 00 02 0E 00
 5.662268 1  76              Rx   d 8 00 00 1F F7 FC 00 00 F0
 5.680115 1  167             Rx   d 8 00 FF FF 00 00 02 0E 00
 5.687741 1  447             Rx   d 8 20 00 00 4B 00 20 00 00
 5.710602 1  167             Rx   d 8 00 FF FF 00 00 02 0E 00
 5.730325 1  156             Rx   d 8 BA 00 00 00 00 00 00 00
 5.750555 1  167             Rx   d 8 00 FF FF 00 00 02 0E 00
 5.770771 1  167             Rx   d 8 00 FF FF 00 00 02 0E 00
 5.783208 1  42F             Rx   d 8 7D 02 05 4E 26 0B 00 00
 5.802564 1  76              Rx   d 8 00 00 1F F7 FC 00 00 F0
 5.820099 1  167             Rx   d 8 00 FF FF 00 00 02 0E 00
 5.832441 1  202             Rx   d 8 00 CC 00 00 00 00 00 00
 5.860099 1  167             Rx   d 8 00 FF FF 00 00 02 0E 00
 5.870589 1  167             Rx   d 8 00 FF FF 00 00 02 0E 00
 5.883348 1  48              Rx   d 8 00 00 00 00 07 00 E0 00
 5.900054 1  167             Rx   d 8 00 FF FF 00 00 02 0E 00
 5.910654 1  167             Rx   d 8 00 FF FF 00 00 02 0E 00
 5.929347 1  331             Rx   d 8 C0 00 49 44 04 00 00 00
 5.950781 1  167             Rx   d 8 00 FF FF 00 00 02 0E 00
 5.970556 1  167             Rx   d 8 00 FF FF 00 00 02 0E 00
 5.984502 1  470             Rx   d 8 00 00 40 00 00 00 00 00
 6.000096 1  167             Rx   d 8 00 FF FF 00 00 02 0E 00
 6.010787 1  167             Rx   d 8 00 FF FF 00 00 02 0E 00
 6.030267 1  156             Rx   d 8 BA 00 00 00 00 00 00 00
 6.051259 1  167             Rx   d 8 00 FF FF 00 00 02 0E 00
 6.070603 1  167             Rx   d 8 00 FF FF 00 00 02 0E 00
 6.086132 1  3B3             Rx   d 8 44 80 00 0C FE 00 00 00
 6.099597 1  3FB             Rx   d 8 00 00 00 00 04 00 00 00
 6.103582 1  76              Rx   d 8 00 00 1F F7 FC 00 00 F0
 6.103820 1  20A             Rx   d 8 F1 F8 00 00 00 00 4E 20
 6.104000 1  3CA             Rx   d 8 04 00 00 00 00 00 00 00
 6.110561 1  167             Rx   d 8 00 FF FF 00 00 02 0E 00
 6.110991 1  202             Rx   d 8 00 CC 00 00 00 00 00 00
 6.111201 1  204             Rx   d 8 00 00 FF 00 00 00 00 00
 6.120542 1  167             Rx   d 8 00 FF FF 00 00 02 0E 00
 6.120609 1  204             Rx   d 8 00 00 FF 00 00 00 00 00
 6.122736 1  76              Rx   d 8 00 00 1F F7 FC 00 00 F0
 6.122882 1  20A             Rx   d 8 F1 F8 00 00 00 00 4E 20
 6.123082 1  46B             Rx   d 8 B7 A0 48 00 00 00 D2 09
 6.130289 1  156             Rx   d 8 BA 00 00 00 00 00 00 00
 6.130673 1  166             Rx   d 8 76 00 00 FF FF FF 00 00
 6.134393 1  479             Rx   d 8 00 00 00 00 00 00 00 00
 6.142501 1  76              Rx   d 8 00 00 1F F7 FC 00 00 F0
 6.150785 1  167             Rx   d 8 00 FF FF 00 00 02 0E 00
 6.151236 1  202             Rx   d 8 00 CC 00 00 00 00 00 00
 6.160676 1  167             Rx   d 8 00 FF FF 00 00 02 0E 00
 6.160734 1  171             Rx   d 8 F0 E0 00 00 00 00 00 00
 6.170553 1  167             Rx   d 8 00 FF FF 00 00 02 0E 00
 6.171029 1  202             Rx   d 8 00 CC 00 00 00 00 00 00
 6.171228 1  204             Rx   d 8 00 00 FF 00 00 00 00 00
 6.176785 1  3B8             Rx   d 8 FF FF FF FF 00 00 00 00
 6.183459 1  412             Rx   d 8 7D 00 80 80 00 00 00 00
 6.200090 1  167             Rx   d 8 00 FF FF 00 00 02 0E 00
 6.220325 1  167             Rx   d 8 00 FF FF 00 00 02 0E 00
 6.235283 1  3B5             Rx   d 8 FF FD FF FD FF FD FF FD
 6.253355 1  3CA             Rx   d 8 04 00 00 00 00 00 00 00
 6.260398 1  167             Rx   d 8 00 FF FF 00 00 02 0E 00
 6.270551 1  167             Rx   d 8 00 FF FF 00 00 02 0E 00
 6.270975 1  202             Rx   d 8 00 CC 00 00 00 00 00 00
 6.271205 1  204             Rx   d 8 00 00 FF 00 00 00 00 00
 6.280097 1  167             Rx   d 8 00 FF FF 00 00 02 0E 00
 6.295562 1  287             Rx   d 8 00 00 00 00 00 00 00 00
 6.313186 1  3CA             Rx   d 8 04 00 00 00 00 00 00 00
 6.330420 1  156             Rx   d 8 BA 00 00 00 00 00 00 00
 6.340075 1  167             Rx   d 8 00 FF FF 00 00 02 0E 00
 6.360260 1  167             Rx   d 8 00 FF FF 00 00 02 0E 00
 6.362914 1  20A             Rx   d 8 F1 F8 00 00 00 00 4E 20
 6.370882 1  167             Rx   d 8 00 FF FF 00 00 02 0E 00
 6.383468 1  42F             Rx   d 8 7D 02 05 4E 26 0B 00 00
 6.396090 1  348             Rx   d 8 00 00 00 01 00 00 00 00
 6.410611 1  167             Rx   d 8 00 FF FF 00 00 02 0E 00
 6.420094 1  167             Rx   d 8 00 FF FF 00 00 02 0E 00
 6.430366 1  156             Rx   d 8 BA 00 00 00 00 00 00 00
 6.442565 1  76              Rx   d 8 00 00 1F F7 FC 00 00 F0
 6.450590 1  167             Rx   d 8 00 FF FF 00 00 02 0E 00
 6.451271 1  202             Rx   d 8 00 CC 00 00 00 00 00 00
 6.451505 1  204             Rx   d 8 00 00 FF 00 00 00 00 00
 6.470701 1  167             Rx   d 8 00 FF FF 00 00 02 0E 00
 6.471502 1  204             Rx   d 8 00 00 FF 00 00 00 00 00
 6.483299 1  20A             Rx   d 8 F1 F8 00 00 00 00 4E 20
 6.502992 1  76              Rx   d 8 00 00 1F F7 FC 00 00 F0
 6.520085 1  167             Rx   d 8 00 FF FF 00 00 02 0E 00
 6.540263 1  167             Rx   d 8 00 FF FF 00 00 02 0E 00
 6.560081 1  167             Rx   d 8 00 FF FF 00 00 02 0E 00
 6.580493 1  167             Rx   d 8 00 FF FF 00 00 02 0E 00
 6.590554 1  167             Rx   d 8 00 FF FF 00 00 02 0E 00
 6.610713 1  167             Rx   d 8 00 FF FF 00 00 02 0E 00
 6.620402 1  167             Rx   d 8 00 FF FF 00 00 02 0E 00
 6.650630 1  167             Rx   d 8 00 FF FF 00 00 02 0E 00
 6.668098 1  38D             Rx   d 8 20 00 00 00 00 00 00 F0
 6.690787 1  167             Rx   d 8 00 FF FF 00 00 02 0E 00
 6.700076 1  167             Rx   d 8 00 FF FF 00 00 02 0E 00
 6.720224 1  167             Rx   d 8 00 FF FF 00 00 02 0E 00
 6.740300 1  167             Rx   d 8 00 FF FF 00 00 02 0E 00
 6.742711 1  76              Rx   d 8 00 00 1F F7 FC 00 00 F0
 6.742863 1  20A             Rx   d 8 F1 F8 00 00 00 00 4E 20
 6.750618 1  167             Rx   d 8 00 FF FF 00 00 02 0E 00
 6.751000 1  202             Rx   d 8 00 CC 00 00 00 00 00 00
 6.751226 1  204             Rx   d 8 00 00 FF 00 00 00 00 00
 6.760273 1  167             Rx   d 8 00 FF FF 00 00 02 0E 00
 6.780084 1  167             Rx   d 8 00 FF FF 00 00 02 0E 00
 6.800004 1  167             Rx   d 8 00 FF FF 00 00 02 0E 00
 6.810540 1  167             Rx   d 8 00 FF FF 00 00 02 0E 00
 6.830507 1  156             Rx   d 8 BA 00 00 00 00 00 00 00
 6.850558 1  167             Rx   d 8 00 FF FF 00 00 02 0E 00
 6.870516 1  167             Rx   d 8 00 FF FF 00 00 02 0E 00
 6.883493 1  20A             Rx   d 8 F1 F8 00 00 00 00 4E 20
 6.900369 1  167             Rx   d 8 00 FF FF 00 00 02 0E 00
 6.910738 1  167             Rx   d 8 00 FF FF 00 00 02 0E 00
 6.910767 1  171             Rx   d 8 F0 E0 00 00 00 00 00 00
 6.911245 1  202             Rx   d 8 00 CC 00 00 00 00 00 00
 6.911462 1  204             Rx   d 8 00 00 FF 00 00 00 00 00
 6.912396 1  331             Rx   d 8 C0 00 49 45 04 00 00 00
 6.913973 1  3CA             Rx   d 8 04 00 00 00 00 00 00 00
 6.920097 1  167             Rx   d 8 00 FF FF 00 00 02 0E 00
 6.920235 1  204             Rx   d 8 00 00 FF 00 00 00 00 00
 6.922941 1  76              Rx   d 8 00 00 1F F7 FC 00 00 F0
 6.922980 1  20A             Rx   d 8 F1 F8 00 00 00 00 4E 20
 6.931773 1  17C             Rx   d 8 00 00 00 00 00 00 00 00
 6.940085 1  167             Rx   d 8 00 FF FF 00 00 02 0E 00
 6.960277 1  167             Rx   d 8 00 FF FF 00 00 02 0E 00
 6.970566 1  167             Rx   d 8 00 FF FF 00 00 02 0E 00
 6.990742 1  167             Rx   d 8 00 FF FF 00 00 02 0E 00
 7.010536 1  167             Rx   d 8 00 FF FF 00 00 02 0E 00
 7.020082 1  167             Rx   d 8 00 FF FF 00 00 02 0E 00
 7.040091 1  167             Rx   d 8 00 FF FF 00 00 02 0E 00
 7.060264 1  167             Rx   d 8 00 FF FF 00 00 02 0E 00
 7.071099 1  167             Rx   d 8 00 FF FF 00 00 02 0E 00
 7.085698 1  3A8             Rx   d 8 06 00 00 00 00 00 00 00
 7.098474 1  348             Rx   d 8 00 00 00 01 00 00 00 00
 7.101095 1  204             Rx   d 8 00 00 FF 00 00 00 00 00
 7.104259 1  76              Rx   d 8 00 00 1F F7 FC 00 00 F0
 7.110734 1  167             Rx   d 8 00 FF FF 00 00 02 0E 00
 7.110994 1  202             Rx   d 8 00 CC 00 00 00 00 00 00
 7.111215 1  204             Rx   d 8 00 00 FF 00 00 00 00 00
 7.120096 1  167             Rx   d 8 00 FF FF 00 00 02 0E 00
 7.120225 1  171             Rx   d 8 F0 E0 00 00 00 00 00 00
 7.120491 1  204             Rx   d 8 00 00 FF 00 00 00 00 00
 7.122933 1  76              Rx   d 8 00 00 1F F7 FC 00 00 F0
 7.123062 1  20A             Rx   d 8 F1 F8 00 00 00 00 4E 20
 7.130327 1  156             Rx   d 8 BA 00 00 00 00 00 00 00
 7.140097 1  167             Rx   d 8 00 FF FF 00 00 02 0E 00
 7.159772 1  3B8             Rx   d 8 FF FF FF FF 00 00 00 00
 7.163153 1  76              Rx   d 8 00 00 1F F7 FC 00 00 F0
 7.163337 1  20A             Rx   d 8 F1 F8 00 00 00 00 4E 20
 7.170751 1  167             Rx   d 8 00 FF FF 00 00 02 0E 00
 7.171046 1  202             Rx   d 8 00 CC 00 00 00 00 00 00
 7.180588 1  167             Rx   d 8 00 FF FF 00 00 02 0E 00
 7.180618 1  171             Rx   d 8 F0 E0 00 00 00 00 00 00
 7.195476 1  318             Rx   d 8 00 00 00 00 00 00 00 00
 7.200430 1  167             Rx   d 8 00 FF FF 00 00 02 0E 00
 7.200474 1  204             Rx   d 8 00 00 FF 00 00 00 00 00
 7.210713 1  167             Rx   d 8 00 FF FF 00 00 02 0E 00
 7.218333 1  3B5             Rx   d 8 FF FD FF FD FF FD FF FD
 7.230308 1  156             Rx   d 8 BA 00 00 00 00 00 00 00
 7.230748 1  166             Rx   d 8 76 00 00 FF FF FF 00 00
 7.230959 1  167             Rx   d 8 00 FF FF 00 00 02 0E 00
 7.231214 1  178             Rx   d 8 00 00 02 00 02 54 CA 53
 7.240244 1  167             Rx   d 8 00 FF FF 00 00 02 0E 00
 7.250544 1  167             Rx   d 8 00 FF FF 00 00 02 0E 00
 7.263603 1  76              Rx   d 8 00 00 1F F7 FC 00 00 F0
 7.273683 1  3CA             Rx   d 8 04 00 00 00 00 00 00 00
 7.282950 1  48              Rx   d 8 00 00 00 00 07 00 E0 00
 7.295458 1  287             Rx   d 8 00 00 00 00 00 00 00 00
 7.320078 1  167             Rx   d 8 00 FF FF 00 00 02 0E 00
 7.330278 1  156             Rx   d 8 BA 00 00 00 00 00 00 00
 7.331726 1  179             Rx   d 8 00 00 08 00 22 FF 00 00
 7.333631 1  42D             Rx   d 8 00 03 FF 00 00 00 F0 00
 7.340400 1  167             Rx   d 8 00 FF FF 00 00 02 0E 00
 7.343045 1  76              Rx   d 8 00 00 1F F7 FC 00 00 F0
 7.360065 1  167             Rx   d 8 00 FF FF 00 00 02 0E 00
 7.370534 1  167             Rx   d 8 00 FF FF 00 00 02 0E 00
 7.380223 1  167             Rx   d 8 00 FF FF 00 00 02 0E 00
 7.393540 1  3CA             Rx   d 8 04 00 00 00 00 00 00 00
 7.410741 1  167             Rx   d 8 00 FF FF 00 00 02 0E 00
 7.418057 1  46B             Rx   d 8 B7 A0 48 00 00 00 D2 09
 7.430277 1  156             Rx   d 8 BA 00 00 00 00 00 00 00
 7.431733 1  17C             Rx   d 8 00 00 00 00 00 00 00 00
 7.451169 1  167             Rx   d 8 00 FF FF 00 00 02 0E 00
 7.453629 1  3CA             Rx   d 8 04 00 00 00 00 00 00 00
 7.460065 1  167             Rx   d 8 00 FF FF 00 00 02 0E 00
 7.483122 1  48              Rx   d 8 00 00 00 00 07 00 E0 00
 7.499994 1  167             Rx   d 8 00 FF FF 00 00 02 0E 00
 7.520446 1  167             Rx   d 8 00 FF FF 00 00 02 0E 00
 7.530313 1  156             Rx   d 8 BA 00 00 00 00 00 00 00
 7.540108 1  167             Rx   d 8 00 FF FF 00 00 02 0E 00
 7.543503 1  3CA             Rx   d 8 04 00 00 00 00 00 00 00
 7.550576 1  167             Rx   d 8 00 FF FF 00 00 02 0E 00
 7.570519 1  167             Rx   d 8 00 FF FF 00 00 02 0E 00
 7.590607 1  167             Rx   d 8 00 FF FF 00 00 02 0E 00
 7.600031 1  167             Rx   d 8 00 FF FF 00 00 02 0E 00
 7.610527 1  167             Rx   d 8 00 FF FF 00 00 02 0E 00
 7.630778 1  156             Rx   d 8 BA 00 00 00 00 00 00 00
 7.634566 1  42F             Rx   d 8 7D 02 05 4E 26 0B 00 00
 7.642983 1  76              Rx   d 8 00 00 1F F7 FC 00 00 F0
 7.650547 1  167             Rx   d 8 00 FF FF 00 00 02 0E 00
 7.660114 1  167             Rx   d 8 00 FF FF 00 00 02 0E 00
 7.670601 1  167             Rx   d 8 00 FF FF 00 00 02 0E 00
 7.680097 1  167             Rx   d 8 00 FF FF 00 00 02 0E 00
 7.696557 1  348             Rx   d 8 00 00 00 01 00 00 00 00
 7.720097 1  167             Rx   d 8 00 FF FF 00 00 02 0E 00
 7.730358 1  156             Rx   d 8 BA 00 00 00 00 00 00 00
 7.740241 1  167             Rx   d 8 00 FF FF 00 00 02 0E 00
 7.760092 1  167             Rx   d 8 00 FF FF 00 00 02 0E 00
 7.770591 1  167             Rx   d 8 00 FF FF 00 00 02 0E 00
 7.783165 1  48              Rx   d 8 00 00 00 00 07 00 E0 00
 7.790533 1  167             Rx   d 8 00 FF FF 00 00 02 0E 00
 7.807879 1  84              Rx   d 8 00 00 00 01 0C 08 0C 00
 7.820040 1  167             Rx   d 8 00 FF FF 00 00 02 0E 00
 7.830333 1  156             Rx   d 8 BA 00 00 00 00 00 00 00
 7.840221 1  167             Rx   d 8 00 FF FF 00 00 02 0E 00
 7.847961 1  40A             Rx   d 8 C1 00 57 46 30 4A 58 58
 7.860064 1  167             Rx   d 8 00 FF FF 00 00 02 0E 00
 7.870738 1  167             Rx   d 8 00 FF FF 00 00 02 0E 00
 7.873816 1  3CA             Rx   d 8 04 00 00 00 00 00 00 00
 7.880243 1  167             Rx   d 8 00 FF FF 00 00 02 0E 00
 7.890544 1  167             Rx   d 8 00 FF FF 00 00 02 0E 00
 7.900216 1  167             Rx   d 8 00 FF FF 00 00 02 0E 00
 7.920114 1  167             Rx   d 8 00 FF FF 00 00 02 0E 00
 7.930313 1  156             Rx   d 8 BA 00 00 00 00 00 00 00
 7.940205 1  167             Rx   d 8 00 FF FF 00 00 02 0E 00
 7.950575 1  167             Rx   d 8 00 FF FF 00 00 02 0E 00
 7.960103 1  167             Rx   d 8 00 FF FF 00 00 02 0E 00
 7.963179 1  76              Rx   d 8 00 00 1F F7 FC 00 00 F0
 7.980200 1  167             Rx   d 8 00 FF FF 00 00 02 0E 00
 7.983319 1  48              Rx   d 8 00 00 00 00 07 00 E0 00
 7.990541 1  167             Rx   d 8 00 FF FF 00 00 02 0E 00
 8.010633 1  167             Rx   d 8 00 FF FF 00 00 02 0E 00
 8.020092 1  167             Rx   d 8 00 FF FF 00 00 02 0E 00
 8.030269 1  156             Rx   d 8 BA 00 00 00 00 00 00 00
 8.044962 1  331             Rx   d 8 C0 00 49 47 04 00 00 00
 8.053881 1  3CA             Rx   d 8 04 00 00 00 00 00 00 00
 8.070532 1  167             Rx   d 8 00 FF FF 00 00 02 0E 00
 8.083638 1  48              Rx   d 8 00 00 00 00 07 00 E0 00
 8.099148 1  3C8             Rx   d 8 00 00 00 EC 00 00 00 00
 8.123439 1  76              Rx   d 8 00 00 1F F7 FC 00 00 F0
 8.140090 1  167             Rx   d 8 00 FF FF 00 00 02 0E 00
 8.150661 1  167             Rx   d 8 00 FF FF 00 00 02 0E 00
 8.150989 1  202             Rx   d 8 00 CC 00 00 00 00 00 00
 8.151230 1  204             Rx   d 8 00 00 FF 00 00 00 00 00
 8.160065 1  167             Rx   d 8 00 FF FF 00 00 02 0E 00
 8.160194 1  204             Rx   d 8 00 00 FF 00 00 00 00 00
 8.163404 1  76              Rx   d 8 00 00 1F F7 FC 00 00 F0
 8.170515 1  167             Rx   d 8 00 FF FF 00 00 02 0E 00
 8.180354 1  167             Rx   d 8 00 FF FF 00 00 02 0E 00
 8.180408 1  204             Rx   d 8 00 00 FF 00 00 00 00 00
 8.183289 1  48              Rx   d 8 00 00 00 00 07 00 E0 00
 8.195388 1  318             Rx   d 8 00 00 00 00 00 00 00 00
 8.210625 1  167             Rx   d 8 00 FF FF 00 00 02 0E 00
 8.230291 1  156             Rx   d 8 BA 00 00 00 00 00 00 00
 8.231205 1  171             Rx   d 8 F0 E0 00 00 00 00 00 00
 8.240040 1  167             Rx   d 8 00 FF FF 00 00 02 0E 00
 8.250792 1  167             Rx   d 8 00 FF FF 00 00 02 0E 00
 8.270620 1  167             Rx   d 8 00 FF FF 00 00 02 0E 00
 8.283700 1  48              Rx   d 8 00 00 00 00 07 00 E0 00
 8.295497 1  287             Rx   d 8 00 00 00 00 00 00 00 00
 8.310527 1  167             Rx   d 8 00 FF FF 00 00 02 0E 00
 8.325923 1  430             Rx   d 8 48 00 4E 20 00 00 24 00
 8.332888 1  421             Rx   d 8 04 00 11 00 00 00 FF 00
 8.350572 1  167             Rx   d 8 00 FF FF 00 00 02 0E 00
 8.370503 1  167             Rx   d 8 00 FF FF 00 00 02 0E 00
 8.380115 1  167             Rx   d 8 00 FF FF 00 00 02 0E 00
 8.390620 1  167             Rx   d 8 00 FF FF 00 00 02 0E 00
 8.410536 1  167             Rx   d 8 00 FF FF 00 00 02 0E 00
 8.420209 1  167             Rx   d 8 00 FF FF 00 00 02 0E 00
 8.432415 1  204             Rx   d 8 00 00 FF 00 00 00 00 00
 8.440042 1  167             Rx   d 8 00 FF FF 00 00 02 0E 00
 8.460217 1  167             Rx   d 8 00 FF FF 00 00 02 0E 00
 8.480080 1  167             Rx   d 8 00 FF FF 00 00 02 0E 00
 8.495521 1  287             Rx   d 8 00 00 00 00 00 00 00 00
 8.510510 1  167             Rx   d 8 00 FF FF 00 00 02 0E 00
 8.530386 1  156             Rx   d 8 BA 00 00 00 00 00 00 00
 8.543277 1  76              Rx   d 8 00 00 1F F7 FC 00 00 F0
 8.558561 1  46B             Rx   d 8 B8 A0 48 00 00 00 D2 09
 8.570537 1  167             Rx   d 8 00 FF FF 00 00 02 0E 00
 8.583368 1  48              Rx   d 8 00 00 00 00 07 00 E0 00
 8.600322 1  167             Rx   d 8 00 FF FF 00 00 02 0E 00
 8.620260 1  171             Rx   d 8 F0 E0 00 00 00 00 00 00
 8.640061 1  167             Rx   d 8 00 FF FF 00 00 02 0E 00
 8.660245 1  167             Rx   d 8 00 FF FF 00 00 02 0E 00
 8.670826 1  167             Rx   d 8 00 FF FF 00 00 02 0E 00
 8.690479 1  167             Rx   d 8 00 FF FF 00 00 02 0E 00
 8.710515 1  167             Rx   d 8 00 FF FF 00 00 02 0E 00
 8.730414 1  156             Rx   d 8 BA 00 00 00 00 00 00 00
 8.740574 1  167             Rx   d 8 00 FF FF 00 00 02 0E 00
 8.760060 1  167             Rx   d 8 00 FF FF 00 00 02 0E 00
 8.780047 1  167             Rx   d 8 00 FF FF 00 00 02 0E 00
 8.790540 1  167             Rx   d 8 00 FF FF 00 00 02 0E 00
 8.810319 1  84              Rx   d 8 00 00 00 01 0C 09 0C 00
 8.830534 1  156             Rx   d 8 BA 00 00 00 00 00 00 00
 8.840240 1  167             Rx   d 8 00 FF FF 00 00 02 0E 00
 8.850543 1  167             Rx   d 8 00 FF FF 00 00 02 0E 00
 8.870680 1  167             Rx   d 8 00 FF FF 00 00 02 0E 00
 8.890469 1  167             Rx   d 8 00 FF FF 00 00 02 0E 00
 8.903404 1  76              Rx   d 8 00 00 1F F7 FC 00 00 F0
 8.923539 1  76              Rx   d 8 00 00 1F F7 FC 00 00 F0
 8.940042 1  167             Rx   d 8 00 FF FF 00 00 02 0E 00
 8.960033 1  167             Rx   d 8 00 FF FF 00 00 02 0E 00
 8.980479 1  167             Rx   d 8 00 FF FF 00 00 02 0E 00
 8.990586 1  167             Rx   d 8 00 FF FF 00 00 02 0E 00
 9.010767 1  167             Rx   d 8 00 FF FF 00 00 02 0E 00
 9.020193 1  167             Rx   d 8 00 FF FF 00 00 02 0E 00
 9.040076 1  167             Rx   d 8 00 FF FF 00 00 02 0E 00
 9.050620 1  167             Rx   d 8 00 FF FF 00 00 02 0E 00
 9.070535 1  167             Rx   d 8 00 FF FF 00 00 02 0E 00
 9.080045 1  167             Rx   d 8 00 FF FF 00 00 02 0E 00
 9.097115 1  2F4             Rx   d 8 10 01 00 00 00 00 00 00
 9.120396 1  167             Rx   d 8 00 FF FF 00 00 02 0E 00
 9.133111 1  421             Rx   d 8 04 00 11 00 00 00 FF 00
 9.163916 1  20A             Rx   d 8 F1 F8 00 00 00 00 4E 20
 9.190584 1  167             Rx   d 8 00 FF FF 00 00 02 0E 00
 9.220259 1  167             Rx   d 8 00 FF FF 00 00 02 0E 00
 9.229212 1  46B             Rx   d 8 B7 A0 48 00 00 00 D2 09
 9.235070 1  412             Rx   d 8 7D 00 80 80 00 00 00 00
 9.240062 1  167             Rx   d 8 00 FF FF 00 00 02 0E 00
 9.240221 1  204             Rx   d 8 00 00 FF 00 00 00 00 00
 9.243612 1  76              Rx   d 8 00 00 1F F7 FC 00 00 F0
 9.243792 1  20A             Rx   d 8 F1 F8 00 00 00 00 4E 20
End TriggerBlock
