date Wed Mar 12 01:58:58.548 AM 2025
base hex  timestamps absolute
internal events logged
Begin Triggerblock Wed Mar 12 01:58:58.546 AM 2025
 0.000000 Start of measurement
 0.000000 1  20A             Rx   d 8 F1 F8 00 00 00 00 4E 20
 0.001095 1  167             Rx   d 8 00 FF FF 00 00 02 11 00
 0.001309 1  204             Rx   d 8 00 00 FF 00 00 00 00 00
 0.010417 1  3CA             Rx   d 8 04 00 00 00 00 00 00 00
 0.011602 1  167             Rx   d 8 00 FF FF 00 00 02 11 00
 0.012022 1  202             Rx   d 8 00 CC 00 00 00 00 00 00
 0.012258 1  204             Rx   d 8 00 00 FF 00 00 00 00 00
 0.019910 1  48              Rx   d 8 00 00 00 00 00 00 E0 00
 0.020074 1  76              Rx   d 8 00 00 1F F7 FC 00 00 F0
 0.020294 1  14C             Rx   d 8 08 00 00 01 00 00 00 00
 0.020532 1  20A             Rx   d 8 F1 F8 00 00 00 00 4E 20
 0.020780 1  412             Rx   d 8 7D 00 80 80 00 00 00 00
 0.021067 1  42F             Rx   d 8 7D 02 05 4E 26 0B 00 00
 0.021251 1  167             Rx   d 8 00 FF FF 00 00 02 11 00
 0.021483 1  171             Rx   d 8 F0 E0 00 00 00 00 00 00
 0.021731 1  204             Rx   d 8 00 00 FF 00 00 00 00 00
 0.021985 1  433             Rx   d 8 C0 00 00 00 00 90 00 00
 0.022229 1  470             Rx   d 8 00 00 40 00 00 00 00 00
 0.031639 1  167             Rx   d 8 00 FF FF 00 00 02 11 00
 0.032056 1  202             Rx   d 8 00 CC 00 00 00 00 00 00
 0.032330 1  204             Rx   d 8 00 00 FF 00 00 00 00 00
 0.039910 1  76              Rx   d 8 00 00 1F F7 FC 00 00 F0
 0.040095 1  20A             Rx   d 8 F1 F8 00 00 00 00 4E 20
 0.040276 1  3CA             Rx   d 8 04 00 00 00 00 00 00 00
 0.041090 1  167             Rx   d 8 00 FF FF 00 00 02 11 00
 0.041313 1  204             Rx   d 8 00 00 FF 00 00 00 00 00
 0.052077 1  167             Rx   d 8 00 FF FF 00 00 02 11 00
 0.052133 1  171             Rx   d 8 F0 E0 00 00 00 00 00 00
 0.052895 1  202             Rx   d 8 00 CC 00 00 00 00 00 00
 0.052928 1  204             Rx   d 8 00 00 FF 00 00 00 00 00
 0.060030 1  76              Rx   d 8 00 00 1F F7 FC 00 00 F0
 0.060060 1  20A             Rx   d 8 F1 F8 00 00 00 00 4E 20
 0.061385 1  167             Rx   d 8 00 FF FF 00 00 02 11 00
 0.061431 1  204             Rx   d 8 00 00 FF 00 00 00 00 00
 0.070148 1  3CA             Rx   d 8 04 00 00 00 00 00 00 00
 0.070182 1  412             Rx   d 8 7D 00 80 80 00 00 00 00
 0.070425 1  42F             Rx   d 8 7D 02 05 4E 26 0B 00 00
 0.070666 1  479             Rx   d 8 00 00 00 00 00 00 00 00
 0.071341 1  156             Rx   d 8 BA 00 00 00 00 00 00 00
 0.071811 1  166             Rx   d 8 76 00 00 FF FF FF 00 00
 0.072025 1  167             Rx   d 8 00 FF FF 00 00 02 11 00
 0.072280 1  178             Rx   d 8 00 00 02 00 02 54 C6 4E
 0.072541 1  179             Rx   d 8 00 00 08 00 22 FF 00 00
 0.072781 1  17C             Rx   d 8 00 00 00 00 00 00 00 00
 0.073302 1  202             Rx   d 8 00 CC 00 00 00 00 00 00
 0.073498 1  204             Rx   d 8 00 00 FF 00 00 00 00 00
 0.073988 1  421             Rx   d 8 04 00 11 00 00 00 FF 00
 0.074551 1  42D             Rx   d 8 00 03 FF 00 00 00 F0 00
 0.080225 1  76              Rx   d 8 00 00 1F F7 FC 00 00 F0
 0.080396 1  20A             Rx   d 8 F1 F8 00 00 00 00 4E 20
 0.081090 1  167             Rx   d 8 00 FF FF 00 00 02 11 00
 0.081278 1  171             Rx   d 8 F0 E0 00 00 00 00 00 00
 0.081541 1  204             Rx   d 8 00 00 FF 00 00 00 00 00
 0.091640 1  167             Rx   d 8 00 FF FF 00 00 02 11 00
 0.092008 1  202             Rx   d 8 00 CC 00 00 00 00 00 00
 0.092252 1  204             Rx   d 8 00 00 FF 00 00 00 00 00
 0.100034 1  76              Rx   d 8 00 00 1F F7 FC 00 00 F0
 0.100062 1  20A             Rx   d 8 F1 F8 00 00 00 00 4E 20
 0.100369 1  3CA             Rx   d 8 04 00 00 00 00 00 00 00
 0.101142 1  167             Rx   d 8 00 FF FF 00 00 02 11 00
 0.101319 1  204             Rx   d 8 00 00 FF 00 00 00 00 00
 0.111746 1  167             Rx   d 8 00 FF FF 00 00 02 11 00
 0.111777 1  171             Rx   d 8 F0 E0 00 00 00 00 00 00
 0.112319 1  202             Rx   d 8 00 CC 00 00 00 00 00 00
 0.112498 1  204             Rx   d 8 00 00 FF 00 00 00 00 00
 0.119926 1  48              Rx   d 8 00 00 00 00 00 00 E0 00
 0.120078 1  76              Rx   d 8 00 00 1F F7 FC 00 00 F0
 0.120363 1  20A             Rx   d 8 F1 F8 00 00 00 00 4E 20
 0.120585 1  412             Rx   d 8 7D 00 80 80 00 00 00 00
 0.120801 1  42F             Rx   d 8 7D 02 05 4E 26 0B 00 00
 0.121038 1  433             Rx   d 8 C0 00 00 00 00 90 00 00
 0.121275 1  167             Rx   d 8 00 FF FF 00 00 02 11 00
 0.121525 1  204             Rx   d 8 00 00 FF 00 00 00 00 00
 0.121779 1  470             Rx   d 8 00 00 40 00 00 00 00 00
 0.127258 1  40A             Rx   d 8 C1 00 57 46 30 4A 58 58
 0.130484 1  3CA             Rx   d 8 04 00 00 00 00 00 00 00
 0.131618 1  167             Rx   d 8 00 FF FF 00 00 02 11 00
 0.132069 1  202             Rx   d 8 00 CC 00 00 00 00 00 00
 0.132273 1  204             Rx   d 8 00 00 FF 00 00 00 00 00
 0.139928 1  76              Rx   d 8 00 00 1F F7 FC 00 00 F0
 0.140095 1  20A             Rx   d 8 F1 F8 00 00 00 00 4E 20
 0.141041 1  167             Rx   d 8 00 FF FF 00 00 02 11 00
 0.141263 1  171             Rx   d 8 F0 E0 00 00 00 00 00 00
 0.141515 1  204             Rx   d 8 00 00 FF 00 00 00 00 00
 0.151711 1  167             Rx   d 8 00 FF FF 00 00 02 11 00
 0.152029 1  202             Rx   d 8 00 CC 00 00 00 00 00 00
 0.152265 1  204             Rx   d 8 00 00 FF 00 00 00 00 00
 0.160055 1  76              Rx   d 8 00 00 1F F7 FC 00 00 F0
 0.160089 1  20A             Rx   d 8 F1 F8 00 00 00 00 4E 20
 0.160327 1  3CA             Rx   d 8 04 00 00 00 00 00 00 00
 0.161151 1  167             Rx   d 8 00 FF FF 00 00 02 11 00
 0.161319 1  204             Rx   d 8 00 00 FF 00 00 00 00 00
 0.170336 1  412             Rx   d 8 7D 00 80 80 00 00 00 00
 0.170511 1  42C             Rx   d 8 30 30 C4 80 00 00 00 96
 0.170703 1  42F             Rx   d 8 7D 02 05 4E 26 0B 00 00
 0.171292 1  156             Rx   d 8 BA 00 00 00 00 00 00 00
 0.171766 1  166             Rx   d 8 76 00 00 FF FF FF 00 00
 0.172013 1  167             Rx   d 8 00 FF FF 00 00 02 11 00
 0.172236 1  171             Rx   d 8 F0 E0 00 00 00 00 00 00
 0.172485 1  178             Rx   d 8 00 00 02 00 02 54 C6 4E
 0.172732 1  179             Rx   d 8 00 00 08 00 22 FF 00 00
 0.172981 1  17C             Rx   d 8 00 00 00 00 00 00 00 00
 0.173457 1  202             Rx   d 8 00 CC 00 00 00 00 00 00
 0.173740 1  204             Rx   d 8 00 00 FF 00 00 00 00 00
 0.174236 1  421             Rx   d 8 04 00 11 00 00 00 FF 00
 0.174759 1  42D             Rx   d 8 00 03 FF 00 00 00 F0 00
 0.179956 1  76              Rx   d 8 00 00 1F F7 FC 00 00 F0
 0.180130 1  20A             Rx   d 8 F1 F8 00 00 00 00 4E 20
 0.181112 1  167             Rx   d 8 00 FF FF 00 00 02 11 00
 0.181301 1  204             Rx   d 8 00 00 FF 00 00 00 00 00
 0.190139 1  3CA             Rx   d 8 04 00 00 00 00 00 00 00
 0.191712 1  167             Rx   d 8 00 FF FF 00 00 02 11 00
 0.192055 1  202             Rx   d 8 00 CC 00 00 00 00 00 00
 0.192262 1  204             Rx   d 8 00 00 FF 00 00 00 00 00
 0.199960 1  76              Rx   d 8 00 00 1F F7 FC 00 00 F0
 0.200144 1  20A             Rx   d 8 F1 F8 00 00 00 00 4E 20
 0.201071 1  167             Rx   d 8 00 FF FF 00 00 02 11 00
 0.201290 1  171             Rx   d 8 F0 E0 00 00 00 00 00 00
 0.201549 1  204             Rx   d 8 00 00 FF 00 00 00 00 00
 0.211578 1  167             Rx   d 8 00 FF FF 00 00 02 11 00
 0.212022 1  202             Rx   d 8 00 CC 00 00 00 00 00 00
 0.212269 1  204             Rx   d 8 00 00 FF 00 00 00 00 00
 0.220088 1  48              Rx   d 8 00 00 00 00 00 00 E0 00
 0.220134 1  76              Rx   d 8 00 00 1F F7 FC 00 00 F0
 0.220347 1  14C             Rx   d 8 08 00 00 01 00 00 00 00
 0.220586 1  20A             Rx   d 8 F1 F8 00 00 00 00 4E 20
 0.220835 1  3CA             Rx   d 8 04 00 00 00 00 00 00 00
 0.221092 1  412             Rx   d 8 7D 00 80 80 00 00 00 00
 0.221344 1  167             Rx   d 8 00 FF FF 00 00 02 11 00
 0.221590 1  204             Rx   d 8 00 00 FF 00 00 00 00 00
 0.221831 1  42F             Rx   d 8 7D 02 05 4E 26 0B 00 00
 0.222078 1  433             Rx   d 8 C0 00 00 00 00 90 00 00
 0.222364 1  470             Rx   d 8 00 00 40 00 00 00 00 00
 0.222573 1  479             Rx   d 8 00 00 00 00 00 00 00 00
 0.225682 1  3B8             Rx   d 8 FF FF FF FF 00 00 00 00
 0.231634 1  167             Rx   d 8 00 FF FF 00 00 02 11 00
 0.231801 1  171             Rx   d 8 F0 E0 00 00 00 00 00 00
 0.232263 1  202             Rx   d 8 00 CC 00 00 00 00 00 00
 0.232533 1  204             Rx   d 8 00 00 FF 00 00 00 00 00
 0.239931 1  76              Rx   d 8 00 00 1F F7 FC 00 00 F0
 0.240114 1  20A             Rx   d 8 F1 F8 00 00 00 00 4E 20
 0.241076 1  167             Rx   d 8 00 FF FF 00 00 02 11 00
 0.241304 1  204             Rx   d 8 00 00 FF 00 00 00 00 00
 0.250242 1  3CA             Rx   d 8 04 00 00 00 00 00 00 00
 0.251579 1  167             Rx   d 8 00 FF FF 00 00 02 11 00
 0.252005 1  202             Rx   d 8 00 CC 00 00 00 00 00 00
 0.252244 1  204             Rx   d 8 00 00 FF 00 00 00 00 00
 0.260040 1  76              Rx   d 8 00 00 1F F7 FC 00 00 F0
 0.260240 1  20A             Rx   d 8 F1 F8 00 00 00 00 4E 20
 0.261157 1  167             Rx   d 8 00 FF FF 00 00 02 11 00
 0.261323 1  171             Rx   d 8 F0 E0 00 00 00 00 00 00
 0.261546 1  204             Rx   d 8 00 00 FF 00 00 00 00 00
 0.270106 1  412             Rx   d 8 7D 00 80 80 00 00 00 00
 0.270294 1  42F             Rx   d 8 7D 02 05 4E 26 0B 00 00
 0.271280 1  156             Rx   d 8 BA 00 00 00 00 00 00 00
 0.271734 1  166             Rx   d 8 76 00 00 FF FF FF 00 00
 0.271998 1  167             Rx   d 8 00 FF FF 00 00 02 11 00
 0.272253 1  178             Rx   d 8 00 00 02 00 02 54 C6 4E
 0.272496 1  179             Rx   d 8 00 00 08 00 22 FF 00 00
 0.272748 1  17C             Rx   d 8 00 00 00 00 00 00 00 00
 0.273222 1  202             Rx   d 8 00 CC 00 00 00 00 00 00
 0.273456 1  204             Rx   d 8 00 00 FF 00 00 00 00 00
 0.273946 1  421             Rx   d 8 04 00 11 00 00 00 FF 00
 0.274732 1  42D             Rx   d 8 00 03 FF 00 00 00 F0 00
 0.279984 1  76              Rx   d 8 00 00 1F F7 FC 00 00 F0
 0.280146 1  20A             Rx   d 8 F1 F8 00 00 00 00 4E 20
 0.280402 1  3CA             Rx   d 8 04 00 00 00 00 00 00 00
 0.281031 1  167             Rx   d 8 00 FF FF 00 00 02 11 00
 0.281287 1  204             Rx   d 8 00 00 FF 00 00 00 00 00
 0.284707 1  3B5             Rx   d 8 FF FD FF FD FF FD FF FD
 0.291781 1  167             Rx   d 8 00 FF FF 00 00 02 11 00
 0.291829 1  171             Rx   d 8 F0 E0 00 00 00 00 00 00
 0.292269 1  202             Rx   d 8 00 CC 00 00 00 00 00 00
 0.292503 1  204             Rx   d 8 00 00 FF 00 00 00 00 00
 0.300110 1  76              Rx   d 8 00 00 1F F7 FC 00 00 F0
 0.300139 1  20A             Rx   d 8 F1 F8 00 00 00 00 4E 20
 0.301040 1  167             Rx   d 8 00 FF FF 00 00 02 11 00
 0.301264 1  204             Rx   d 8 00 00 FF 00 00 00 00 00
 0.310156 1  3CA             Rx   d 8 04 00 00 00 00 00 00 00
 0.311581 1  167             Rx   d 8 00 FF FF 00 00 02 11 00
 0.312030 1  202             Rx   d 8 00 CC 00 00 00 00 00 00
 0.312243 1  204             Rx   d 8 00 00 FF 00 00 00 00 00
 0.320125 1  48              Rx   d 8 00 00 00 00 00 00 E0 00
 0.320162 1  76              Rx   d 8 00 00 1F F7 FC 00 00 F0
 0.320388 1  20A             Rx   d 8 F1 F8 00 00 00 00 4E 20
 0.320617 1  412             Rx   d 8 7D 00 80 80 00 00 00 00
 0.320919 1  42F             Rx   d 8 7D 02 05 4E 26 0B 00 00
 0.321128 1  433             Rx   d 8 C0 00 00 00 00 90 00 00
 0.321377 1  167             Rx   d 8 00 FF FF 00 00 02 11 00
 0.321617 1  171             Rx   d 8 F0 E0 00 00 00 00 00 00
 0.321862 1  204             Rx   d 8 00 00 FF 00 00 00 00 00
 0.322112 1  470             Rx   d 8 00 00 40 00 00 00 00 00
 0.323958 1  3B2             Rx   d 8 10 88 00 00 E6 00 03 3C
 0.324110 1  40A             Rx   d 8 C1 01 47 41 48 4A 48 45
 0.331706 1  167             Rx   d 8 00 FF FF 00 00 02 11 00
 0.332047 1  202             Rx   d 8 00 CC 00 00 00 00 00 00
 0.332295 1  204             Rx   d 8 00 00 FF 00 00 00 00 00
 0.340016 1  76              Rx   d 8 00 00 1F F7 FC 00 00 F0
 0.340176 1  20A             Rx   d 8 F1 F8 00 00 00 00 4E 20
 0.340381 1  3CA             Rx   d 8 04 00 00 00 00 00 00 00
 0.341032 1  167             Rx   d 8 00 FF FF 00 00 02 11 00
 0.341314 1  204             Rx   d 8 00 00 FF 00 00 00 00 00
 0.351666 1  167             Rx   d 8 00 FF FF 00 00 02 11 00
 0.351837 1  171             Rx   d 8 F0 E0 00 00 00 00 00 00
 0.352343 1  202             Rx   d 8 00 CC 00 00 00 00 00 00
 0.352558 1  204             Rx   d 8 00 00 FF 00 00 00 00 00
 0.360188 1  76              Rx   d 8 00 00 1F F7 FC 00 00 F0
 0.360237 1  20A             Rx   d 8 F1 F8 00 00 00 00 4E 20
 0.361318 1  167             Rx   d 8 00 FF FF 00 00 02 11 00
 0.361347 1  204             Rx   d 8 00 00 FF 00 00 00 00 00
 0.370146 1  3CA             Rx   d 8 04 00 00 00 00 00 00 00
 0.370297 1  412             Rx   d 8 7D 00 80 80 00 00 00 00
 0.370521 1  42F             Rx   d 8 7D 02 05 4E 26 0B 00 00
 0.370743 1  479             Rx   d 8 00 00 00 00 00 00 00 00
 0.371239 1  156             Rx   d 8 BA 00 00 00 00 00 00 00
 0.371728 1  166             Rx   d 8 76 00 00 FF FF FF 00 00
 0.372010 1  167             Rx   d 8 00 FF FF 00 00 02 11 00
 0.372270 1  178             Rx   d 8 00 00 02 00 02 54 C6 4E
 0.372512 1  179             Rx   d 8 00 00 08 00 22 FF 00 00
 0.372766 1  17C             Rx   d 8 00 00 00 00 00 00 00 00
 0.373259 1  202             Rx   d 8 00 CC 00 00 00 00 00 00
 0.373488 1  204             Rx   d 8 00 00 FF 00 00 00 00 00
 0.373965 1  421             Rx   d 8 04 00 11 00 00 00 FF 00
 0.374728 1  42D             Rx   d 8 00 03 FF 00 00 00 F0 00
 0.380002 1  76              Rx   d 8 00 00 1F F7 FC 00 00 F0
 0.380147 1  20A             Rx   d 8 F1 F8 00 00 00 00 4E 20
 0.381029 1  167             Rx   d 8 00 FF FF 00 00 02 11 00
 0.381264 1  171             Rx   d 8 F0 E0 00 00 00 00 00 00
 0.381532 1  204             Rx   d 8 00 00 FF 00 00 00 00 00
 0.391407 1  84              Rx   d 8 00 00 00 01 00 1E 0C 00
 0.391783 1  167             Rx   d 8 00 FF FF 00 00 02 11 00
 0.392287 1  202             Rx   d 8 00 CC 00 00 00 00 00 00
 0.392516 1  204             Rx   d 8 00 00 FF 00 00 00 00 00
 0.400182 1  76              Rx   d 8 00 00 1F F7 FC 00 00 F0
 0.400213 1  20A             Rx   d 8 F1 F8 00 00 00 00 4E 20
 0.400457 1  3CA             Rx   d 8 04 00 00 00 00 00 00 00
 0.401049 1  167             Rx   d 8 00 FF FF 00 00 02 11 00
 0.401289 1  204             Rx   d 8 00 00 FF 00 00 00 00 00
 0.411623 1  167             Rx   d 8 00 FF FF 00 00 02 11 00
 0.411824 1  171             Rx   d 8 F0 E0 00 00 00 00 00 00
 0.412269 1  202             Rx   d 8 00 CC 00 00 00 00 00 00
 0.412507 1  204             Rx   d 8 00 00 FF 00 00 00 00 00
 0.419763 1  59E             Rx   d 8 9E 00 FF FF FF FF FF FF
 0.420011 1  48              Rx   d 8 00 00 00 00 00 00 E0 00
 0.420261 1  76              Rx   d 8 00 00 1F F7 FC 00 00 F0
 0.420495 1  77              Rx   d 8 1F FE 0F FE 00 01 00 00
 0.420727 1  108             Rx   d 8 00 04 00 00 80 00 72 64
 0.420973 1  109             Rx   d 8 00 00 EE 00 00 00 04 01
 0.421246 1  14C             Rx   d 8 08 00 00 01 00 00 00 00
 0.421435 1  167             Rx   d 8 00 FF FF 00 00 02 11 00
 0.421700 1  204             Rx   d 8 00 00 FF 00 00 00 00 00
 0.421911 1  20A             Rx   d 8 F1 F8 00 00 00 00 4E 20
 0.422167 1  275             Rx   d 8 00 00 00 00 00 00 00 00
 0.422430 1  277             Rx   d 8 00 00 00 00 02 4E 00 00
 0.422643 1  279             Rx   d 8 00 50 00 3C A8 96 01 00
 0.422894 1  27A             Rx   d 8 00 FF FE 00 00 00 00 00
 0.423147 1  303             Rx   d 8 00 00 00 00 00 00 00 00
 0.423396 1  3A8             Rx   d 8 06 00 00 00 00 00 00 00
 0.423646 1  3B3             Rx   d 8 10 80 00 00 FE 00 00 00
 0.423895 1  3D0             Rx   d 8 01 0F 00 00 80 00 1F FE
 0.424140 1  412             Rx   d 8 7D 00 80 80 00 00 00 00
 0.424386 1  424             Rx   d 8 00 26 80 03 00 00 30 00
 0.424635 1  42C             Rx   d 8 30 30 C4 80 00 00 00 96
 0.424861 1  42F             Rx   d 8 7D 02 05 4E 26 0B 00 00
 0.425105 1  431             Rx   d 8 00 00 00 00 00 00 00 00
 0.425364 1  432             Rx   d 8 00 00 00 00 00 00 00 00
 0.425596 1  433             Rx   d 8 C0 00 00 00 00 90 00 00
 0.425850 1  46A             Rx   d 8 00 00 00 88 00 10 C0 00
 0.426077 1  46B             Rx   d 8 B7 A0 48 00 00 00 D2 09
 0.426414 1  470             Rx   d 8 00 00 40 00 00 00 00 00
 0.430233 1  3CA             Rx   d 8 04 00 00 00 00 00 00 00
 0.431625 1  167             Rx   d 8 00 FF FF 00 00 02 11 00
 0.432150 1  202             Rx   d 8 00 CC 00 00 00 00 00 00
 0.432295 1  204             Rx   d 8 00 00 FF 00 00 00 00 00
 0.440231 1  76              Rx   d 8 00 00 1F F7 FC 00 00 F0
 0.440262 1  20A             Rx   d 8 F1 F8 00 00 00 00 4E 20
 0.441354 1  167             Rx   d 8 00 FF FF 00 00 02 11 00
 0.441512 1  171             Rx   d 8 F0 E0 00 00 00 00 00 00
 0.441705 1  204             Rx   d 8 00 00 FF 00 00 00 00 00
 0.451716 1  167             Rx   d 8 00 FF FF 00 00 02 11 00
 0.452108 1  202             Rx   d 8 00 CC 00 00 00 00 00 00
 0.452328 1  204             Rx   d 8 00 00 FF 00 00 00 00 00
 0.460221 1  76              Rx   d 8 00 00 1F F7 FC 00 00 F0
 0.460255 1  20A             Rx   d 8 F1 F8 00 00 00 00 4E 20
 0.460444 1  3CA             Rx   d 8 04 00 00 00 00 00 00 00
 0.461089 1  167             Rx   d 8 00 FF FF 00 00 02 11 00
 0.461294 1  204             Rx   d 8 00 00 FF 00 00 00 00 00
 0.470437 1  412             Rx   d 8 7D 00 80 80 00 00 00 00
 0.470464 1  42F             Rx   d 8 7D 02 05 4E 26 0B 00 00
 0.471344 1  156             Rx   d 8 BA 00 00 00 00 00 00 00
 0.471784 1  166             Rx   d 8 76 00 00 FF FF FF 00 00
 0.472004 1  167             Rx   d 8 00 FF FF 00 00 02 11 00
 0.472253 1  171             Rx   d 8 F0 E0 00 00 00 00 00 00
 0.472524 1  178             Rx   d 8 00 00 02 00 02 54 C6 4E
 0.472732 1  179             Rx   d 8 00 00 08 00 22 FF 00 00
 0.490191 1  3CA             Rx   d 8 04 00 00 00 00 00 00 00
 0.500222 1  76              Rx   d 8 00 00 1F F7 FC 00 00 F0
 0.520044 1  48              Rx   d 8 00 00 00 00 00 00 E0 00
 0.531824 1  167             Rx   d 8 00 FF FF 00 00 02 11 00
 0.550422 1  3CA             Rx   d 8 04 00 00 00 00 00 00 00
 0.561106 1  167             Rx   d 8 00 FF FF 00 00 02 11 00
 0.570609 1  412             Rx   d 8 7D 00 80 80 00 00 00 00
 0.591605 1  167             Rx   d 8 00 FF FF 00 00 02 11 00
 0.600546 1  76              Rx   d 8 00 00 1F F7 FC 00 00 F0
 0.610282 1  3CA             Rx   d 8 04 00 00 00 00 00 00 00
 0.631795 1  167             Rx   d 8 00 FF FF 00 00 02 11 00
 0.632010 1  202             Rx   d 8 00 CC 00 00 00 00 00 00
 0.651788 1  167             Rx   d 8 00 FF FF 00 00 02 11 00
 0.660094 1  76              Rx   d 8 00 00 1F F7 FC 00 00 F0
 0.670847 1  3CA             Rx   d 8 04 00 00 00 00 00 00 00
 0.670877 1  412             Rx   d 8 7D 00 80 80 00 00 00 00
 0.680554 1  76              Rx   d 8 00 00 1F F7 FC 00 00 F0
 0.700274 1  76              Rx   d 8 00 00 1F F7 FC 00 00 F0
 0.711758 1  167             Rx   d 8 00 FF FF 00 00 02 11 00
 0.720736 1  48              Rx   d 8 00 00 00 00 00 00 E0 00
 0.740462 1  76              Rx   d 8 00 00 1F F7 FC 00 00 F0
 0.751647 1  167             Rx   d 8 00 FF FF 00 00 02 11 00
 0.764802 1  3B4             Rx   d 8 34 21 11 FF 1E 1A 00 00
 0.780200 1  76              Rx   d 8 00 00 1F F7 FC 00 00 F0
 0.790354 1  3CA             Rx   d 8 04 00 00 00 00 00 00 00
 0.791570 1  167             Rx   d 8 00 FF FF 00 00 02 11 00
 0.811649 1  167             Rx   d 8 00 FF FF 00 00 02 11 00
 0.820258 1  48              Rx   d 8 00 00 00 00 00 00 E0 00
 0.840398 1  76              Rx   d 8 00 00 1F F7 FC 00 00 F0
 0.851847 1  167             Rx   d 8 00 FF FF 00 00 02 11 00
 0.870332 1  412             Rx   d 8 7D 00 80 80 00 00 00 00
 0.880358 1  76              Rx   d 8 00 00 1F F7 FC 00 00 F0
 0.891616 1  167             Rx   d 8 00 FF FF 00 00 02 11 00
 0.910490 1  3CA             Rx   d 8 04 00 00 00 00 00 00 00
 0.931628 1  167             Rx   d 8 00 FF FF 00 00 02 11 00
 0.940226 1  76              Rx   d 8 00 00 1F F7 FC 00 00 F0
 0.951792 1  167             Rx   d 8 00 FF FF 00 00 02 11 00
 0.961035 1  167             Rx   d 8 00 FF FF 00 00 02 11 00
 0.973468 1  202             Rx   d 8 00 CC 00 00 00 00 00 00
 0.991954 1  167             Rx   d 8 00 FF FF 00 00 02 11 00
 1.000268 1  76              Rx   d 8 00 00 1F F7 FC 00 00 F0
 1.020477 1  48              Rx   d 8 00 00 00 00 00 00 E0 00
 1.040246 1  76              Rx   d 8 00 00 1F F7 FC 00 00 F0
 1.051803 1  167             Rx   d 8 00 FF FF 00 00 02 11 00
 1.060757 1  76              Rx   d 8 00 00 1F F7 FC 00 00 F0
 1.080265 1  76              Rx   d 8 00 00 1F F7 FC 00 00 F0
 1.090478 1  3CA             Rx   d 8 04 00 00 00 00 00 00 00
 1.100338 1  76              Rx   d 8 00 00 1F F7 FC 00 00 F0
 1.110173 1  40A             Rx   d 8 C0 00 00 23 60 82 0B 00
 1.131649 1  167             Rx   d 8 00 FF FF 00 00 02 11 00
 1.150929 1  3CA             Rx   d 8 04 00 00 00 00 00 00 00
 1.151732 1  167             Rx   d 8 00 FF FF 00 00 02 11 00
 1.160725 1  76              Rx   d 8 00 00 1F F7 FC 00 00 F0
 1.171263 1  156             Rx   d 8 BA 00 00 00 00 00 00 00
 1.191797 1  167             Rx   d 8 00 FF FF 00 00 02 11 00
 1.208490 1  3B8             Rx   d 8 FF FF FF FF 00 00 00 00
 1.231668 1  167             Rx   d 8 00 FF FF 00 00 02 11 00
 1.240417 1  76              Rx   d 8 00 00 1F F7 FC 00 00 F0
 1.251759 1  167             Rx   d 8 00 FF FF 00 00 02 11 00
 1.260823 1  76              Rx   d 8 00 00 1F F7 FC 00 00 F0
 1.273958 1  421             Rx   d 8 04 00 11 00 00 00 FF 00
 1.280425 1  76              Rx   d 8 00 00 1F F7 FC 00 00 F0
 1.300540 1  76              Rx   d 8 00 00 1F F7 FC 00 00 F0
 1.320415 1  48              Rx   d 8 00 00 00 00 00 00 E0 00
 1.340405 1  76              Rx   d 8 00 00 1F F7 FC 00 00 F0
 1.351632 1  167             Rx   d 8 00 FF FF 00 00 02 11 00
 1.360554 1  76              Rx   d 8 00 00 1F F7 FC 00 00 F0
 1.370573 1  412             Rx   d 8 7D 00 80 80 00 00 00 00
 1.390538 1  3CA             Rx   d 8 04 00 00 00 00 00 00 00
 1.411634 1  167             Rx   d 8 00 FF FF 00 00 02 11 00
 1.423031 1  279             Rx   d 8 00 50 00 3C A8 96 01 00
 1.431652 1  167             Rx   d 8 00 FF FF 00 00 02 11 00
 1.450763 1  3CA             Rx   d 8 04 00 00 00 00 00 00 00
 1.460465 1  76              Rx   d 8 00 00 1F F7 FC 00 00 F0
 1.470728 1  412             Rx   d 8 7D 00 80 80 00 00 00 00
 1.491625 1  167             Rx   d 8 00 FF FF 00 00 02 11 00
 1.500610 1  76              Rx   d 8 00 00 1F F7 FC 00 00 F0
 1.510710 1  3CA             Rx   d 8 04 00 00 00 00 00 00 00
 1.531670 1  167             Rx   d 8 00 FF FF 00 00 02 11 00
 1.540518 1  76              Rx   d 8 00 00 1F F7 FC 00 00 F0
 1.560453 1  76              Rx   d 8 00 00 1F F7 FC 00 00 F0
 1.580711 1  76              Rx   d 8 00 00 1F F7 FC 00 00 F0
 1.591623 1  167             Rx   d 8 00 FF FF 00 00 02 11 00
 1.611764 1  167             Rx   d 8 00 FF FF 00 00 02 11 00
 1.620514 1  48              Rx   d 8 00 00 00 00 00 00 E0 00
 1.640685 1  76              Rx   d 8 00 00 1F F7 FC 00 00 F0
 1.651619 1  167             Rx   d 8 00 FF FF 00 00 02 11 00
 1.670816 1  412             Rx   d 8 7D 00 80 80 00 00 00 00
 1.690740 1  3CA             Rx   d 8 04 00 00 00 00 00 00 00
 1.701885 1  20A             Rx   d 8 F1 F8 00 00 00 00 4E 20
 1.711708 1  167             Rx   d 8 00 FF FF 00 00 02 11 00
 1.741012 1  76              Rx   d 8 00 00 1F F7 FC 00 00 F0
 1.747738 1  3B4             Rx   d 8 34 21 11 FF 1E 1A 00 00
 1.760552 1  76              Rx   d 8 00 00 1F F7 FC 00 00 F0
 1.770663 1  412             Rx   d 8 7D 00 80 80 00 00 00 00
 1.791594 1  167             Rx   d 8 00 FF FF 00 00 02 11 00
 1.797935 1  3B2             Rx   d 8 10 88 00 00 E6 00 03 3C
 1.810788 1  3CA             Rx   d 8 04 00 00 00 00 00 00 00
 1.821559 1  167             Rx   d 8 00 FF FF 00 00 02 11 00
 1.840595 1  76              Rx   d 8 00 00 1F F7 FC 00 00 F0
 1.851768 1  167             Rx   d 8 00 FF FF 00 00 02 11 00
 1.870791 1  3CA             Rx   d 8 04 00 00 00 00 00 00 00
 1.880817 1  76              Rx   d 8 00 00 1F F7 FC 00 00 F0
 1.896680 1  40A             Rx   d 8 C1 04 01 8A 07 54 85 41
 1.911646 1  167             Rx   d 8 00 FF FF 00 00 02 11 00
 1.920799 1  48              Rx   d 8 00 00 00 00 00 00 E0 00
 1.930751 1  3CA             Rx   d 8 04 00 00 00 00 00 00 00
 1.941545 1  204             Rx   d 8 00 00 FF 00 00 00 00 00
 1.951901 1  167             Rx   d 8 00 FF FF 00 00 02 11 00
 1.970837 1  412             Rx   d 8 7D 00 80 80 00 00 00 00
 1.980618 1  76              Rx   d 8 00 00 1F F7 FC 00 00 F0
 1.991579 1  167             Rx   d 8 00 FF FF 00 00 02 11 00
 2.011555 1  167             Rx   d 8 00 FF FF 00 00 02 11 00
 2.020876 1  48              Rx   d 8 00 00 00 00 00 00 E0 00
 2.040730 1  76              Rx   d 8 00 00 1F F7 FC 00 00 F0
 2.050919 1  3CA             Rx   d 8 04 00 00 00 00 00 00 00
 2.060890 1  76              Rx   d 8 00 00 1F F7 FC 00 00 F0
 2.070842 1  412             Rx   d 8 7D 00 80 80 00 00 00 00
 2.091644 1  167             Rx   d 8 00 FF FF 00 00 02 11 00
 2.091814 1  171             Rx   d 8 F0 E0 00 00 00 00 00 00
 2.110858 1  3CA             Rx   d 8 04 00 00 00 00 00 00 00
 2.111529 1  167             Rx   d 8 00 FF FF 00 00 02 11 00
 2.122082 1  412             Rx   d 8 7D 00 80 80 00 00 00 00
 2.140780 1  76              Rx   d 8 00 00 1F F7 FC 00 00 F0
 2.152566 1  204             Rx   d 8 00 00 FF 00 00 00 00 00
 2.170894 1  3CA             Rx   d 8 04 00 00 00 00 00 00 00
 2.191895 1  167             Rx   d 8 00 FF FF 00 00 02 11 00
 2.200899 1  76              Rx   d 8 00 00 1F F7 FC 00 00 F0
 2.212255 1  202             Rx   d 8 00 CC 00 00 00 00 00 00
 2.231011 1  3CA             Rx   d 8 04 00 00 00 00 00 00 00
 2.241074 1  76              Rx   d 8 00 00 1F F7 FC 00 00 F0
 2.260948 1  76              Rx   d 8 00 00 1F F7 FC 00 00 F0
 2.271040 1  412             Rx   d 8 7D 00 80 80 00 00 00 00
 2.280771 1  76              Rx   d 8 00 00 1F F7 FC 00 00 F0
 2.300941 1  76              Rx   d 8 00 00 1F F7 FC 00 00 F0
 2.311601 1  167             Rx   d 8 00 FF FF 00 00 02 11 00
 2.320790 1  48              Rx   d 8 00 00 00 00 00 00 E0 00
 2.341282 1  167             Rx   d 8 00 FF FF 00 00 02 11 00
 2.351082 1  3CA             Rx   d 8 04 00 00 00 00 00 00 00
 2.371677 1  412             Rx   d 8 7D 00 80 80 00 00 00 00
 2.371712 1  156             Rx   d 8 BA 00 00 00 00 00 00 00
 2.391614 1  167             Rx   d 8 00 FF FF 00 00 02 11 00
 2.411311 1  3CA             Rx   d 8 04 00 00 00 00 00 00 00
 2.425683 1  42C             Rx   d 8 30 30 C4 80 00 00 00 96
 2.451612 1  167             Rx   d 8 00 FF FF 00 00 02 11 00
 2.461513 1  204             Rx   d 8 00 00 FF 00 00 00 00 00
 2.474057 1  421             Rx   d 8 04 00 11 00 00 00 FF 00
 2.481082 1  76              Rx   d 8 00 00 1F F7 FC 00 00 F0
 2.481146 1  20A             Rx   d 8 F1 F8 00 00 00 00 4E 20
 2.481899 1  204             Rx   d 8 00 00 FF 00 00 00 00 00
 2.487044 1  40A             Rx   d 8 C1 00 57 46 30 4A 58 58
 2.491647 1  167             Rx   d 8 00 FF FF 00 00 02 11 00
 2.500923 1  76              Rx   d 8 00 00 1F F7 FC 00 00 F0
 2.521149 1  48              Rx   d 8 00 00 00 00 00 00 E0 00
 2.540870 1  76              Rx   d 8 00 00 1F F7 FC 00 00 F0
 2.551681 1  167             Rx   d 8 00 FF FF 00 00 02 11 00
 2.571067 1  412             Rx   d 8 7D 00 80 80 00 00 00 00
 2.581089 1  76              Rx   d 8 00 00 1F F7 FC 00 00 F0
 2.601552 1  171             Rx   d 8 F0 E0 00 00 00 00 00 00
 2.611639 1  167             Rx   d 8 00 FF FF 00 00 02 11 00
 2.612059 1  202             Rx   d 8 00 CC 00 00 00 00 00 00
 2.612295 1  204             Rx   d 8 00 00 FF 00 00 00 00 00
 2.620968 1  48              Rx   d 8 00 00 00 00 00 00 E0 00
 2.631618 1  167             Rx   d 8 00 FF FF 00 00 02 11 00
 2.651284 1  3CA             Rx   d 8 04 00 00 00 00 00 00 00
 2.671084 1  412             Rx   d 8 7D 00 80 80 00 00 00 00
 2.680971 1  76              Rx   d 8 00 00 1F F7 FC 00 00 F0
 2.691784 1  167             Rx   d 8 00 FF FF 00 00 02 11 00
 2.711140 1  3CA             Rx   d 8 04 00 00 00 00 00 00 00
 2.721118 1  48              Rx   d 8 00 00 00 00 00 00 E0 00
 2.740944 1  76              Rx   d 8 00 00 1F F7 FC 00 00 F0
 2.751784 1  167             Rx   d 8 00 FF FF 00 00 02 11 00
 2.771140 1  3CA             Rx   d 8 04 00 00 00 00 00 00 00
 2.791865 1  167             Rx   d 8 00 FF FF 00 00 02 11 00
 2.801159 1  167             Rx   d 8 00 FF FF 00 00 02 11 00
 2.811616 1  167             Rx   d 8 00 FF FF 00 00 02 11 00
 2.831548 1  3CA             Rx   d 8 04 00 00 00 00 00 00 00
 2.851639 1  167             Rx   d 8 00 FF FF 00 00 02 10 00
 2.871163 1  412             Rx   d 8 7D 00 80 80 00 00 00 00
 2.881045 1  167             Rx   d 8 00 FF FF 00 00 02 10 00
 2.901320 1  76              Rx   d 8 00 00 1F F7 FC 00 00 F0
 2.921159 1  167             Rx   d 8 00 FF FF 00 00 02 10 00
 2.931612 1  167             Rx   d 8 00 FF FF 00 00 02 10 00
 2.951365 1  3CA             Rx   d 8 04 00 00 00 00 00 00 00
 2.971209 1  412             Rx   d 8 7D 00 80 80 00 00 00 00
 2.991799 1  167             Rx   d 8 00 FF FF 00 00 02 10 00
 3.011238 1  3CA             Rx   d 8 04 00 00 00 00 00 00 00
 3.021120 1  167             Rx   d 8 00 FF FF 00 00 02 10 00
 3.031872 1  167             Rx   d 8 00 FF FF 00 00 02 10 00
 3.051615 1  167             Rx   d 8 00 FF FF 00 00 02 10 00
 3.071572 1  3CA             Rx   d 8 04 00 00 00 00 00 00 00
 3.081042 1  167             Rx   d 8 00 FF FF 00 00 02 10 00
 3.101327 1  167             Rx   d 8 00 FF FF 00 00 02 10 00
 3.121134 1  167             Rx   d 8 00 FF FF 00 00 02 10 00
 3.131362 1  3CA             Rx   d 8 04 00 00 00 00 00 00 00
 3.151615 1  167             Rx   d 8 00 FF FF 00 00 02 10 00
 3.161125 1  167             Rx   d 8 00 FF FF 00 00 02 10 00
 3.181073 1  167             Rx   d 8 00 FF FF 00 00 02 10 00
 3.201305 1  167             Rx   d 8 00 FF FF 00 00 02 10 00
 3.211781 1  167             Rx   d 8 00 FF FF 00 00 02 10 00
 3.231621 1  167             Rx   d 8 00 FF FF 00 00 02 10 00
 3.251451 1  3CA             Rx   d 8 04 00 00 00 00 00 00 00
 3.271527 1  156             Rx   d 8 BA 00 00 00 00 00 00 00
 3.291577 1  167             Rx   d 8 00 FF FF 00 00 02 10 00
 3.301131 1  167             Rx   d 8 00 FF FF 00 00 02 10 00
 3.321102 1  167             Rx   d 8 00 FF FF 00 00 02 10 00
 3.331678 1  167             Rx   d 8 00 FF FF 00 00 02 10 00
 3.351743 1  167             Rx   d 8 00 FF FF 00 00 02 10 00
 3.371441 1  156             Rx   d 8 BA 00 00 00 00 00 00 00
 3.381323 1  167             Rx   d 8 00 FF FF 00 00 02 10 00
 3.399739 1  84              Rx   d 8 00 00 00 01 00 21 0C 00
 3.421096 1  167             Rx   d 8 00 FF FF 00 00 02 10 00
 11.344210 1  59E             Rx   d 8 9E 00 FF FF FF FF FF FF
 11.344655 1  48              Rx   d 8 00 00 00 00 04 00 E0 00
 11.344880 1  4A              Rx   d 8 02 00 00 00 00 00 00 00
 11.345131 1  4B              Rx   d 8 00 00 00 00 00 00 00 00
 11.345374 1  76              Rx   d 8 00 00 1F F7 FC 00 00 F0
 11.345623 1  77              Rx   d 8 1F FE 0F FE 00 01 00 00
 11.345863 1  108             Rx   d 8 00 04 00 00 80 00 72 64
 11.346109 1  109             Rx   d 8 00 00 EE 00 00 00 04 01
 11.346355 1  14C             Rx   d 8 08 00 00 01 00 00 00 00
 11.346598 1  20A             Rx   d 8 F1 F8 00 00 00 00 4E 20
 11.346847 1  263             Rx   d 8 00 00 00 00 00 00 00 00
 11.347098 1  275             Rx   d 8 00 00 00 00 00 00 00 00
 11.347340 1  277             Rx   d 8 00 00 00 00 02 52 00 00
 11.347574 1  279             Rx   d 8 00 50 00 3C A8 96 01 00
 11.347827 1  27A             Rx   d 8 00 FF FE 00 00 00 00 00
 11.348077 1  303             Rx   d 8 00 00 00 00 00 00 00 00
 11.348327 1  307             Rx   d 8 06 00 00 00 00 00 00 00
 11.348564 1  38A             Rx   d 8 4E 00 00 01 00 46 00 00
 11.348814 1  3A8             Rx   d 8 06 00 00 00 00 00 00 00
 11.349063 1  3AE             Rx   d 8 00 00 00 00 00 00 00 00
 11.349309 1  3B3             Rx   d 8 20 80 00 00 FE 00 00 00
 11.349574 1  3CA             Rx   d 8 04 00 00 00 00 00 00 00
 11.349810 1  3D0             Rx   d 8 01 0F 48 56 80 00 1F FE
 11.350045 1  412             Rx   d 8 7D 00 80 80 00 00 00 00
 11.350287 1  424             Rx   d 8 00 26 80 03 00 00 30 00
 11.350530 1  42C             Rx   d 8 30 30 C4 80 00 00 00 97
 11.350764 1  42F             Rx   d 8 7D 02 05 4E 26 0B 00 00
 11.351014 1  431             Rx   d 8 00 00 00 00 00 00 00 00
 11.351262 1  432             Rx   d 8 00 00 00 00 00 00 00 00
 11.351506 1  433             Rx   d 8 C0 00 00 00 00 90 00 00
 11.351751 1  167             Rx   d 8 00 FF FF 00 00 02 10 00
 11.351993 1  46A             Rx   d 8 00 00 00 88 00 10 C0 00
 11.352243 1  202             Rx   d 8 00 CC 00 00 00 00 00 00
 11.352495 1  204             Rx   d 8 00 00 FF 00 00 00 00 00
 11.352729 1  46B             Rx   d 8 B7 A0 48 00 00 00 D2 09
 11.352981 1  470             Rx   d 8 00 00 40 00 00 00 00 00
 11.353231 1  479             Rx   d 8 00 00 00 00 00 00 00 00
 11.360999 1  167             Rx   d 8 00 FF FF 00 00 02 10 00
 11.361201 1  171             Rx   d 8 F0 E0 00 00 00 00 00 00
 11.361442 1  204             Rx   d 8 00 00 FF 00 00 00 00 00
 11.364620 1  76              Rx   d 8 00 00 1F F7 FC 00 00 F0
 11.364849 1  20A             Rx   d 8 F1 F8 00 00 00 00 4E 20
 11.371268 1  156             Rx   d 8 BA 00 00 00 00 00 00 00
 11.371666 1  166             Rx   d 8 76 00 00 FF FF FF 00 00
 11.371906 1  167             Rx   d 8 00 FF FF 00 00 02 10 00
 11.372427 1  178             Rx   d 8 00 00 02 00 02 54 C6 52
 11.372647 1  179             Rx   d 8 00 00 08 00 22 FF 00 00
 11.372888 1  17C             Rx   d 8 00 00 00 00 00 00 00 00
 11.373381 1  202             Rx   d 8 00 CC 00 00 00 00 00 00
 11.373641 1  204             Rx   d 8 00 00 FF 00 00 00 00 00
 11.374336 1  421             Rx   d 8 04 00 11 00 00 00 FF 00
 11.374835 1  42D             Rx   d 8 00 03 FF 00 00 00 F0 00
 11.376069 1  3CA             Rx   d 8 04 00 00 00 00 00 00 00
 11.381021 1  167             Rx   d 8 00 FF FF 00 00 02 10 00
 11.381181 1  204             Rx   d 8 00 00 FF 00 00 00 00 00
 11.384919 1  76              Rx   d 8 00 00 1F F7 FC 00 00 F0
 11.385071 1  20A             Rx   d 8 F1 F8 00 00 00 00 4E 20
 11.391717 1  84              Rx   d 8 00 00 00 01 00 29 0C 00
 11.391912 1  167             Rx   d 8 00 FF FF 00 00 02 10 00
 11.392148 1  171             Rx   d 8 F0 E0 00 00 00 00 00 00
 11.392637 1  202             Rx   d 8 00 CC 00 00 00 00 00 00
 11.392878 1  204             Rx   d 8 00 00 FF 00 00 00 00 00
 11.395400 1  412             Rx   d 8 7D 00 80 80 00 00 00 00
 11.395603 1  42F             Rx   d 8 7D 02 05 4E 26 0B 00 00
 11.401194 1  167             Rx   d 8 00 FF FF 00 00 02 10 00
 11.401247 1  204             Rx   d 8 00 00 FF 00 00 00 00 00
 11.404813 1  76              Rx   d 8 00 00 1F F7 FC 00 00 F0
 11.404852 1  20A             Rx   d 8 F1 F8 00 00 00 00 4E 20
 11.405061 1  3CA             Rx   d 8 04 00 00 00 00 00 00 00
 11.411841 1  167             Rx   d 8 00 FF FF 00 00 02 10 00
 11.412158 1  202             Rx   d 8 00 CC 00 00 00 00 00 00
 11.412392 1  204             Rx   d 8 00 00 FF 00 00 00 00 00
 11.415571 1  46B             Rx   d 8 B6 A0 48 00 00 00 D2 09
 11.421042 1  167             Rx   d 8 00 FF FF 00 00 02 10 00
 11.421248 1  171             Rx   d 8 F0 E0 00 00 00 00 00 00
 11.421440 1  204             Rx   d 8 00 00 FF 00 00 00 00 00
 11.424765 1  76              Rx   d 8 00 00 1F F7 FC 00 00 F0
 11.424928 1  20A             Rx   d 8 F1 F8 00 00 00 00 4E 20
 11.431860 1  167             Rx   d 8 00 FF FF 00 00 02 10 00
 11.432169 1  202             Rx   d 8 00 CC 00 00 00 00 00 00
 11.432414 1  204             Rx   d 8 00 00 FF 00 00 00 00 00
 11.435961 1  3CA             Rx   d 8 04 00 00 00 00 00 00 00
 11.441377 1  167             Rx   d 8 00 FF FF 00 00 02 10 00
 11.441435 1  204             Rx   d 8 00 00 FF 00 00 00 00 00
 11.444659 1  48              Rx   d 8 00 00 00 00 04 00 E0 00
 11.444809 1  76              Rx   d 8 00 00 1F F7 FC 00 00 F0
 11.445026 1  20A             Rx   d 8 F1 F8 00 00 00 00 4E 20
 11.445263 1  38A             Rx   d 8 4E 00 00 01 00 46 00 00
 11.445548 1  412             Rx   d 8 7D 00 80 80 00 00 00 00
 11.445755 1  42F             Rx   d 8 7D 02 05 4E 26 0B 00 00
 11.446017 1  433             Rx   d 8 C0 00 00 00 00 90 00 00
 11.446250 1  470             Rx   d 8 00 00 40 00 00 00 00 00
 11.451459 1  167             Rx   d 8 00 FF FF 00 00 02 10 00
 11.451662 1  171             Rx   d 8 F0 E0 00 00 00 00 00 00
 11.452180 1  202             Rx   d 8 00 CC 00 00 00 00 00 00
 11.452424 1  204             Rx   d 8 00 00 FF 00 00 00 00 00
 11.461032 1  167             Rx   d 8 00 FF FF 00 00 02 10 00
 11.461186 1  204             Rx   d 8 00 00 FF 00 00 00 00 00
 11.464877 1  76              Rx   d 8 00 00 1F F7 FC 00 00 F0
 11.464922 1  20A             Rx   d 8 F1 F8 00 00 00 00 4E 20
 11.465202 1  3CA             Rx   d 8 04 00 00 00 00 00 00 00
 11.471373 1  156             Rx   d 8 BA 00 00 00 00 00 00 00
 11.471678 1  166             Rx   d 8 76 00 00 FF FF FF 00 00
 11.471918 1  167             Rx   d 8 00 FF FF 00 00 02 10 00
 11.472163 1  178             Rx   d 8 00 00 02 00 02 54 C6 52
 11.472425 1  179             Rx   d 8 00 00 08 00 22 FF 00 00
 11.472669 1  17C             Rx   d 8 00 00 00 00 00 00 00 00
 11.473177 1  202             Rx   d 8 00 CC 00 00 00 00 00 00
 11.473413 1  204             Rx   d 8 00 00 FF 00 00 00 00 00
 11.473902 1  421             Rx   d 8 04 00 11 00 00 00 FF 00
 11.474391 1  42D             Rx   d 8 00 03 FF 00 00 00 F0 00
 11.481021 1  167             Rx   d 8 00 FF FF 00 00 02 10 00
 11.481164 1  171             Rx   d 8 F0 E0 00 00 00 00 00 00
 11.481419 1  204             Rx   d 8 00 00 FF 00 00 00 00 00
 11.485007 1  76              Rx   d 8 00 00 1F F7 FC 00 00 F0
 11.485216 1  20A             Rx   d 8 F1 F8 00 00 00 00 4E 20
 11.491528 1  167             Rx   d 8 00 FF FF 00 00 02 10 00
 11.491928 1  202             Rx   d 8 00 CC 00 00 00 00 00 00
 11.492151 1  204             Rx   d 8 00 00 FF 00 00 00 00 00
 11.495531 1  3CA             Rx   d 8 04 00 00 00 00 00 00 00
 11.495751 1  412             Rx   d 8 7D 00 80 80 00 00 00 00
 11.495989 1  42F             Rx   d 8 7D 02 05 4E 26 0B 00 00
 11.496254 1  479             Rx   d 8 00 00 00 00 00 00 00 00
 11.501188 1  167             Rx   d 8 00 FF FF 00 00 02 10 00
 11.501225 1  204             Rx   d 8 00 00 FF 00 00 00 00 00
 11.505090 1  76              Rx   d 8 00 00 1F F7 FC 00 00 F0
 11.505172 1  20A             Rx   d 8 F1 F8 00 00 00 00 4E 20
 11.511572 1  167             Rx   d 8 00 FF FF 00 00 02 10 00
 11.511877 1  171             Rx   d 8 F0 E0 00 00 00 00 00 00
 11.512283 1  202             Rx   d 8 00 CC 00 00 00 00 00 00
 11.512520 1  204             Rx   d 8 00 00 FF 00 00 00 00 00
 11.521032 1  167             Rx   d 8 00 FF FF 00 00 02 10 00
 11.521202 1  204             Rx   d 8 00 00 FF 00 00 00 00 00
 11.524758 1  76              Rx   d 8 00 00 1F F7 FC 00 00 F0
 11.524973 1  20A             Rx   d 8 F1 F8 00 00 00 00 4E 20
 11.525132 1  3CA             Rx   d 8 04 00 00 00 00 00 00 00
 11.530051 1  38D             Rx   d 8 20 00 00 00 00 00 0C F0
 11.531528 1  167             Rx   d 8 00 FF FF 00 00 02 10 00
 11.532021 1  202             Rx   d 8 00 CC 00 00 00 00 00 00
 11.532252 1  204             Rx   d 8 00 00 FF 00 00 00 00 00
 11.532742 1  3B8             Rx   d 8 FF FF FF FF 00 00 00 00
 11.532998 1  3E3             Rx   d 8 00 00 00 00 80 00 00 00
 11.533270 1  3EC             Rx   d 8 00 04 04 00 00 00 00 00
 11.533571 1  40A             Rx   d 8 C1 10 40 84 20 08 80 00
 11.534450 1  447             Rx   d 8 20 00 00 4B 00 00 00 00
 11.541210 1  167             Rx   d 8 00 FF FF 00 00 02 10 00
 11.541249 1  171             Rx   d 8 F0 E0 00 00 00 00 00 00
 11.541459 1  204             Rx   d 8 00 00 FF 00 00 00 00 00
 11.545121 1  48              Rx   d 8 00 00 00 00 04 00 E0 00
 11.545180 1  76              Rx   d 8 00 00 1F F7 FC 00 00 F0
 11.545584 1  14C             Rx   d 8 08 00 00 01 00 00 00 00
 11.545608 1  20A             Rx   d 8 F1 F8 00 00 00 00 4E 20
 11.545826 1  412             Rx   d 8 7D 00 80 80 00 00 00 00
 11.545967 1  42F             Rx   d 8 7D 02 05 4E 26 0B 00 00
 11.546188 1  433             Rx   d 8 C0 00 00 00 00 90 00 00
 11.546429 1  470             Rx   d 8 00 00 40 00 00 00 00 00
 11.551509 1  167             Rx   d 8 00 FF FF 00 00 02 10 00
 11.551891 1  202             Rx   d 8 00 CC 00 00 00 00 00 00
 11.552138 1  204             Rx   d 8 00 00 FF 00 00 00 00 00
 11.555465 1  3CA             Rx   d 8 04 00 00 00 00 00 00 00
 11.561041 1  167             Rx   d 8 00 FF FF 00 00 02 10 00
 11.561203 1  204             Rx   d 8 00 00 FF 00 00 00 00 00
 11.564624 1  76              Rx   d 8 00 00 1F F7 FC 00 00 F0
 11.564831 1  20A             Rx   d 8 F1 F8 00 00 00 00 4E 20
 11.571328 1  156             Rx   d 8 BA 00 00 00 00 00 00 00
 11.571710 1  166             Rx   d 8 76 00 00 FF FF FF 00 00
 11.571933 1  167             Rx   d 8 00 FF FF 00 00 02 10 00
 11.572183 1  171             Rx   d 8 F0 E0 00 00 00 00 00 00
 11.572420 1  178             Rx   d 8 00 00 02 00 02 54 C6 52
 11.572675 1  179             Rx   d 8 00 00 08 00 22 FF 00 00
 11.572927 1  17C             Rx   d 8 00 00 00 00 00 00 00 00
 11.573428 1  202             Rx   d 8 00 CC 00 00 00 00 00 00
 11.573767 1  204             Rx   d 8 00 00 FF 00 00 00 00 00
 11.574358 1  421             Rx   d 8 04 00 11 00 00 00 FF 00
 11.574773 1  42D             Rx   d 8 00 03 FF 00 00 00 F0 00
 11.577987 1  3B4             Rx   d 8 34 21 11 FF 1E 1A 00 00
 11.581367 1  167             Rx   d 8 00 FF FF 00 00 02 10 00
 11.581416 1  204             Rx   d 8 00 00 FF 00 00 00 00 00
 11.584680 1  76              Rx   d 8 00 00 1F F7 FC 00 00 F0
 11.584848 1  20A             Rx   d 8 F1 F8 00 00 00 00 4E 20
 11.585086 1  3CA             Rx   d 8 04 00 00 00 00 00 00 00
 11.588241 1  3B5             Rx   d 8 FF FD FF FD FF FD FF FD
 11.591495 1  167             Rx   d 8 00 FF FF 00 00 02 10 00
 11.591903 1  202             Rx   d 8 00 CC 00 00 00 00 00 00
 11.592136 1  204             Rx   d 8 00 00 FF 00 00 00 00 00
 11.595487 1  412             Rx   d 8 7D 00 80 80 00 00 00 00
 11.595661 1  42C             Rx   d 8 30 30 C4 80 00 00 00 97
 11.595851 1  42F             Rx   d 8 7D 02 05 4E 26 0B 00 00
 11.601051 1  167             Rx   d 8 00 FF FF 00 00 02 10 00
 11.601215 1  171             Rx   d 8 F0 E0 00 00 00 00 00 00
 11.601488 1  204             Rx   d 8 00 00 FF 00 00 00 00 00
 11.605022 1  76              Rx   d 8 00 00 1F F7 FC 00 00 F0
 11.605061 1  20A             Rx   d 8 F1 F8 00 00 00 00 4E 20
 11.611579 1  167             Rx   d 8 00 FF FF 00 00 02 10 00
 11.611928 1  202             Rx   d 8 00 CC 00 00 00 00 00 00
 11.612148 1  204             Rx   d 8 00 00 FF 00 00 00 00 00
 11.615414 1  3CA             Rx   d 8 04 00 00 00 00 00 00 00
 11.621010 1  167             Rx   d 8 00 FF FF 00 00 02 10 00
 11.621174 1  204             Rx   d 8 00 00 FF 00 00 00 00 00
 11.624716 1  76              Rx   d 8 00 00 1F F7 FC 00 00 F0
 11.624912 1  20A             Rx   d 8 F1 F8 00 00 00 00 4E 20
 11.627941 1  3B2             Rx   d 8 20 88 00 00 E6 00 03 3E
 11.628140 1  3C3             Rx   d 8 40 88 00 C8 00 00 81 00
 11.631477 1  167             Rx   d 8 00 FF FF 00 00 02 10 00
 11.631656 1  171             Rx   d 8 F0 E0 00 00 00 00 00 00
 11.632162 1  202             Rx   d 8 00 CC 00 00 00 00 00 00
 11.632422 1  204             Rx   d 8 00 00 FF 00 00 00 00 00
 11.641193 1  167             Rx   d 8 00 FF FF 00 00 02 10 00
 11.641235 1  204             Rx   d 8 00 00 FF 00 00 00 00 00
 11.644867 1  48              Rx   d 8 00 00 00 00 04 00 E0 00
 11.644905 1  76              Rx   d 8 00 00 1F F7 FC 00 00 F0
 11.645149 1  20A             Rx   d 8 F1 F8 00 00 00 00 4E 20
 11.645386 1  3CA             Rx   d 8 04 00 00 00 00 00 00 00
 11.645631 1  412             Rx   d 8 7D 00 80 80 00 00 00 00
 11.645860 1  42F             Rx   d 8 7D 02 05 4E 26 0B 00 00
 11.646110 1  433             Rx   d 8 C0 00 00 00 00 90 00 00
 11.646370 1  470             Rx   d 8 00 00 40 00 00 00 00 00
 11.646613 1  479             Rx   d 8 00 00 00 00 00 00 00 00
 11.651747 1  167             Rx   d 8 00 FF FF 00 00 02 10 00
 11.652059 1  202             Rx   d 8 00 CC 00 00 00 00 00 00
 11.652200 1  204             Rx   d 8 00 00 FF 00 00 00 00 00
 11.661039 1  167             Rx   d 8 00 FF FF 00 00 02 10 00
 11.661186 1  171             Rx   d 8 F0 E0 00 00 00 00 00 00
 11.661443 1  204             Rx   d 8 00 00 FF 00 00 00 00 00
 11.664817 1  76              Rx   d 8 00 00 1F F7 FC 00 00 F0
 11.664983 1  20A             Rx   d 8 F1 F8 00 00 00 00 4E 20
 11.671321 1  156             Rx   d 8 BA 00 00 00 00 00 00 00
 11.671709 1  166             Rx   d 8 76 00 00 FF FF FF 00 00
 11.671940 1  167             Rx   d 8 00 FF FF 00 00 02 10 00
 11.672198 1  178             Rx   d 8 00 00 02 00 02 54 C6 52
 11.672428 1  179             Rx   d 8 00 00 08 00 22 FF 00 00
 11.672693 1  17C             Rx   d 8 00 00 00 00 00 00 00 00
 11.673202 1  202             Rx   d 8 00 CC 00 00 00 00 00 00
 11.673427 1  204             Rx   d 8 00 00 FF 00 00 00 00 00
 11.673946 1  421             Rx   d 8 04 00 11 00 00 00 FF 00
 11.674354 1  42D             Rx   d 8 00 03 FF 00 00 00 F0 00
 11.676015 1  3CA             Rx   d 8 04 00 00 00 00 00 00 00
 11.681087 1  167             Rx   d 8 00 FF FF 00 00 02 10 00
 11.681279 1  204             Rx   d 8 00 00 FF 00 00 00 00 00
 11.685003 1  76              Rx   d 8 00 00 1F F7 FC 00 00 F0
 11.685059 1  20A             Rx   d 8 F1 F8 00 00 00 00 4E 20
 11.691485 1  167             Rx   d 8 00 FF FF 00 00 02 10 00
 11.691648 1  171             Rx   d 8 F0 E0 00 00 00 00 00 00
 11.692129 1  202             Rx   d 8 00 CC 00 00 00 00 00 00
 11.692381 1  204             Rx   d 8 00 00 FF 00 00 00 00 00
 11.695504 1  412             Rx   d 8 7D 00 80 80 00 00 00 00
 11.695651 1  42F             Rx   d 8 7D 02 05 4E 26 0B 00 00
 11.695889 1  38D             Rx   d 8 20 00 00 00 30 00 0C F0
 11.701038 1  167             Rx   d 8 00 FF FF 00 00 02 10 00
 11.701210 1  204             Rx   d 8 00 00 FF 00 00 00 00 00
 11.704761 1  76              Rx   d 8 00 00 1F F7 FC 00 00 F0
 11.704928 1  20A             Rx   d 8 F1 F8 00 00 00 00 4E 20
 11.705162 1  3CA             Rx   d 8 04 00 00 00 00 00 00 00
 11.711616 1  167             Rx   d 8 00 FF FF 00 00 02 10 00
 11.711970 1  202             Rx   d 8 00 CC 00 00 00 00 00 00
 11.712183 1  204             Rx   d 8 00 00 FF 00 00 00 00 00
 11.721313 1  167             Rx   d 8 00 FF FF 00 00 02 10 00
 11.721370 1  171             Rx   d 8 F0 E0 00 00 00 00 00 00
 11.721689 1  204             Rx   d 8 00 00 FF 00 00 00 00 00
 11.724931 1  76              Rx   d 8 00 00 1F F7 FC 00 00 F0
 11.725074 1  20A             Rx   d 8 F1 F8 00 00 00 00 4E 20
 11.726664 1  40A             Rx   d 8 C0 00 00 23 60 82 75 00
 11.731497 1  167             Rx   d 8 00 FF FF 00 00 02 10 00
 11.731925 1  202             Rx   d 8 00 CC 00 00 00 00 00 00
 11.732165 1  204             Rx   d 8 00 00 FF 00 00 00 00 00
 11.735388 1  3CA             Rx   d 8 04 00 00 00 00 00 00 00
 11.741232 1  167             Rx   d 8 00 FF FF 00 00 02 10 00
 11.741276 1  204             Rx   d 8 00 00 FF 00 00 00 00 00
 11.744957 1  48              Rx   d 8 00 00 00 00 04 00 E0 00
 11.744999 1  76              Rx   d 8 00 00 1F F7 FC 00 00 F0
 11.745260 1  14C             Rx   d 8 08 00 00 01 00 00 00 00
 11.745480 1  20A             Rx   d 8 F1 F8 00 00 00 00 4E 20
 11.745725 1  412             Rx   d 8 7D 00 80 80 00 00 00 00
 11.745951 1  42F             Rx   d 8 7D 02 05 4E 26 0B 00 00
 11.746256 1  433             Rx   d 8 C0 00 00 00 00 90 00 00
 11.746701 1  470             Rx   d 8 00 00 40 00 00 00 00 00
 11.751811 1  167             Rx   d 8 00 FF FF 00 00 02 10 00
 11.751868 1  171             Rx   d 8 F0 E0 00 00 00 00 00 00
 11.752448 1  202             Rx   d 8 00 CC 00 00 00 00 00 00
 11.761069 1  167             Rx   d 8 00 FF FF 00 00 02 10 00
 11.772681 1  17C             Rx   d 8 00 00 00 00 00 00 00 00
 11.791904 1  202             Rx   d 8 00 CC 00 00 00 00 00 00
 11.811645 1  167             Rx   d 8 00 FF FF 00 00 02 10 00
 11.829844 1  42C             Rx   d 8 30 31 C4 80 00 00 00 96
 11.846605 1  433             Rx   d 8 C0 00 00 00 00 90 00 00
 11.864750 1  76              Rx   d 8 00 00 1F F7 FC 00 00 F0
 11.885326 1  76              Rx   d 8 00 00 1F F7 FC 00 00 F0
 11.900972 1  167             Rx   d 8 00 FF FF 00 00 02 10 00
 11.921164 1  167             Rx   d 8 00 FF FF 00 00 02 10 00
 11.941038 1  167             Rx   d 8 00 FF FF 00 00 02 10 00
 11.951575 1  167             Rx   d 8 00 FF FF 00 00 02 10 00
 11.965220 1  76              Rx   d 8 00 00 1F F7 FC 00 00 F0
 11.981036 1  167             Rx   d 8 00 FF FF 00 00 02 10 00
 11.995918 1  412             Rx   d 8 7D 00 80 80 00 00 00 00
 12.011486 1  167             Rx   d 8 00 FF FF 00 00 02 10 00
 12.031557 1  167             Rx   d 8 00 FF FF 00 00 02 10 00
 12.051696 1  167             Rx   d 8 00 FF FF 00 00 02 10 00
 12.061189 1  167             Rx   d 8 00 FF FF 00 00 02 10 00
 12.080549 1  3B5             Rx   d 8 FF FD FF FD FF FD FF FD
 12.091976 1  167             Rx   d 8 00 FF FF 00 00 02 10 00
 12.111495 1  167             Rx   d 8 00 FF FF 00 00 02 10 00
 12.131756 1  167             Rx   d 8 00 FF FF 00 00 02 10 00
 12.145980 1  412             Rx   d 8 7D 00 80 80 00 00 00 00
 12.165010 1  76              Rx   d 8 00 00 1F F7 FC 00 00 F0
 12.184897 1  76              Rx   d 8 00 00 1F F7 FC 00 00 F0
 12.201445 1  167             Rx   d 8 00 FF FF 00 00 02 10 00
 12.220995 1  167             Rx   d 8 00 FF FF 00 00 02 10 00
 12.241039 1  167             Rx   d 8 00 FF FF 00 00 02 10 00
 12.261178 1  167             Rx   d 8 00 FF FF 00 00 02 10 00
 12.273206 1  202             Rx   d 8 00 CC 00 00 00 00 00 00
 12.291541 1  167             Rx   d 8 00 FF FF 00 00 02 10 00
 12.311483 1  167             Rx   d 8 00 FF FF 00 00 02 10 00
 12.331595 1  167             Rx   d 8 00 FF FF 00 00 02 10 00
 12.346699 1  275             Rx   d 8 00 00 00 00 00 00 00 00
 12.365373 1  76              Rx   d 8 00 00 1F F7 FC 00 00 F0
 12.385259 1  20A             Rx   d 8 F1 F8 00 00 00 00 4E 20
 12.405202 1  76              Rx   d 8 00 00 1F F7 FC 00 00 F0
 12.425084 1  76              Rx   d 8 00 00 1F F7 FC 00 00 F0
 12.441570 1  167             Rx   d 8 00 FF FF 00 00 02 10 00
 12.461024 1  167             Rx   d 8 00 FF FF 00 00 02 10 00
 12.481377 1  167             Rx   d 8 00 FF FF 00 00 02 10 00
 12.491472 1  167             Rx   d 8 00 FF FF 00 00 02 10 00
 12.505426 1  76              Rx   d 8 00 00 1F F7 FC 00 00 F0
 12.525076 1  76              Rx   d 8 00 00 1F F7 FC 00 00 F0
 12.541079 1  167             Rx   d 8 00 FF FF 00 00 02 10 00
 12.560881 1  3B4             Rx   d 8 34 21 11 FF 1E 1A 00 00
 12.581165 1  167             Rx   d 8 00 FF FF 00 00 02 10 00
 12.601020 1  167             Rx   d 8 00 FF FF 00 00 02 10 00
 12.621286 1  167             Rx   d 8 00 FF FF 00 00 02 10 00
 12.636098 1  3CA             Rx   d 8 04 00 00 00 00 00 00 00
 12.661020 1  167             Rx   d 8 00 FF FF 00 00 02 10 00
 12.671209 1  156             Rx   d 8 BA 00 00 00 00 00 00 00
 12.691694 1  167             Rx   d 8 00 FF FF 00 00 02 10 00
 12.705128 1  76              Rx   d 8 00 00 1F F7 FC 00 00 F0
 12.721175 1  167             Rx   d 8 00 FF FF 00 00 02 10 00
 12.741025 1  167             Rx   d 8 00 FF FF 00 00 02 10 00
 12.756020 1  3CA             Rx   d 8 04 00 00 00 00 00 00 00
 12.774092 1  421             Rx   d 8 04 00 11 00 00 00 FF 00
 12.795930 1  412             Rx   d 8 7D 00 80 80 00 00 00 00
 12.811466 1  167             Rx   d 8 00 FF FF 00 00 02 10 00
 12.831504 1  167             Rx   d 8 00 FF FF 00 00 02 10 00
 12.846340 1  42C             Rx   d 8 30 31 C4 80 00 00 00 96
 12.861313 1  167             Rx   d 8 00 FF FF 00 00 02 10 00
 12.880972 1  167             Rx   d 8 00 FF FF 00 00 02 10 00
 12.892186 1  202             Rx   d 8 00 CC 00 00 00 00 00 00
 12.911502 1  167             Rx   d 8 00 FF FF 00 00 02 10 00
 12.931733 1  167             Rx   d 8 00 FF FF 00 00 02 10 00
 12.945547 1  48              Rx   d 8 00 00 00 00 07 00 E0 00
 12.965552 1  76              Rx   d 8 00 00 1F F7 FC 00 00 F0
 12.981002 1  167             Rx   d 8 00 FF FF 00 00 02 10 00
 13.001282 1  167             Rx   d 8 00 FF FF 00 00 02 10 00
 13.021029 1  167             Rx   d 8 00 FF FF 00 00 02 10 00
 13.041015 1  167             Rx   d 8 00 FF FF 00 00 02 10 00
 13.056466 1  3CA             Rx   d 8 04 00 00 00 00 00 00 00
 13.073400 1  202             Rx   d 8 00 CC 00 00 00 00 00 00
 13.091583 1  167             Rx   d 8 00 FF FF 00 00 02 10 00
 13.111425 1  167             Rx   d 8 00 FF FF 00 00 02 10 00
 13.131902 1  167             Rx   d 8 00 FF FF 00 00 02 10 00
 13.141015 1  167             Rx   d 8 00 FF FF 00 00 02 10 00
 13.161215 1  167             Rx   d 8 00 FF FF 00 00 02 10 00
 13.173158 1  202             Rx   d 8 00 CC 00 00 00 00 00 00
 13.191456 1  167             Rx   d 8 00 FF FF 00 00 02 10 00
 13.211494 1  167             Rx   d 8 00 FF FF 00 00 02 10 00
 13.231585 1  167             Rx   d 8 00 FF FF 00 00 02 10 00
 13.246013 1  412             Rx   d 8 7D 00 80 80 00 00 00 00
 13.261028 1  167             Rx   d 8 00 FF FF 00 00 02 10 00
 13.281010 1  167             Rx   d 8 00 FF FF 00 00 02 10 00
 13.296005 1  3CA             Rx   d 8 04 00 00 00 00 00 00 00
 13.311766 1  167             Rx   d 8 00 FF FF 00 00 02 10 00
 13.325482 1  76              Rx   d 8 00 00 1F F7 FC 00 00 F0
 13.341066 1  167             Rx   d 8 00 FF FF 00 00 02 10 00
 13.371328 1  156             Rx   d 8 BA 00 00 00 00 00 00 00
 13.385437 1  76              Rx   d 8 00 00 1F F7 FC 00 00 F0
 13.385607 1  20A             Rx   d 8 F1 F8 00 00 00 00 4E 20
 13.385846 1  3CA             Rx   d 8 04 00 00 00 00 00 00 00
 13.391541 1  167             Rx   d 8 00 FF FF 00 00 02 10 00
 13.391940 1  202             Rx   d 8 00 CC 00 00 00 00 00 00
 13.392171 1  204             Rx   d 8 00 00 FF 00 00 00 00 00
 13.396112 1  412             Rx   d 8 7D 00 80 80 00 00 00 00
 13.396271 1  42F             Rx   d 8 7D 02 05 4E 26 0B 00 00
 13.397380 1  84              Rx   d 8 00 00 00 01 00 2B 0C 00
 13.400991 1  167             Rx   d 8 00 FF FF 00 00 02 10 00
 13.401221 1  171             Rx   d 8 F0 E0 00 00 00 00 00 00
 13.401423 1  204             Rx   d 8 00 00 FF 00 00 00 00 00
 13.405683 1  76              Rx   d 8 00 00 1F F7 FC 00 00 F0
 13.405722 1  20A             Rx   d 8 F1 F8 00 00 00 00 4E 20
 13.411589 1  167             Rx   d 8 00 FF FF 00 00 02 10 00
 13.416364 1  3CA             Rx   d 8 04 00 00 00 00 00 00 00
 13.431476 1  167             Rx   d 8 00 FF FF 00 00 02 10 00
 13.451705 1  167             Rx   d 8 00 FF FF 00 00 02 10 00
 13.465520 1  76              Rx   d 8 00 00 1F F7 FC 00 00 F0
 13.485729 1  76              Rx   d 8 00 00 1F F7 FC 00 00 F0
 13.498533 1  447             Rx   d 8 20 00 00 4B 00 00 00 00
 13.521286 1  167             Rx   d 8 00 FF FF 00 00 02 10 00
 13.536425 1  3CA             Rx   d 8 04 00 00 00 00 00 00 00
 13.551648 1  167             Rx   d 8 00 FF FF 00 00 02 10 00
 13.571229 1  156             Rx   d 8 BA 00 00 00 00 00 00 00
 13.591518 1  167             Rx   d 8 00 FF FF 00 00 02 10 00
 13.601001 1  167             Rx   d 8 00 FF FF 00 00 02 10 00
 13.621324 1  167             Rx   d 8 00 FF FF 00 00 02 10 00
 13.641008 1  167             Rx   d 8 00 FF FF 00 00 02 10 00
 13.651591 1  167             Rx   d 8 00 FF FF 00 00 02 10 00
 13.671236 1  156             Rx   d 8 BA 00 00 00 00 00 00 00
 13.691732 1  167             Rx   d 8 00 FF FF 00 00 02 10 00
 13.700993 1  167             Rx   d 8 00 FF FF 00 00 02 10 00
 13.721145 1  167             Rx   d 8 00 FF FF 00 00 02 10 00
 13.740433 1  331             Rx   d 8 C0 00 48 58 02 00 00 00
 13.761269 1  167             Rx   d 8 00 FF FF 00 00 02 10 00
 13.781083 1  167             Rx   d 8 00 FF FF 00 00 02 10 00
 13.800923 1  167             Rx   d 8 00 FF FF 00 00 02 10 00
 13.821181 1  167             Rx   d 8 00 FF FF 00 00 02 10 00
 13.831496 1  167             Rx   d 8 00 FF FF 00 00 02 10 00
 13.851676 1  167             Rx   d 8 00 FF FF 00 00 02 10 00
 13.871151 1  156             Rx   d 8 BA 00 00 00 00 00 00 00
 13.885874 1  76              Rx   d 8 00 00 1F F7 FC 00 00 F0
 13.905541 1  76              Rx   d 8 00 00 1F F7 FC 00 00 F0
 13.926239 1  76              Rx   d 8 00 00 1F F7 FC 00 00 F0
 13.945750 1  48              Rx   d 8 00 00 00 00 07 00 E0 00
 13.961399 1  167             Rx   d 8 00 FF FF 00 00 02 10 00
 13.981009 1  167             Rx   d 8 00 FF FF 00 00 02 10 00
 14.001258 1  167             Rx   d 8 00 FF FF 00 00 02 10 00
 14.011453 1  167             Rx   d 8 00 FF FF 00 00 02 10 00
 14.031640 1  167             Rx   d 8 00 FF FF 00 00 02 10 00
 14.046107 1  20A             Rx   d 8 F1 F8 00 00 00 00 4E 20
 14.061158 1  167             Rx   d 8 00 FF FF 00 00 02 10 00
 14.074332 1  42D             Rx   d 8 00 03 FF 00 00 00 F0 00
 14.092237 1  202             Rx   d 8 00 CC 00 00 00 00 00 00
 14.101055 1  167             Rx   d 8 00 FF FF 00 00 02 10 00
 14.121012 1  167             Rx   d 8 00 FF FF 00 00 02 10 00
 14.131596 1  167             Rx   d 8 00 FF FF 00 00 02 10 00
 14.151465 1  167             Rx   d 8 00 FF FF 00 00 02 10 00
 14.171335 1  156             Rx   d 8 BA 00 00 00 00 00 00 00
 14.191473 1  167             Rx   d 8 00 FF FF 00 00 02 10 00
 14.206064 1  76              Rx   d 8 00 00 1F F7 FC 00 00 F0
 14.225799 1  76              Rx   d 8 00 00 1F F7 FC 00 00 F0
 14.246157 1  48              Rx   d 8 00 00 00 00 07 00 E0 00
 14.256585 1  3CA             Rx   d 8 04 00 00 00 00 00 00 00
 14.273388 1  202             Rx   d 8 00 CC 00 00 00 00 00 00
 14.296419 1  412             Rx   d 8 7D 00 80 80 00 00 00 00
 14.311671 1  167             Rx   d 8 00 FF FF 00 00 02 10 00
 14.330159 1  331             Rx   d 8 C0 00 48 59 02 00 00 00
 14.347785 1  277             Rx   d 8 00 00 00 00 02 53 00 00
 14.366186 1  76              Rx   d 8 00 00 1F F7 FC 00 00 F0
 14.381334 1  167             Rx   d 8 00 FF FF 00 00 02 10 00
 14.389117 1  84              Rx   d 8 00 00 00 01 00 2C 0C 00
 14.391471 1  167             Rx   d 8 00 FF FF 00 00 02 10 00
 14.391648 1  171             Rx   d 8 F0 E0 00 00 00 00 00 00
 14.392154 1  202             Rx   d 8 00 CC 00 00 00 00 00 00
 14.392432 1  204             Rx   d 8 00 00 FF 00 00 00 00 00
 14.396646 1  412             Rx   d 8 7D 00 80 80 00 00 00 00
 14.396934 1  42F             Rx   d 8 7D 02 05 4E 26 0B 00 00
 14.400988 1  167             Rx   d 8 00 FF FF 00 00 02 10 00
 14.401198 1  204             Rx   d 8 00 00 FF 00 00 00 00 00
 14.421009 1  167             Rx   d 8 00 FF FF 00 00 02 10 00
 14.431481 1  167             Rx   d 8 00 FF FF 00 00 02 10 00
 14.451772 1  167             Rx   d 8 00 FF FF 00 00 02 10 00
 14.471192 1  156             Rx   d 8 BA 00 00 00 00 00 00 00
 14.491492 1  167             Rx   d 8 00 FF FF 00 00 02 10 00
 14.505815 1  76              Rx   d 8 00 00 1F F7 FC 00 00 F0
 14.525914 1  76              Rx   d 8 00 00 1F F7 FC 00 00 F0
 14.540958 1  167             Rx   d 8 00 FF FF 00 00 02 10 00
 14.561032 1  167             Rx   d 8 00 FF FF 00 00 02 10 00
 14.581160 1  167             Rx   d 8 00 FF FF 00 00 02 10 00
 14.600994 1  167             Rx   d 8 00 FF FF 00 00 02 10 00
 14.616705 1  3CA             Rx   d 8 04 00 00 00 00 00 00 00
 14.640996 1  167             Rx   d 8 00 FF FF 00 00 02 10 00
 14.661283 1  167             Rx   d 8 00 FF FF 00 00 02 10 00
 14.673147 1  202             Rx   d 8 00 CC 00 00 00 00 00 00
 14.691808 1  167             Rx   d 8 00 FF FF 00 00 02 10 00
 14.711442 1  167             Rx   d 8 00 FF FF 00 00 02 10 00
 14.723451 1  331             Rx   d 8 C0 00 48 59 02 00 00 00
 14.740988 1  167             Rx   d 8 00 FF FF 00 00 02 10 00
 14.761338 1  167             Rx   d 8 00 FF FF 00 00 02 10 00
 14.780987 1  167             Rx   d 8 00 FF FF 00 00 02 10 00
 14.791575 1  167             Rx   d 8 00 FF FF 00 00 02 10 00
 14.811477 1  167             Rx   d 8 00 FF FF 00 00 02 10 00
 14.826421 1  76              Rx   d 8 00 00 1F F7 FC 00 00 F0
 14.846114 1  48              Rx   d 8 00 00 00 00 07 00 E0 00
 14.866310 1  76              Rx   d 8 00 00 1F F7 FC 00 00 F0
 14.880976 1  167             Rx   d 8 00 FF FF 00 00 02 10 00
 14.901307 1  167             Rx   d 8 00 FF FF 00 00 02 10 00
 14.921078 1  167             Rx   d 8 00 FF FF 00 00 02 10 00
 14.941006 1  167             Rx   d 8 00 FF FF 00 00 02 10 00
 14.961239 1  167             Rx   d 8 00 FF FF 00 00 02 10 00
 14.970776 1  3B8             Rx   d 8 FF FF FF FF 00 00 00 00
 14.986023 1  76              Rx   d 8 00 00 1F F7 FC 00 00 F0
 15.006061 1  76              Rx   d 8 00 00 1F F7 FC 00 00 F0
 15.029302 1  3B5             Rx   d 8 FF FD FF FD FF FD FF FD
 15.041027 1  167             Rx   d 8 00 FF FF 00 00 02 10 00
 15.051682 1  167             Rx   d 8 00 FF FF 00 00 02 10 00
 15.051713 1  171             Rx   d 8 F0 E0 00 00 00 00 00 00
 15.061294 1  167             Rx   d 8 00 FF FF 00 00 02 10 00
 15.061348 1  204             Rx   d 8 00 00 FF 00 00 00 00 00
 15.066365 1  76              Rx   d 8 00 00 1F F7 FC 00 00 F0
 15.071292 1  156             Rx   d 8 BA 00 00 00 00 00 00 00
 15.091532 1  167             Rx   d 8 00 FF FF 00 00 02 10 00
 15.106369 1  76              Rx   d 8 00 00 1F F7 FC 00 00 F0
 15.106410 1  20A             Rx   d 8 F1 F8 00 00 00 00 4E 20
 15.111785 1  167             Rx   d 8 00 FF FF 00 00 02 10 00
 15.126688 1  76              Rx   d 8 00 00 1F F7 FC 00 00 F0
 15.141011 1  167             Rx   d 8 00 FF FF 00 00 02 10 00
 15.156992 1  3CA             Rx   d 8 04 00 00 00 00 00 00 00
 15.173332 1  202             Rx   d 8 00 CC 00 00 00 00 00 00
 15.191747 1  167             Rx   d 8 00 FF FF 00 00 02 10 00
 15.211391 1  167             Rx   d 8 00 FF FF 00 00 02 10 00
 15.220920 1  167             Rx   d 8 00 FF FF 00 00 02 10 00
 15.232133 1  202             Rx   d 8 00 CC 00 00 00 00 00 00
 15.251388 1  167             Rx   d 8 00 FF FF 00 00 02 10 00
 15.267293 1  76              Rx   d 8 00 00 1F F7 FC 00 00 F0
 15.281188 1  167             Rx   d 8 00 FF FF 00 00 02 10 00
 15.297362 1  412             Rx   d 8 7D 00 80 80 00 00 00 00
 15.311559 1  167             Rx   d 8 00 FF FF 00 00 02 10 00
 15.327017 1  76              Rx   d 8 00 00 1F F7 FC 00 00 F0
 15.345801 1  59E             Rx   d 8 9E 00 FF FF FF FF FF FF
 15.367080 1  76              Rx   d 8 00 00 1F F7 FC 00 00 F0
 15.381145 1  167             Rx   d 8 00 FF FF 00 00 02 10 00
 15.406277 1  76              Rx   d 8 00 00 1F F7 FC 00 00 F0
 15.421230 1  167             Rx   d 8 00 FF FF 00 00 02 10 00
 15.440977 1  167             Rx   d 8 00 FF FF 00 00 02 10 00
 15.451495 1  167             Rx   d 8 00 FF FF 00 00 02 10 00
 15.471189 1  156             Rx   d 8 BA 00 00 00 00 00 00 00
 15.481219 1  167             Rx   d 8 00 FF FF 00 00 02 10 00
 15.501073 1  167             Rx   d 8 00 FF FF 00 00 02 10 00
 15.520125 1  3B5             Rx   d 8 FF FD FF FD FF FD FF FD
 15.531772 1  167             Rx   d 8 00 FF FF 00 00 02 10 00
 15.548346 1  479             Rx   d 8 00 00 00 00 00 00 00 00
 15.571130 1  156             Rx   d 8 BA 00 00 00 00 00 00 00
 15.586346 1  76              Rx   d 8 00 00 1F F7 FC 00 00 F0
 15.606112 1  76              Rx   d 8 00 00 1F F7 FC 00 00 F0
 15.626884 1  76              Rx   d 8 00 00 1F F7 FC 00 00 F0
 15.641171 1  204             Rx   d 8 00 00 FF 00 00 00 00 00
 15.661401 1  167             Rx   d 8 00 FF FF 00 00 02 10 00
 15.680996 1  167             Rx   d 8 00 FF FF 00 00 02 10 00
 15.691684 1  167             Rx   d 8 00 FF FF 00 00 02 10 00
 15.711437 1  167             Rx   d 8 00 FF FF 00 00 02 10 00
 15.731565 1  167             Rx   d 8 00 FF FF 00 00 02 10 00
 15.746280 1  48              Rx   d 8 00 00 00 00 07 00 E0 00
 15.766332 1  76              Rx   d 8 00 00 1F F7 FC 00 00 F0
 15.780958 1  167             Rx   d 8 00 FF FF 00 00 02 10 00
 15.807090 1  76              Rx   d 8 00 00 1F F7 FC 00 00 F0
 15.820957 1  167             Rx   d 8 00 FF FF 00 00 02 10 00
 15.841254 1  167             Rx   d 8 00 FF FF 00 00 02 10 00
 15.855176 1  40A             Rx   d 8 C1 02 32 38 38 33 36 00
 15.871244 1  156             Rx   d 8 BA 00 00 00 00 00 00 00
 15.891444 1  167             Rx   d 8 00 FF FF 00 00 02 10 00
 15.907083 1  76              Rx   d 8 00 00 1F F7 FC 00 00 F0
 15.911496 1  167             Rx   d 8 00 FF FF 00 00 02 10 00
 15.926444 1  76              Rx   d 8 00 00 1F F7 FC 00 00 F0
 15.941295 1  167             Rx   d 8 00 FF FF 00 00 02 10 00
 15.960976 1  167             Rx   d 8 00 FF FF 00 00 02 10 00
 15.981017 1  167             Rx   d 8 00 FF FF 00 00 02 10 00
 15.997142 1  3CA             Rx   d 8 04 00 00 00 00 00 00 00
 16.013391 1  3B5             Rx   d 8 FF FD FF FD FF FD FF FD
 16.031713 1  167             Rx   d 8 00 FF FF 00 00 02 10 00
 16.051632 1  167             Rx   d 8 00 FF FF 00 00 02 10 00
 16.066273 1  76              Rx   d 8 00 00 1F F7 FC 00 00 F0
 16.086313 1  76              Rx   d 8 00 00 1F F7 FC 00 00 F0
 16.100991 1  167             Rx   d 8 00 FF FF 00 00 02 10 00
 16.117043 1  3CA             Rx   d 8 04 00 00 00 00 00 00 00
 16.131432 1  167             Rx   d 8 00 FF FF 00 00 02 10 00
 16.146430 1  48              Rx   d 8 00 00 00 00 07 00 E0 00
 16.166405 1  76              Rx   d 8 00 00 1F F7 FC 00 00 F0
 16.181018 1  167             Rx   d 8 00 FF FF 00 00 02 10 00
 16.200942 1  167             Rx   d 8 00 FF FF 00 00 02 10 00
 16.220994 1  167             Rx   d 8 00 FF FF 00 00 02 10 00
 16.237029 1  3CA             Rx   d 8 04 00 00 00 00 00 00 00
 16.260991 1  167             Rx   d 8 00 FF FF 00 00 02 10 00
 16.266386 1  76              Rx   d 8 00 00 1F F7 FC 00 00 F0
 16.286777 1  76              Rx   d 8 00 00 1F F7 FC 00 00 F0
 16.306355 1  76              Rx   d 8 00 00 1F F7 FC 00 00 F0
 16.321332 1  167             Rx   d 8 00 FF FF 00 00 02 10 00
 16.341001 1  167             Rx   d 8 00 FF FF 00 00 02 10 00
 16.351624 1  167             Rx   d 8 00 FF FF 00 00 02 10 00
 16.371229 1  156             Rx   d 8 BA 00 00 00 00 00 00 00
 16.391678 1  167             Rx   d 8 00 FF FF 00 00 02 10 00
 16.411430 1  167             Rx   d 8 00 FF FF 00 00 02 10 00
 16.431457 1  167             Rx   d 8 00 FF FF 00 00 02 10 00
 16.445145 1  38D             Rx   d 8 20 00 00 00 E0 00 00 F0
 16.466505 1  76              Rx   d 8 00 00 1F F7 FC 00 00 F0
 16.480932 1  167             Rx   d 8 00 FF FF 00 00 02 10 00
 16.500963 1  167             Rx   d 8 00 FF FF 00 00 02 10 00
 16.521292 1  167             Rx   d 8 00 FF FF 00 00 02 10 00
 16.537170 1  3CA             Rx   d 8 04 00 00 00 00 00 00 00
 16.551392 1  167             Rx   d 8 00 FF FF 00 00 02 10 00
 16.571180 1  156             Rx   d 8 BA 00 00 00 00 00 00 00
 16.586521 1  76              Rx   d 8 00 00 1F F7 FC 00 00 F0
 16.606911 1  76              Rx   d 8 00 00 1F F7 FC 00 00 F0
 16.626986 1  76              Rx   d 8 00 00 1F F7 FC 00 00 F0
 16.640971 1  167             Rx   d 8 00 FF FF 00 00 02 10 00
 16.657188 1  3CA             Rx   d 8 04 00 00 00 00 00 00 00
 16.680980 1  167             Rx   d 8 00 FF FF 00 00 02 10 00
 16.692118 1  204             Rx   d 8 00 00 FF 00 00 00 00 00
 16.711455 1  167             Rx   d 8 00 FF FF 00 00 02 10 00
 16.731635 1  167             Rx   d 8 00 FF FF 00 00 02 10 00
 16.746565 1  48              Rx   d 8 00 00 00 00 07 00 E0 00
 16.766922 1  76              Rx   d 8 00 00 1F F7 FC 00 00 F0
 16.781168 1  167             Rx   d 8 00 FF FF 00 00 02 10 00
 16.800984 1  167             Rx   d 8 00 FF FF 00 00 02 10 00
 16.811482 1  167             Rx   d 8 00 FF FF 00 00 02 10 00
 16.831439 1  167             Rx   d 8 00 FF FF 00 00 02 10 00
 16.846596 1  48              Rx   d 8 00 00 00 00 07 00 E0 00
 16.866586 1  76              Rx   d 8 00 00 1F F7 FC 00 00 F0
 16.881002 1  167             Rx   d 8 00 FF FF 00 00 02 10 00
 16.900940 1  167             Rx   d 8 00 FF FF 00 00 02 10 00
 16.921031 1  167             Rx   d 8 00 FF FF 00 00 02 10 00
 16.936697 1  3B8             Rx   d 8 FF FF FF FF 00 00 00 00
 16.951630 1  167             Rx   d 8 00 FF FF 00 00 02 10 00
 16.971170 1  156             Rx   d 8 BA 00 00 00 00 00 00 00
 16.987111 1  76              Rx   d 8 00 00 1F F7 FC 00 00 F0
 17.006640 1  76              Rx   d 8 00 00 1F F7 FC 00 00 F0
 17.017217 1  3CA             Rx   d 8 04 00 00 00 00 00 00 00
 17.035208 1  3B2             Rx   d 8 44 8C C0 0C E6 00 03 3E
 17.052051 1  167             Rx   d 8 00 FF FF 00 00 02 10 00
 17.071197 1  156             Rx   d 8 BA 00 00 00 00 00 00 00
 17.087377 1  76              Rx   d 8 00 00 1F F7 FC 00 00 F0
 17.100935 1  167             Rx   d 8 00 FF FF 00 00 02 10 00
 17.121181 1  167             Rx   d 8 00 FF FF 00 00 02 10 00
 17.131437 1  167             Rx   d 8 00 FF FF 00 00 02 10 00
 17.147666 1  412             Rx   d 8 7D 00 80 80 00 00 00 00
 17.166800 1  76              Rx   d 8 00 00 1F F7 FC 00 00 F0
 17.187266 1  76              Rx   d 8 00 00 1F F7 FC 00 00 F0
 17.201354 1  167             Rx   d 8 00 FF FF 00 00 02 10 00
 17.221128 1  167             Rx   d 8 00 FF FF 00 00 02 10 00
 17.238058 1  46B             Rx   d 8 B5 A0 48 00 00 00 D2 09
 17.257425 1  3CA             Rx   d 8 04 00 00 00 00 00 00 00
 17.271959 1  166             Rx   d 8 76 00 00 FF FF FF 00 00
 17.291545 1  167             Rx   d 8 00 FF FF 00 00 02 10 00
 17.311365 1  167             Rx   d 8 00 FF FF 00 00 02 10 00
 17.327018 1  76              Rx   d 8 00 00 1F F7 FC 00 00 F0
 17.346432 1  59E             Rx   d 8 9E 00 FF FF FF FF FF FF
 17.360988 1  167             Rx   d 8 00 FF FF 00 00 02 0F 00
 17.377886 1  3CA             Rx   d 8 04 00 00 00 00 00 00 00
 17.397382 1  412             Rx   d 8 7D 00 80 80 00 00 00 00
 17.421011 1  167             Rx   d 8 00 FF FF 00 00 02 0F 00
 17.431395 1  167             Rx   d 8 00 FF FF 00 00 02 0F 00
 17.448573 1  470             Rx   d 8 00 00 40 00 00 00 00 00
 17.466866 1  76              Rx   d 8 00 00 1F F7 FC 00 00 F0
 17.486543 1  3B5             Rx   d 8 FF FD FF FD FF FD FF FD
 17.507472 1  76              Rx   d 8 00 00 1F F7 FC 00 00 F0
 17.520984 1  167             Rx   d 8 00 FF FF 00 00 02 0F 00
 17.541216 1  167             Rx   d 8 00 FF FF 00 00 02 0F 00
 17.557490 1  3CA             Rx   d 8 04 00 00 00 00 00 00 00
 17.572120 1  171             Rx   d 8 F0 E0 00 00 00 00 00 00
 17.591585 1  167             Rx   d 8 00 FF FF 00 00 02 0F 00
 17.611603 1  167             Rx   d 8 00 FF FF 00 00 02 0F 00
 17.627429 1  76              Rx   d 8 00 00 1F F7 FC 00 00 F0
 17.647148 1  48              Rx   d 8 00 00 00 00 07 00 E0 00
 17.660994 1  167             Rx   d 8 00 FF FF 00 00 02 0F 00
 17.678237 1  3CA             Rx   d 8 04 00 00 00 00 00 00 00
 17.697717 1  412             Rx   d 8 7D 00 80 80 00 00 00 00
 17.721045 1  167             Rx   d 8 00 FF FF 00 00 02 0F 00
 17.731703 1  167             Rx   d 8 00 FF FF 00 00 02 0F 00
 17.751540 1  167             Rx   d 8 00 FF FF 00 00 02 0F 00
 17.767011 1  76              Rx   d 8 00 00 1F F7 FC 00 00 F0
 17.787023 1  76              Rx   d 8 00 00 1F F7 FC 00 00 F0
 17.806940 1  76              Rx   d 8 00 00 1F F7 FC 00 00 F0
 17.821002 1  167             Rx   d 8 00 FF FF 00 00 02 0F 00
 17.840978 1  167             Rx   d 8 00 FF FF 00 00 02 0F 00
 17.857486 1  3CA             Rx   d 8 04 00 00 00 00 00 00 00
 17.872967 1  17C             Rx   d 8 00 00 00 00 00 00 00 00
 17.891467 1  167             Rx   d 8 00 FF FF 00 00 02 0F 00
 17.911391 1  167             Rx   d 8 00 FF FF 00 00 02 0F 00
 17.927030 1  76              Rx   d 8 00 00 1F F7 FC 00 00 F0
 17.946991 1  48              Rx   d 8 00 00 00 00 07 00 E0 00
 17.961000 1  167             Rx   d 8 00 FF FF 00 00 02 0F 00
 17.978385 1  3CA             Rx   d 8 04 00 00 00 00 00 00 00
 17.997572 1  412             Rx   d 8 7D 00 80 80 00 00 00 00
 18.017890 1  3B2             Rx   d 8 44 8C C0 0C E6 00 03 3E
 18.031398 1  167             Rx   d 8 00 FF FF 00 00 02 0F 00
 18.051416 1  167             Rx   d 8 00 FF FF 00 00 02 0F 00
 18.067879 1  3CA             Rx   d 8 04 00 00 00 00 00 00 00
 18.081270 1  167             Rx   d 8 00 FF FF 00 00 02 0F 00
 18.097780 1  3CA             Rx   d 8 04 00 00 00 00 00 00 00
 18.111839 1  167             Rx   d 8 00 FF FF 00 00 02 0F 00
 18.131462 1  167             Rx   d 8 00 FF FF 00 00 02 0F 00
 18.147172 1  48              Rx   d 8 00 00 00 00 07 00 E0 00
 18.167424 1  76              Rx   d 8 00 00 1F F7 FC 00 00 F0
 18.187185 1  76              Rx   d 8 00 00 1F F7 FC 00 00 F0
 18.191615 1  167             Rx   d 8 00 FF FF 00 00 02 0F 00
 18.211622 1  167             Rx   d 8 00 FF FF 00 00 02 0F 00
 18.227156 1  76              Rx   d 8 00 00 1F F7 FC 00 00 F0
 18.247363 1  48              Rx   d 8 00 00 00 00 07 00 E0 00
 18.261113 1  167             Rx   d 8 00 FF FF 00 00 02 0F 00
 18.280960 1  167             Rx   d 8 00 FF FF 00 00 02 0F 00
 18.298107 1  412             Rx   d 8 7D 00 80 80 00 00 00 00
 18.311430 1  167             Rx   d 8 00 FF FF 00 00 02 0F 00
 18.327685 1  76              Rx   d 8 00 00 1F F7 FC 00 00 F0
 18.340969 1  167             Rx   d 8 00 FF FF 00 00 02 0F 00
 18.361424 1  167             Rx   d 8 00 FF FF 00 00 02 0F 00
 18.374910 1  42D             Rx   d 8 00 03 FF 00 00 00 F0 00
 18.392246 1  204             Rx   d 8 00 00 FF 00 00 00 00 00
 18.411462 1  167             Rx   d 8 00 FF FF 00 00 02 0F 00
 18.427384 1  76              Rx   d 8 00 00 1F F7 FC 00 00 F0
 18.441396 1  204             Rx   d 8 00 00 FF 00 00 00 00 00
 18.457804 1  3CA             Rx   d 8 04 00 00 00 00 00 00 00
 18.471930 1  166             Rx   d 8 76 00 00 FF FF FF 00 00
 18.491548 1  167             Rx   d 8 00 FF FF 00 00 02 0F 00
 18.507245 1  76              Rx   d 8 00 00 1F F7 FC 00 00 F0
 18.527422 1  76              Rx   d 8 00 00 1F F7 FC 00 00 F0
 18.547199 1  48              Rx   d 8 00 00 00 00 07 00 E0 00
 18.560995 1  167             Rx   d 8 00 FF FF 00 00 02 0F 00
 18.578113 1  3CA             Rx   d 8 04 00 00 00 00 00 00 00
 18.597742 1  412             Rx   d 8 7D 00 80 80 00 00 00 00
 18.620980 1  167             Rx   d 8 00 FF FF 00 00 02 0F 00
 18.631432 1  167             Rx   d 8 00 FF FF 00 00 02 0F 00
 18.648540 1  42F             Rx   d 8 7D 02 05 4E 26 0B 00 00
 18.660981 1  167             Rx   d 8 00 FF FF 00 00 02 0F 00
 18.673136 1  202             Rx   d 8 00 CC 00 00 00 00 00 00
 18.691422 1  167             Rx   d 8 00 FF FF 00 00 02 0F 00
 18.711616 1  167             Rx   d 8 00 FF FF 00 00 02 0F 00
 18.720965 1  167             Rx   d 8 00 FF FF 00 00 02 0F 00
 18.741269 1  167             Rx   d 8 00 FF FF 00 00 02 0F 00
 18.751486 1  167             Rx   d 8 00 FF FF 00 00 02 0F 00
 18.771142 1  156             Rx   d 8 BA 00 00 00 00 00 00 00
 18.787660 1  76              Rx   d 8 00 00 1F F7 FC 00 00 F0
 18.804294 1  40A             Rx   d 8 C0 00 00 23 60 82 BC 00
 18.817592 1  3CA             Rx   d 8 04 00 00 00 00 00 00 00
 18.840972 1  167             Rx   d 8 00 FF FF 00 00 02 0F 00
 18.847719 1  48              Rx   d 8 00 00 00 00 07 00 E0 00
 18.867399 1  76              Rx   d 8 00 00 1F F7 FC 00 00 F0
 18.888033 1  76              Rx   d 8 00 00 1F F7 FC 00 00 F0
 18.900920 1  167             Rx   d 8 00 FF FF 00 00 02 0F 00
 18.921212 1  167             Rx   d 8 00 FF FF 00 00 02 0F 00
 18.937572 1  3CA             Rx   d 8 04 00 00 00 00 00 00 00
 18.961087 1  167             Rx   d 8 00 FF FF 00 00 02 0F 00
 18.971149 1  156             Rx   d 8 BA 00 00 00 00 00 00 00
 18.991753 1  167             Rx   d 8 00 FF FF 00 00 02 0F 00
 19.007463 1  76              Rx   d 8 00 00 1F F7 FC 00 00 F0
 19.027667 1  76              Rx   d 8 00 00 1F F7 FC 00 00 F0
 19.040966 1  167             Rx   d 8 00 FF FF 00 00 02 0F 00
 19.057958 1  3CA             Rx   d 8 04 00 00 00 00 00 00 00
 19.067782 1  76              Rx   d 8 00 00 1F F7 FC 00 00 F0
 19.087480 1  76              Rx   d 8 00 00 1F F7 FC 00 00 F0
 19.101295 1  167             Rx   d 8 00 FF FF 00 00 02 0F 00
 19.120923 1  167             Rx   d 8 00 FF FF 00 00 02 0F 00
 19.141010 1  167             Rx   d 8 00 FF FF 00 00 02 0F 00
 19.161026 1  167             Rx   d 8 00 FF FF 00 00 02 0F 00
 19.167923 1  76              Rx   d 8 00 00 1F F7 FC 00 00 F0
 19.187555 1  76              Rx   d 8 00 00 1F F7 FC 00 00 F0
 19.201005 1  167             Rx   d 8 00 FF FF 00 00 02 0F 00
 19.220978 1  167             Rx   d 8 00 FF FF 00 00 02 0F 00
 19.238211 1  3CA             Rx   d 8 04 00 00 00 00 00 00 00
 19.260983 1  167             Rx   d 8 00 FF FF 00 00 02 0F 00
 19.271244 1  156             Rx   d 8 BA 00 00 00 00 00 00 00
 19.291423 1  167             Rx   d 8 00 FF FF 00 00 02 0F 00
 19.307980 1  76              Rx   d 8 00 00 1F F7 FC 00 00 F0
 19.327593 1  76              Rx   d 8 00 00 1F F7 FC 00 00 F0
 19.347663 1  59E             Rx   d 8 9E 00 FF FF FF FF FF FF
 19.371304 1  156             Rx   d 8 BA 00 00 00 00 00 00 00
 19.391369 1  167             Rx   d 8 00 FF FF 00 00 02 0F 00
 19.407794 1  76              Rx   d 8 00 00 1F F7 FC 00 00 F0
 19.421229 1  167             Rx   d 8 00 FF FF 00 00 02 0F 00
 19.441185 1  167             Rx   d 8 00 FF FF 00 00 02 0F 00
 19.461016 1  167             Rx   d 8 00 FF FF 00 00 02 0F 00
 19.467887 1  20A             Rx   d 8 F1 F8 00 00 00 00 4E 20
 19.487942 1  76              Rx   d 8 00 00 1F F7 FC 00 00 F0
 19.507650 1  76              Rx   d 8 00 00 1F F7 FC 00 00 F0
 19.521580 1  167             Rx   d 8 00 FF FF 00 00 02 0F 00
 19.540924 1  167             Rx   d 8 00 FF FF 00 00 02 0F 00
 19.560986 1  167             Rx   d 8 00 FF FF 00 00 02 0F 00
 19.574334 1  42D             Rx   d 8 00 03 FF 00 00 00 F0 00
 19.597845 1  3CA             Rx   d 8 04 00 00 00 00 00 00 00
 19.611421 1  167             Rx   d 8 00 FF FF 00 00 02 0F 00
 19.631356 1  167             Rx   d 8 00 FF FF 00 00 02 0F 00
 19.647758 1  48              Rx   d 8 00 00 00 00 07 00 E0 00
 19.661039 1  167             Rx   d 8 00 FF FF 00 00 02 0F 00
 19.680981 1  167             Rx   d 8 00 FF FF 00 00 02 0F 00
 19.688170 1  76              Rx   d 8 00 00 1F F7 FC 00 00 F0
 19.707714 1  76              Rx   d 8 00 00 1F F7 FC 00 00 F0
 19.721164 1  167             Rx   d 8 00 FF FF 00 00 02 0F 00
 19.731786 1  167             Rx   d 8 00 FF FF 00 00 02 0F 00
 19.748944 1  3CA             Rx   d 8 04 00 00 00 00 00 00 00
 19.768078 1  76              Rx   d 8 00 00 1F F7 FC 00 00 F0
 19.787471 1  40A             Rx   d 8 C1 10 40 84 20 08 80 00
 19.807740 1  76              Rx   d 8 00 00 1F F7 FC 00 00 F0
 19.820972 1  167             Rx   d 8 00 FF FF 00 00 02 0F 00
 19.838257 1  3CA             Rx   d 8 04 00 00 00 00 00 00 00
 19.861322 1  167             Rx   d 8 00 FF FF 00 00 02 0F 00
 19.873372 1  202             Rx   d 8 00 CC 00 00 00 00 00 00
 19.891415 1  167             Rx   d 8 00 FF FF 00 00 02 0F 00
 19.908261 1  76              Rx   d 8 00 00 1F F7 FC 00 00 F0
 19.920979 1  167             Rx   d 8 00 FF FF 00 00 02 0F 00
 19.941007 1  167             Rx   d 8 00 FF FF 00 00 02 0F 00
 19.951399 1  167             Rx   d 8 00 FF FF 00 00 02 0F 00
 19.971252 1  156             Rx   d 8 BA 00 00 00 00 00 00 00
 19.988556 1  76              Rx   d 8 00 00 1F F7 FC 00 00 F0
 20.001205 1  167             Rx   d 8 00 FF FF 00 00 02 0F 00
 20.018001 1  3CA             Rx   d 8 04 00 00 00 00 00 00 00
 20.048210 1  48              Rx   d 8 00 00 00 00 07 00 E0 00
 20.067914 1  76              Rx   d 8 00 00 1F F7 FC 00 00 F0
 20.078889 1  3CA             Rx   d 8 04 00 00 00 00 00 00 00
 20.098299 1  412             Rx   d 8 7D 00 80 80 00 00 00 00
 20.098343 1  42C             Rx   d 8 30 31 C4 80 00 00 00 96
 20.121358 1  167             Rx   d 8 00 FF FF 00 00 02 0F 00
 20.128050 1  76              Rx   d 8 00 00 1F F7 FC 00 00 F0
 20.148031 1  48              Rx   d 8 00 00 00 00 07 00 E0 00
 20.167961 1  76              Rx   d 8 00 00 1F F7 FC 00 00 F0
 20.180796 1  40A             Rx   d 8 C1 00 57 46 30 4A 58 58
 20.191886 1  202             Rx   d 8 00 CC 00 00 00 00 00 00
 20.211449 1  167             Rx   d 8 00 FF FF 00 00 02 0F 00
 20.227860 1  76              Rx   d 8 00 00 1F F7 FC 00 00 F0
 20.249348 1  470             Rx   d 8 00 00 40 00 00 00 00 00
 20.268004 1  76              Rx   d 8 00 00 1F F7 FC 00 00 F0
 20.274718 1  42D             Rx   d 8 00 03 FF 00 00 00 F0 00
 20.298701 1  412             Rx   d 8 7D 00 80 80 00 00 00 00
 20.311947 1  167             Rx   d 8 00 FF FF 00 00 02 0F 00
 20.326700 1  331             Rx   d 8 C0 00 48 5F 02 00 00 00
 20.341268 1  167             Rx   d 8 00 FF FF 00 00 02 0F 00
 20.351455 1  3CA             Rx   d 8 04 00 00 00 00 00 00 00
 20.367995 1  76              Rx   d 8 00 00 1F F7 FC 00 00 F0
 20.387993 1  76              Rx   d 8 00 00 1F F7 FC 00 00 F0
 20.420955 1  167             Rx   d 8 00 FF FF 00 00 02 0F 00
 20.438324 1  3CA             Rx   d 8 04 00 00 00 00 00 00 00
 20.460958 1  167             Rx   d 8 00 FF FF 00 00 02 0F 00
 20.474571 1  42D             Rx   d 8 00 03 FF 00 00 00 F0 00
 20.498540 1  3CA             Rx   d 8 04 00 00 00 00 00 00 00
 20.511490 1  167             Rx   d 8 00 FF FF 00 00 02 0F 00
 20.531417 1  167             Rx   d 8 00 FF FF 00 00 02 0F 00
 20.548457 1  48              Rx   d 8 00 00 00 00 07 00 E0 00
 20.558358 1  3CA             Rx   d 8 04 00 00 00 00 00 00 00
 20.574586 1  40A             Rx   d 8 C1 02 32 38 38 33 36 00
 20.588120 1  76              Rx   d 8 00 00 1F F7 FC 00 00 F0
 20.608087 1  76              Rx   d 8 00 00 1F F7 FC 00 00 F0
 20.628102 1  76              Rx   d 8 00 00 1F F7 FC 00 00 F0
 20.648301 1  48              Rx   d 8 00 00 00 00 07 00 E0 00
 20.660983 1  167             Rx   d 8 00 FF FF 00 00 02 0F 00
 20.674777 1  42D             Rx   d 8 00 03 FF 00 00 00 F0 00
 20.688525 1  76              Rx   d 8 00 00 1F F7 FC 00 00 F0
 20.708163 1  76              Rx   d 8 00 00 1F F7 FC 00 00 F0
 20.728162 1  76              Rx   d 8 00 00 1F F7 FC 00 00 F0
 20.740919 1  167             Rx   d 8 00 FF FF 00 00 02 0F 00
 20.761265 1  167             Rx   d 8 00 FF FF 00 00 02 0F 00
 20.771585 1  166             Rx   d 8 76 00 00 FF FF FF 00 00
 20.791473 1  167             Rx   d 8 00 FF FF 00 00 02 0F 00
 20.808180 1  76              Rx   d 8 00 00 1F F7 FC 00 00 F0
 20.828466 1  76              Rx   d 8 00 00 1F F7 FC 00 00 F0
 20.840950 1  167             Rx   d 8 00 FF FF 00 00 02 0F 00
 20.858569 1  3CA             Rx   d 8 04 00 00 00 00 00 00 00
 20.874536 1  42D             Rx   d 8 00 03 FF 00 00 00 F0 00
 20.898654 1  412             Rx   d 8 7D 00 80 80 00 00 00 00
 20.908203 1  76              Rx   d 8 00 00 1F F7 FC 00 00 F0
 20.927250 1  3B5             Rx   d 8 FF FD FF FD FF FD FF FD
 20.940962 1  167             Rx   d 8 00 FF FF 00 00 02 0F 00
 20.961116 1  167             Rx   d 8 00 FF FF 00 00 02 0F 00
 20.967300 1  3B2             Rx   d 8 44 8C C0 0C E6 00 03 3E
 20.988482 1  76              Rx   d 8 00 00 1F F7 FC 00 00 F0
 20.998802 1  412             Rx   d 8 7D 00 80 80 00 00 00 00
 21.021008 1  167             Rx   d 8 00 FF FF 00 00 02 0F 00
 21.038443 1  3CA             Rx   d 8 04 00 00 00 00 00 00 00
 21.051364 1  167             Rx   d 8 00 FF FF 00 00 02 0F 00
 21.069096 1  76              Rx   d 8 00 00 1F F7 FC 00 00 F0
 21.088579 1  76              Rx   d 8 00 00 1F F7 FC 00 00 F0
 21.108305 1  76              Rx   d 8 00 00 1F F7 FC 00 00 F0
 21.120953 1  167             Rx   d 8 00 FF FF 00 00 02 0F 00
 21.131484 1  167             Rx   d 8 00 FF FF 00 00 02 0F 00
 21.149724 1  433             Rx   d 8 C0 00 00 00 00 90 00 00
 21.163695 1  40A             Rx   d 8 C0 00 00 23 60 82 D3 00
 21.188325 1  76              Rx   d 8 00 00 1F F7 FC 00 00 F0
 21.201170 1  167             Rx   d 8 00 FF FF 00 00 02 0F 00
 21.208493 1  76              Rx   d 8 00 00 1F F7 FC 00 00 F0
 21.228338 1  76              Rx   d 8 00 00 1F F7 FC 00 00 F0
 21.248852 1  48              Rx   d 8 00 00 00 00 07 00 E0 00
 21.268537 1  76              Rx   d 8 00 00 1F F7 FC 00 00 F0
 21.279043 1  3CA             Rx   d 8 04 00 00 00 00 00 00 00
 21.298517 1  412             Rx   d 8 7D 00 80 80 00 00 00 00
 21.320947 1  167             Rx   d 8 00 FF FF 00 00 02 0F 00
 21.331399 1  167             Rx   d 8 00 FF FF 00 00 02 0F 00
 21.348488 1  59E             Rx   d 8 9E 00 FF FF FF FF FF FF
 21.361365 1  204             Rx   d 8 00 00 FF 00 00 00 00 00
 21.363350 1  447             Rx   d 8 20 00 00 4B 00 20 00 00
 21.368446 1  76              Rx   d 8 00 00 1F F7 FC 00 00 F0
 21.368640 1  20A             Rx   d 8 F1 F8 00 00 00 00 4E 20
 21.368832 1  3CA             Rx   d 8 04 00 00 00 00 00 00 00
 21.371209 1  156             Rx   d 8 BA 00 00 00 00 00 00 00
 21.371638 1  166             Rx   d 8 76 00 00 FF FF FF 00 00
 21.371873 1  167             Rx   d 8 00 FF FF 00 00 02 0F 00
 21.372109 1  178             Rx   d 8 00 00 02 00 02 54 C6 53
 21.372360 1  179             Rx   d 8 00 00 08 00 22 FF 00 00
 21.373173 1  202             Rx   d 8 00 CC 00 00 00 00 00 00
 21.379122 1  46B             Rx   d 8 B6 A0 48 00 00 00 D2 09
 21.388565 1  76              Rx   d 8 00 00 1F F7 FC 00 00 F0
 21.398576 1  3CA             Rx   d 8 04 00 00 00 00 00 00 00
 21.407571 1  3B4             Rx   d 8 34 21 11 FF 1E 1A 00 00
 21.428418 1  76              Rx   d 8 00 00 1F F7 FC 00 00 F0
 21.448730 1  48              Rx   d 8 00 00 00 00 07 00 E0 00
 21.460892 1  167             Rx   d 8 00 FF FF 00 00 02 0F 00
 21.481107 1  167             Rx   d 8 00 FF FF 00 00 02 0F 00
 21.498592 1  412             Rx   d 8 7D 00 80 80 00 00 00 00
 21.519036 1  3CA             Rx   d 8 04 00 00 00 00 00 00 00
 21.531393 1  167             Rx   d 8 00 FF FF 00 00 02 0F 00
 21.548518 1  48              Rx   d 8 00 00 00 00 07 00 E0 00
 21.568480 1  76              Rx   d 8 00 00 1F F7 FC 00 00 F0
 21.588767 1  76              Rx   d 8 00 00 1F F7 FC 00 00 F0
 21.604331 1  331             Rx   d 8 C0 00 48 60 02 00 00 00
 21.621010 1  167             Rx   d 8 00 FF FF 00 00 02 0F 00
 21.638934 1  3CA             Rx   d 8 04 00 00 00 00 00 00 00
 21.648565 1  48              Rx   d 8 00 00 00 00 07 00 E0 00
 21.661002 1  167             Rx   d 8 00 FF FF 00 00 02 0F 00
 21.680954 1  167             Rx   d 8 00 FF FF 00 00 02 0F 00
 21.699442 1  3CA             Rx   d 8 04 00 00 00 00 00 00 00
 21.720955 1  167             Rx   d 8 00 FF FF 00 00 02 0F 00
 21.728793 1  76              Rx   d 8 00 00 1F F7 FC 00 00 F0
 21.741127 1  167             Rx   d 8 00 FF FF 00 00 02 0F 00
 21.751370 1  167             Rx   d 8 00 FF FF 00 00 02 0F 00
 21.769001 1  76              Rx   d 8 00 00 1F F7 FC 00 00 F0
 21.788687 1  76              Rx   d 8 00 00 1F F7 FC 00 00 F0
 21.799118 1  42F             Rx   d 8 7D 02 05 4E 26 0B 00 00
 21.818712 1  3CA             Rx   d 8 04 00 00 00 00 00 00 00
 21.841023 1  167             Rx   d 8 00 FF FF 00 00 02 0F 00
 21.853133 1  3B8             Rx   d 8 FF FF FF FF 00 00 00 00
 21.871250 1  156             Rx   d 8 BA 00 00 00 00 00 00 00
 21.888608 1  76              Rx   d 8 00 00 1F F7 FC 00 00 F0
 21.908774 1  76              Rx   d 8 00 00 1F F7 FC 00 00 F0
 21.928626 1  76              Rx   d 8 00 00 1F F7 FC 00 00 F0
 21.938987 1  3CA             Rx   d 8 04 00 00 00 00 00 00 00
 21.960936 1  167             Rx   d 8 00 FF FF 00 00 02 0F 00
 21.973820 1  421             Rx   d 8 04 00 11 00 00 00 FF 00
 21.980962 1  167             Rx   d 8 00 FF FF 00 00 02 0F 00
 21.999156 1  3CA             Rx   d 8 04 00 00 00 00 00 00 00
 22.021087 1  167             Rx   d 8 00 FF FF 00 00 02 0F 00
 22.041113 1  167             Rx   d 8 00 FF FF 00 00 02 0F 00
 22.049027 1  48              Rx   d 8 00 00 00 00 07 00 E0 00
 22.068962 1  76              Rx   d 8 00 00 1F F7 FC 00 00 F0
 22.081113 1  167             Rx   d 8 00 FF FF 00 00 02 0F 00
 22.099137 1  412             Rx   d 8 7D 00 80 80 00 00 00 00
 22.109161 1  76              Rx   d 8 00 00 1F F7 FC 00 00 F0
 22.128772 1  76              Rx   d 8 00 00 1F F7 FC 00 00 F0
 22.140947 1  167             Rx   d 8 00 FF FF 00 00 02 0F 00
 22.152265 1  204             Rx   d 8 00 00 FF 00 00 00 00 00
 22.161193 1  167             Rx   d 8 00 FF FF 00 00 02 0F 00
 22.178969 1  3CA             Rx   d 8 04 00 00 00 00 00 00 00
 22.189283 1  76              Rx   d 8 00 00 1F F7 FC 00 00 F0
 22.221243 1  167             Rx   d 8 00 FF FF 00 00 02 0F 00
 22.221319 1  171             Rx   d 8 F0 E0 00 00 00 00 00 00
 22.229273 1  76              Rx   d 8 00 00 1F F7 FC 00 00 F0
 22.249246 1  48              Rx   d 8 00 00 00 00 07 00 E0 00
 22.269030 1  76              Rx   d 8 00 00 1F F7 FC 00 00 F0
 22.280937 1  167             Rx   d 8 00 FF FF 00 00 02 0F 00
 22.299393 1  3CA             Rx   d 8 04 00 00 00 00 00 00 00
 22.311401 1  167             Rx   d 8 00 FF FF 00 00 02 0F 00
 22.328912 1  76              Rx   d 8 00 00 1F F7 FC 00 00 F0
 22.348499 1  59E             Rx   d 8 9E 00 FF FF FF FF FF FF
 22.369010 1  76              Rx   d 8 00 00 1F F7 FC 00 00 F0
 22.380934 1  167             Rx   d 8 00 FF FF 00 00 02 0F 00
 22.399204 1  412             Rx   d 8 7D 00 80 80 00 00 00 00
 22.408805 1  76              Rx   d 8 00 00 1F F7 FC 00 00 F0
 22.418994 1  3CA             Rx   d 8 04 00 00 00 00 00 00 00
 22.421204 1  167             Rx   d 8 00 FF FF 00 00 02 0F 00
 22.421398 1  204             Rx   d 8 00 00 FF 00 00 00 00 00
 22.429015 1  76              Rx   d 8 00 00 1F F7 FC 00 00 F0
 22.429055 1  20A             Rx   d 8 F1 F8 00 00 00 00 4E 20
 22.431580 1  167             Rx   d 8 00 FF FF 00 00 02 0F 00
 22.431638 1  171             Rx   d 8 F0 E0 00 00 00 00 00 00
 22.432203 1  202             Rx   d 8 00 CC 00 00 00 00 00 00
 22.432729 1  204             Rx   d 8 00 00 FF 00 00 00 00 00
 22.441274 1  167             Rx   d 8 00 FF FF 00 00 02 0F 00
 22.441308 1  204             Rx   d 8 00 00 FF 00 00 00 00 00
 22.441483 1  3B2             Rx   d 8 44 8C C0 0C E6 00 03 3E
 22.441658 1  3C3             Rx   d 8 5C 80 10 C1 01 00 01 00
 22.448840 1  48              Rx   d 8 00 00 00 00 07 00 E0 00
 22.448993 1  76              Rx   d 8 00 00 1F F7 FC 00 00 F0
 22.460950 1  167             Rx   d 8 00 FF FF 00 00 02 0F 00
 22.479075 1  3CA             Rx   d 8 04 00 00 00 00 00 00 00
 22.491598 1  171             Rx   d 8 F0 E0 00 00 00 00 00 00
 22.509097 1  76              Rx   d 8 00 00 1F F7 FC 00 00 F0
 22.509154 1  20A             Rx   d 8 F1 F8 00 00 00 00 4E 20
 22.520957 1  167             Rx   d 8 00 FF FF 00 00 02 0F 00
 22.528912 1  76              Rx   d 8 00 00 1F F7 FC 00 00 F0
 22.532102 1  204             Rx   d 8 00 00 FF 00 00 00 00 00
 22.539144 1  3CA             Rx   d 8 04 00 00 00 00 00 00 00
 22.541306 1  167             Rx   d 8 00 FF FF 00 00 02 0F 00
 22.549037 1  48              Rx   d 8 00 00 00 00 07 00 E0 00
 22.560957 1  167             Rx   d 8 00 FF FF 00 00 02 0F 00
 22.569114 1  76              Rx   d 8 00 00 1F F7 FC 00 00 F0
 22.581263 1  167             Rx   d 8 00 FF FF 00 00 02 0F 00
 22.599097 1  3CA             Rx   d 8 04 00 00 00 00 00 00 00
 22.611439 1  167             Rx   d 8 00 FF FF 00 00 02 0F 00
 22.620932 1  167             Rx   d 8 00 FF FF 00 00 02 0F 00
 22.631370 1  167             Rx   d 8 00 FF FF 00 00 02 0F 00
 22.641145 1  167             Rx   d 8 00 FF FF 00 00 02 0F 00
 22.649237 1  48              Rx   d 8 00 00 00 00 07 00 E0 00
 22.659441 1  3CA             Rx   d 8 04 00 00 00 00 00 00 00
 22.671263 1  156             Rx   d 8 BA 00 00 00 00 00 00 00
 22.689215 1  76              Rx   d 8 00 00 1F F7 FC 00 00 F0
 22.701087 1  171             Rx   d 8 F0 E0 00 00 00 00 00 00
 22.708968 1  76              Rx   d 8 00 00 1F F7 FC 00 00 F0
 22.721090 1  167             Rx   d 8 00 FF FF 00 00 02 0F 00
 22.736274 1  40A             Rx   d 8 C1 01 47 41 48 4A 48 45
 22.741218 1  167             Rx   d 8 00 FF FF 00 00 02 0F 00
 22.748995 1  48              Rx   d 8 00 00 00 00 07 00 E0 00
 22.760913 1  167             Rx   d 8 00 FF FF 00 00 02 0F 00
 22.771825 1  167             Rx   d 8 00 FF FF 00 00 02 0F 00
 22.779266 1  3CA             Rx   d 8 04 00 00 00 00 00 00 00
 22.789548 1  76              Rx   d 8 00 00 1F F7 FC 00 00 F0
 22.799116 1  412             Rx   d 8 7D 00 80 80 00 00 00 00
 22.811492 1  167             Rx   d 8 00 FF FF 00 00 02 0F 00
 22.821261 1  167             Rx   d 8 00 FF FF 00 00 02 0F 00
 22.831351 1  167             Rx   d 8 00 FF FF 00 00 02 0F 00
 22.849146 1  48              Rx   d 8 00 00 00 00 07 00 E0 00
 22.860942 1  167             Rx   d 8 00 FF FF 00 00 02 0F 00
 22.861086 1  204             Rx   d 8 00 00 FF 00 00 00 00 00
 22.869411 1  3CA             Rx   d 8 04 00 00 00 00 00 00 00
 22.881305 1  171             Rx   d 8 F0 E0 00 00 00 00 00 00
 22.889138 1  76              Rx   d 8 00 00 1F F7 FC 00 00 F0
 22.900920 1  167             Rx   d 8 00 FF FF 00 00 02 0F 00
 22.921391 1  167             Rx   d 8 00 FF FF 00 00 02 0F 00
 22.949280 1  48              Rx   d 8 00 00 00 00 07 00 E0 00
 22.960996 1  167             Rx   d 8 00 FF FF 00 00 02 0F 00
 22.972795 1  179             Rx   d 8 00 00 08 00 22 FF 00 00
 22.989188 1  76              Rx   d 8 00 00 1F F7 FC 00 00 F0
 23.019336 1  3CA             Rx   d 8 04 00 00 00 00 00 00 00
 23.040920 1  167             Rx   d 8 00 FF FF 00 00 02 0F 00
 23.051521 1  167             Rx   d 8 00 FF FF 00 00 02 0F 00
 23.069054 1  76              Rx   d 8 00 00 1F F7 FC 00 00 F0
 23.089262 1  76              Rx   d 8 00 00 1F F7 FC 00 00 F0
 23.109087 1  76              Rx   d 8 00 00 1F F7 FC 00 00 F0
 23.139259 1  3CA             Rx   d 8 04 00 00 00 00 00 00 00
 23.151393 1  167             Rx   d 8 00 FF FF 00 00 02 0F 00
 23.169432 1  76              Rx   d 8 00 00 1F F7 FC 00 00 F0
 23.189243 1  76              Rx   d 8 00 00 1F F7 FC 00 00 F0
 23.199422 1  3CA             Rx   d 8 04 00 00 00 00 00 00 00
 23.220941 1  167             Rx   d 8 00 FF FF 00 00 02 0F 00
 23.231396 1  167             Rx   d 8 00 FF FF 00 00 02 0F 00
 23.249456 1  48              Rx   d 8 00 00 00 00 07 00 E0 00
 23.260942 1  167             Rx   d 8 00 FF FF 00 00 02 0F 00
 23.280912 1  167             Rx   d 8 00 FF FF 00 00 02 0F 00
 23.291440 1  167             Rx   d 8 00 FF FF 00 00 02 0F 00
 23.309206 1  76              Rx   d 8 00 00 1F F7 FC 00 00 F0
 23.321119 1  204             Rx   d 8 00 00 FF 00 00 00 00 00
 23.334546 1  331             Rx   d 8 C0 00 48 62 02 00 00 00
 23.352376 1  204             Rx   d 8 00 00 FF 00 00 00 00 00
 23.361075 1  167             Rx   d 8 00 FF FF 00 00 02 0F 00
 23.373114 1  202             Rx   d 8 00 CC 00 00 00 00 00 00
 23.389178 1  76              Rx   d 8 00 00 1F F7 FC 00 00 F0
 23.409485 1  76              Rx   d 8 00 00 1F F7 FC 00 00 F0
 23.420905 1  167             Rx   d 8 00 FF FF 00 00 02 0F 00
 23.439460 1  3CA             Rx   d 8 04 00 00 00 00 00 00 00
 23.460912 1  167             Rx   d 8 00 FF FF 00 00 02 0F 00
 23.474547 1  42D             Rx   d 8 00 03 FF 00 00 00 F0 00
 23.491805 1  202             Rx   d 8 00 CC 00 00 00 00 00 00
 23.509412 1  76              Rx   d 8 00 00 1F F7 FC 00 00 F0
 23.520968 1  167             Rx   d 8 00 FF FF 00 00 02 0F 00
 23.541052 1  167             Rx   d 8 00 FF FF 00 00 02 0F 00
 23.559629 1  3CA             Rx   d 8 04 00 00 00 00 00 00 00
 23.570316 1  331             Rx   d 8 C0 00 48 62 02 00 00 00
 23.589331 1  76              Rx   d 8 00 00 1F F7 FC 00 00 F0
 23.601009 1  167             Rx   d 8 00 FF FF 00 00 02 0F 00
 23.619476 1  3CA             Rx   d 8 04 00 00 00 00 00 00 00
 23.631363 1  167             Rx   d 8 00 FF FF 00 00 02 0F 00
 23.649526 1  48              Rx   d 8 00 00 00 00 07 00 E0 00
 23.669654 1  76              Rx   d 8 00 00 1F F7 FC 00 00 F0
 23.689356 1  76              Rx   d 8 00 00 1F F7 FC 00 00 F0
 23.709513 1  76              Rx   d 8 00 00 1F F7 FC 00 00 F0
 23.720899 1  167             Rx   d 8 00 FF FF 00 00 02 0F 00
 23.739533 1  3CA             Rx   d 8 04 00 00 00 00 00 00 00
 23.761135 1  167             Rx   d 8 00 FF FF 00 00 02 0F 00
 23.769629 1  76              Rx   d 8 00 00 1F F7 FC 00 00 F0
 23.781143 1  167             Rx   d 8 00 FF FF 00 00 02 0F 00
 23.799833 1  3CA             Rx   d 8 04 00 00 00 00 00 00 00
 23.811403 1  167             Rx   d 8 00 FF FF 00 00 02 0F 00
 23.829360 1  76              Rx   d 8 00 00 1F F7 FC 00 00 F0
 23.840987 1  167             Rx   d 8 00 FF FF 00 00 02 0F 00
 23.859707 1  3CA             Rx   d 8 04 00 00 00 00 00 00 00
 23.889589 1  76              Rx   d 8 00 00 1F F7 FC 00 00 F0
 23.900881 1  167             Rx   d 8 00 FF FF 00 00 02 0F 00
 23.915950 1  3B2             Rx   d 8 44 8C C0 0C E6 00 03 3E
 23.931557 1  171             Rx   d 8 F0 E0 00 00 00 00 00 00
 23.949498 1  48              Rx   d 8 00 00 00 00 07 00 E0 00
 23.969457 1  76              Rx   d 8 00 00 1F F7 FC 00 00 F0
 23.979568 1  3CA             Rx   d 8 04 00 00 00 00 00 00 00
 23.999639 1  412             Rx   d 8 7D 00 80 80 00 00 00 00
 24.009472 1  76              Rx   d 8 00 00 1F F7 FC 00 00 F0
 24.029619 1  76              Rx   d 8 00 00 1F F7 FC 00 00 F0
 24.039601 1  3CA             Rx   d 8 04 00 00 00 00 00 00 00
 24.052565 1  204             Rx   d 8 00 00 FF 00 00 00 00 00
 24.071084 1  156             Rx   d 8 BA 00 00 00 00 00 00 00
 24.089601 1  76              Rx   d 8 00 00 1F F7 FC 00 00 F0
 24.109469 1  76              Rx   d 8 00 00 1F F7 FC 00 00 F0
 24.129632 1  76              Rx   d 8 00 00 1F F7 FC 00 00 F0
 24.140952 1  167             Rx   d 8 00 FF FF 00 00 02 0F 00
 24.160024 1  3CA             Rx   d 8 04 00 00 00 00 00 00 00
 24.169535 1  76              Rx   d 8 00 00 1F F7 FC 00 00 F0
 24.189720 1  76              Rx   d 8 00 00 1F F7 FC 00 00 F0
 24.201484 1  204             Rx   d 8 00 00 FF 00 00 00 00 00
 24.219666 1  3CA             Rx   d 8 04 00 00 00 00 00 00 00
