date Sun Mar 16 11:20:12.652 AM 2025
base hex  timestamps absolute
internal events logged
Begin Triggerblock Sun Mar 16 11:20:53.120 AM 2025
 0.000000 Start of measurement
 0.000000 1  7E0             Rx   d 8 03 22 F4 0C 00 00 00 00
 0.009238 1  59E             Rx   d 8 9E 00 FF FF FF FF FF FF
 0.014545 1  7E              Rx   d 8 FF FF 3E 80 00 04 00 00
 0.014705 1  91              Rx   d 8 FF FE FF FE 00 00 50 00
 0.014945 1  92              Rx   d 8 00 00 00 00 20 00 00 00
 0.015192 1  23A             Rx   d 8 FF FF FF FF F0 00 00 00
 0.015435 1  2F1             Rx   d 8 00 00 00 00 00 00 00 00
 0.015699 1  386             Rx   d 8 00 00 00 00 00 00 00 00
 0.015939 1  430             Rx   d 8 00 00 00 00 FE 00 00 00
 0.016182 1  434             Rx   d 8 00 00 00 00 0F FF 00 10
 0.016430 1  435             Rx   d 8 00 00 00 00 00 00 00 00
 0.016678 1  437             Rx   d 8 00 00 00 00 00 00 00 00
 0.016931 1  438             Rx   d 8 00 00 00 00 00 00 00 00
 0.017178 1  439             Rx   d 8 00 00 04 00 04 00 00 00
 0.017427 1  43A             Rx   d 8 00 00 00 00 00 00 00 00
 0.114650 1  23A             Rx   d 8 FF FF FF FF F0 00 00 00
 0.114845 1  430             Rx   d 8 00 00 00 00 FE 00 00 00
 0.115026 1  434             Rx   d 8 00 00 00 00 0F FF 00 10
 0.115265 1  435             Rx   d 8 00 00 00 00 00 00 00 00
 0.214693 1  23A             Rx   d 8 FF FF FF FF F0 00 00 00
 0.214857 1  430             Rx   d 8 00 00 00 00 FE 00 00 00
 0.215058 1  434             Rx   d 8 00 00 00 00 0F FF 00 10
 0.215302 1  435             Rx   d 8 00 00 00 00 00 00 00 00
 0.314781 1  23A             Rx   d 8 FF FF FF FF F0 00 00 00
 0.314965 1  430             Rx   d 8 00 00 00 00 FE 00 00 00
 0.315136 1  434             Rx   d 8 00 00 00 00 0F FF 00 10
 0.315399 1  435             Rx   d 8 00 00 00 00 00 00 00 00
 0.414794 1  23A             Rx   d 8 FF FF FF FF F0 00 00 00
 0.414978 1  430             Rx   d 8 00 00 00 00 FE 00 00 00
 0.415155 1  434             Rx   d 8 00 00 00 00 0F FF 00 10
 0.415398 1  435             Rx   d 8 00 00 00 00 00 00 00 00
 0.514812 1  23A             Rx   d 8 FF FF FF FF F0 00 00 00
 0.514982 1  430             Rx   d 8 00 00 00 00 FE 00 00 00
 0.515207 1  434             Rx   d 8 00 00 00 00 0F FF 00 10
 0.515447 1  435             Rx   d 8 00 00 00 00 00 00 00 00
 0.614896 1  23A             Rx   d 8 FF FF FF FF F0 00 00 00
 0.615077 1  430             Rx   d 8 00 00 00 00 FE 00 00 00
 0.615258 1  434             Rx   d 8 00 00 00 00 0F FF 00 10
 0.615493 1  435             Rx   d 8 00 00 00 00 00 00 00 00
 0.627164 1  7E0             Rx   d 8 03 22 F4 0C 00 00 00 00
 0.714961 1  23A             Rx   d 8 FF FF FF FF F0 00 00 00
 0.715135 1  430             Rx   d 8 00 00 00 00 FE 00 00 00
 0.715306 1  434             Rx   d 8 00 00 00 00 0F FF 00 10
 0.715544 1  435             Rx   d 8 00 00 00 00 00 00 00 00
 0.815290 1  23A             Rx   d 8 FF FF FF FF F0 00 00 00
 0.815371 1  430             Rx   d 8 00 00 00 00 FE 00 00 00
 0.815780 1  434             Rx   d 8 00 00 00 00 0F FF 00 10
 0.815819 1  435             Rx   d 8 00 00 00 00 00 00 00 00
 0.915053 1  23A             Rx   d 8 FF FF FF FF F0 00 00 00
 0.915229 1  430             Rx   d 8 00 00 00 00 FE 00 00 00
 0.915407 1  434             Rx   d 8 00 00 00 00 0F FF 00 10
 0.915650 1  435             Rx   d 8 00 00 00 00 00 00 00 00
 1.004905 1  59E             Rx   d 8 9E 00 FF FF FF FF FF FF
 1.015142 1  23A             Rx   d 8 FF FF FF FF F0 00 00 00
 1.015291 1  2F1             Rx   d 8 00 00 00 00 00 00 00 00
 1.015483 1  386             Rx   d 8 00 00 00 00 00 00 00 00
 1.015728 1  430             Rx   d 8 00 00 00 00 FE 00 00 00
 1.015980 1  434             Rx   d 8 00 00 00 00 0F FF 00 10
 1.016225 1  435             Rx   d 8 00 00 00 00 00 00 00 00
 1.016470 1  437             Rx   d 8 00 00 00 00 00 00 00 00
 1.016720 1  438             Rx   d 8 00 00 00 00 00 00 00 00
 1.016971 1  439             Rx   d 8 00 00 04 00 04 00 00 00
 1.017220 1  43A             Rx   d 8 00 00 00 00 00 00 00 00
 1.115183 1  23A             Rx   d 8 FF FF FF FF F0 00 00 00
 1.115552 1  430             Rx   d 8 00 00 00 00 FE 00 00 00
 1.115572 1  434             Rx   d 8 00 00 00 00 0F FF 00 10
 1.115903 1  435             Rx   d 8 00 00 00 00 00 00 00 00
 1.215218 1  23A             Rx   d 8 FF FF FF FF F0 00 00 00
 1.215393 1  430             Rx   d 8 00 00 00 00 FE 00 00 00
 1.215569 1  434             Rx   d 8 00 00 00 00 0F FF 00 10
 1.215834 1  435             Rx   d 8 00 00 00 00 00 00 00 00
 1.254533 1  7E0             Rx   d 8 03 22 F4 0C 00 00 00 00
 1.315741 1  23A             Rx   d 8 FF FF FF FF F0 00 00 00
 1.315809 1  430             Rx   d 8 00 00 00 00 FE 00 00 00
 1.315821 1  434             Rx   d 8 00 00 00 00 0F FF 00 10
 1.316322 1  435             Rx   d 8 00 00 00 00 00 00 00 00
 1.415482 1  23A             Rx   d 8 FF FF FF FF F0 00 00 00
 1.415528 1  430             Rx   d 8 00 00 00 00 FE 00 00 00
 1.415787 1  434             Rx   d 8 00 00 00 00 0F FF 00 10
 1.415987 1  435             Rx   d 8 00 00 00 00 00 00 00 00
 1.515496 1  23A             Rx   d 8 FF FF FF FF F0 00 00 00
 1.515549 1  430             Rx   d 8 00 00 00 00 FE 00 00 00
 1.515831 1  434             Rx   d 8 00 00 00 00 0F FF 00 10
 1.516040 1  435             Rx   d 8 00 00 00 00 00 00 00 00
 1.615407 1  23A             Rx   d 8 FF FF FF FF F0 00 00 00
 1.615593 1  430             Rx   d 8 00 00 00 00 FE 00 00 00
 1.615787 1  434             Rx   d 8 00 00 00 00 0F FF 00 10
 1.616026 1  435             Rx   d 8 00 00 00 00 00 00 00 00
 1.715469 1  23A             Rx   d 8 FF FF FF FF F0 00 00 00
 1.715657 1  430             Rx   d 8 00 00 00 00 FE 00 00 00
 1.715820 1  434             Rx   d 8 00 00 00 00 0F FF 00 10
 1.716063 1  435             Rx   d 8 00 00 00 00 00 00 00 00
 1.815481 1  23A             Rx   d 8 FF FF FF FF F0 00 00 00
 1.815644 1  430             Rx   d 8 00 00 00 00 FE 00 00 00
 1.815867 1  434             Rx   d 8 00 00 00 00 0F FF 00 10
 1.816108 1  435             Rx   d 8 00 00 00 00 00 00 00 00
 1.882515 1  7E0             Rx   d 8 03 22 F4 0C 00 00 00 00
 1.915574 1  23A             Rx   d 8 FF FF FF FF F0 00 00 00
 1.915745 1  430             Rx   d 8 00 00 00 00 FE 00 00 00
 1.915915 1  434             Rx   d 8 00 00 00 00 0F FF 00 10
 1.916159 1  435             Rx   d 8 00 00 00 00 00 00 00 00
 2.005432 1  59E             Rx   d 8 9E 00 FF FF FF FF FF FF
 2.015895 1  23A             Rx   d 8 FF FF FF FF F0 00 00 00
 2.015957 1  2F1             Rx   d 8 00 00 00 00 00 00 00 00
 2.016355 1  386             Rx   d 8 00 00 00 00 00 00 00 00
 2.016389 1  430             Rx   d 8 00 00 00 00 FE 00 00 00
 2.016726 1  434             Rx   d 8 00 00 00 00 0F FF 00 10
 2.016742 1  435             Rx   d 8 00 00 00 00 00 00 00 00
 2.017030 1  437             Rx   d 8 00 00 00 00 00 00 00 00
 2.017262 1  438             Rx   d 8 00 00 00 00 00 00 00 00
 2.017603 1  439             Rx   d 8 00 00 04 00 04 00 00 00
 2.017849 1  43A             Rx   d 8 00 00 00 00 00 00 00 00
 2.115687 1  23A             Rx   d 8 FF FF FF FF F0 00 00 00
 2.115877 1  430             Rx   d 8 00 00 00 00 FE 00 00 00
 2.116024 1  434             Rx   d 8 00 00 00 00 0F FF 00 10
 2.116293 1  435             Rx   d 8 00 00 00 00 00 00 00 00
 2.216047 1  23A             Rx   d 8 FF FF FF FF F0 00 00 00
 2.216134 1  430             Rx   d 8 00 00 00 00 FE 00 00 00
 2.216638 1  434             Rx   d 8 00 00 00 00 0F FF 00 10
 2.216685 1  435             Rx   d 8 00 00 00 00 00 00 00 00
 2.316015 1  23A             Rx   d 8 FF FF FF FF F0 00 00 00
 2.316060 1  430             Rx   d 8 00 00 00 00 FE 00 00 00
 2.316284 1  434             Rx   d 8 00 00 00 00 0F FF 00 10
 2.316493 1  435             Rx   d 8 00 00 00 00 00 00 00 00
 2.416014 1  23A             Rx   d 8 FF FF FF FF F0 00 00 00
 2.416074 1  430             Rx   d 8 00 00 00 00 FE 00 00 00
 2.416333 1  434             Rx   d 8 00 00 00 00 0F FF 00 10
 2.416507 1  435             Rx   d 8 00 00 00 00 00 00 00 00
 2.515866 1  23A             Rx   d 8 FF FF FF FF F0 00 00 00
 2.516049 1  430             Rx   d 8 00 00 00 00 FE 00 00 00
 2.516232 1  434             Rx   d 8 00 00 00 00 0F FF 00 10
 2.516473 1  435             Rx   d 8 00 00 00 00 00 00 00 00
 2.535512 1  7E0             Rx   d 8 03 22 F4 0C 00 00 00 00
 2.615929 1  23A             Rx   d 8 FF FF FF FF F0 00 00 00
 2.616119 1  430             Rx   d 8 00 00 00 00 FE 00 00 00
 2.616275 1  434             Rx   d 8 00 00 00 00 0F FF 00 10
 2.616517 1  435             Rx   d 8 00 00 00 00 00 00 00 00
 2.715938 1  23A             Rx   d 8 FF FF FF FF F0 00 00 00
 2.716108 1  430             Rx   d 8 00 00 00 00 FE 00 00 00
 2.716320 1  434             Rx   d 8 00 00 00 00 0F FF 00 10
 2.716566 1  435             Rx   d 8 00 00 00 00 00 00 00 00
 2.816032 1  23A             Rx   d 8 FF FF FF FF F0 00 00 00
 2.816207 1  430             Rx   d 8 00 00 00 00 FE 00 00 00
 2.816375 1  434             Rx   d 8 00 00 00 00 0F FF 00 10
 2.816616 1  435             Rx   d 8 00 00 00 00 00 00 00 00
 2.916097 1  23A             Rx   d 8 FF FF FF FF F0 00 00 00
 2.916269 1  430             Rx   d 8 00 00 00 00 FE 00 00 00
 2.916457 1  434             Rx   d 8 00 00 00 00 0F FF 00 10
 2.916698 1  435             Rx   d 8 00 00 00 00 00 00 00 00
 3.005921 1  59E             Rx   d 8 9E 00 FF FF FF FF FF FF
 3.016108 1  23A             Rx   d 8 FF FF FF FF F0 00 00 00
 3.016279 1  2F1             Rx   d 8 00 00 00 00 00 00 00 00
 3.016468 1  386             Rx   d 8 00 00 00 00 00 00 00 00
 3.016719 1  430             Rx   d 8 00 00 00 00 FE 00 00 00
 3.016998 1  434             Rx   d 8 00 00 00 00 0F FF 00 10
 3.017241 1  435             Rx   d 8 00 00 00 00 00 00 00 00
 3.017492 1  437             Rx   d 8 00 00 00 00 00 00 00 00
 3.017731 1  438             Rx   d 8 00 00 00 00 00 00 00 00
 3.017975 1  439             Rx   d 8 00 00 04 00 04 00 00 00
 3.018225 1  43A             Rx   d 8 00 00 00 00 00 00 00 00
 3.116275 1  23A             Rx   d 8 FF FF FF FF F0 00 00 00
 3.116305 1  430             Rx   d 8 00 00 00 00 FE 00 00 00
 3.116609 1  434             Rx   d 8 00 00 00 00 0F FF 00 10
 3.116898 1  435             Rx   d 8 00 00 00 00 00 00 00 00
 3.162398 1  7E0             Rx   d 8 03 22 F4 0C 00 00 00 00
 3.216327 1  23A             Rx   d 8 FF FF FF FF F0 00 00 00
 3.216361 1  430             Rx   d 8 00 00 00 00 FE 00 00 00
 3.216637 1  434             Rx   d 8 00 00 00 00 0F FF 00 10
 3.216923 1  435             Rx   d 8 00 00 00 00 00 00 00 00
 3.316409 1  23A             Rx   d 8 FF FF FF FF F0 00 00 00
 3.316451 1  430             Rx   d 8 00 00 00 00 FE 00 00 00
 3.316719 1  434             Rx   d 8 00 00 00 00 0F FF 00 10
 3.316944 1  435             Rx   d 8 00 00 00 00 00 00 00 00
 3.416488 1  23A             Rx   d 8 FF FF FF FF F0 00 00 00
 3.416560 1  430             Rx   d 8 00 00 00 00 FE 00 00 00
 3.416964 1  434             Rx   d 8 00 00 00 00 0F FF 00 10
 3.416978 1  435             Rx   d 8 00 00 00 00 00 00 00 00
 3.516373 1  23A             Rx   d 8 FF FF FF FF F0 00 00 00
 3.516562 1  430             Rx   d 8 00 00 00 00 FE 00 00 00
 3.516744 1  434             Rx   d 8 00 00 00 00 0F FF 00 10
 3.516991 1  435             Rx   d 8 00 00 00 00 00 00 00 00
 3.616488 1  23A             Rx   d 8 FF FF FF FF F0 00 00 00
 3.616670 1  430             Rx   d 8 00 00 00 00 FE 00 00 00
 3.616851 1  434             Rx   d 8 00 00 00 00 0F FF 00 10
 3.617084 1  435             Rx   d 8 00 00 00 00 00 00 00 00
 3.716490 1  23A             Rx   d 8 FF FF FF FF F0 00 00 00
 3.716679 1  430             Rx   d 8 00 00 00 00 FE 00 00 00
 3.716838 1  434             Rx   d 8 00 00 00 00 0F FF 00 10
 3.717083 1  435             Rx   d 8 00 00 00 00 00 00 00 00
 3.791992 1  7E0             Rx   d 8 03 22 F4 0C 00 00 00 00
 3.816496 1  23A             Rx   d 8 FF FF FF FF F0 00 00 00
 3.816655 1  430             Rx   d 8 00 00 00 00 FE 00 00 00
 3.816907 1  434             Rx   d 8 00 00 00 00 0F FF 00 10
 3.817160 1  435             Rx   d 8 00 00 00 00 00 00 00 00
 3.916569 1  23A             Rx   d 8 FF FF FF FF F0 00 00 00
 3.916744 1  430             Rx   d 8 00 00 00 00 FE 00 00 00
 3.916941 1  434             Rx   d 8 00 00 00 00 0F FF 00 10
 3.917180 1  435             Rx   d 8 00 00 00 00 00 00 00 00
 4.006424 1  59E             Rx   d 8 9E 00 FF FF FF FF FF FF
 4.016623 1  23A             Rx   d 8 FF FF FF FF F0 00 00 00
 4.016797 1  2F1             Rx   d 8 00 00 00 00 00 00 00 00
 4.016985 1  386             Rx   d 8 00 00 00 00 00 00 00 00
 4.017238 1  430             Rx   d 8 00 00 00 00 FE 00 00 00
 4.017504 1  434             Rx   d 8 00 00 00 00 0F FF 00 10
 4.017749 1  435             Rx   d 8 00 00 00 00 00 00 00 00
 4.017993 1  437             Rx   d 8 00 00 00 00 00 00 00 00
 4.018243 1  438             Rx   d 8 00 00 00 00 00 00 00 00
 4.018489 1  439             Rx   d 8 00 00 04 00 04 00 00 00
 4.018750 1  43A             Rx   d 8 00 00 00 00 00 00 00 00
 4.116974 1  23A             Rx   d 8 FF FF FF FF F0 00 00 00
 4.117033 1  430             Rx   d 8 00 00 00 00 FE 00 00 00
 4.117379 1  434             Rx   d 8 00 00 00 00 0F FF 00 10
 4.117395 1  435             Rx   d 8 00 00 00 00 00 00 00 00
 4.216757 1  23A             Rx   d 8 FF FF FF FF F0 00 00 00
 4.216949 1  430             Rx   d 8 00 00 00 00 FE 00 00 00
 4.217121 1  434             Rx   d 8 00 00 00 00 0F FF 00 10
 4.217361 1  435             Rx   d 8 00 00 00 00 00 00 00 00
 4.317302 1  23A             Rx   d 8 FF FF FF FF F0 00 00 00
 4.317375 1  430             Rx   d 8 00 00 00 00 FE 00 00 00
 4.317387 1  434             Rx   d 8 00 00 00 00 0F FF 00 10
 4.317751 1  435             Rx   d 8 00 00 00 00 00 00 00 00
 4.417040 1  23A             Rx   d 8 FF FF FF FF F0 00 00 00
 4.417113 1  430             Rx   d 8 00 00 00 00 FE 00 00 00
 4.417452 1  434             Rx   d 8 00 00 00 00 0F FF 00 10
 4.417468 1  435             Rx   d 8 00 00 00 00 00 00 00 00
 4.421391 1  7E0             Rx   d 8 03 22 F4 0C 00 00 00 00
 4.517111 1  23A             Rx   d 8 FF FF FF FF F0 00 00 00
 4.517184 1  430             Rx   d 8 00 00 00 00 FE 00 00 00
 4.517537 1  434             Rx   d 8 00 00 00 00 0F FF 00 10
 4.517552 1  435             Rx   d 8 00 00 00 00 00 00 00 00
 4.616948 1  23A             Rx   d 8 FF FF FF FF F0 00 00 00
 4.617136 1  430             Rx   d 8 00 00 00 00 FE 00 00 00
 4.617300 1  434             Rx   d 8 00 00 00 00 0F FF 00 10
 4.617548 1  435             Rx   d 8 00 00 00 00 00 00 00 00
 4.717013 1  23A             Rx   d 8 FF FF FF FF F0 00 00 00
 4.717197 1  430             Rx   d 8 00 00 00 00 FE 00 00 00
 4.717353 1  434             Rx   d 8 00 00 00 00 0F FF 00 10
 4.717590 1  435             Rx   d 8 00 00 00 00 00 00 00 00
 4.817053 1  23A             Rx   d 8 FF FF FF FF F0 00 00 00
 4.817241 1  430             Rx   d 8 00 00 00 00 FE 00 00 00
 4.817404 1  434             Rx   d 8 00 00 00 00 0F FF 00 10
 4.817671 1  435             Rx   d 8 00 00 00 00 00 00 00 00
 4.917098 1  23A             Rx   d 8 FF FF FF FF F0 00 00 00
 4.917265 1  430             Rx   d 8 00 00 00 00 FE 00 00 00
 4.917480 1  434             Rx   d 8 00 00 00 00 0F FF 00 10
 4.917719 1  435             Rx   d 8 00 00 00 00 00 00 00 00
 5.006952 1  59E             Rx   d 8 9E 00 FF FF FF FF FF FF
 5.017151 1  23A             Rx   d 8 FF FF FF FF F0 00 00 00
 5.017329 1  2F1             Rx   d 8 00 00 00 00 00 00 00 00
 5.017515 1  386             Rx   d 8 00 00 00 00 00 00 00 00
 5.017768 1  430             Rx   d 8 00 00 00 00 FE 00 00 00
 5.018033 1  434             Rx   d 8 00 00 00 00 0F FF 00 10
 5.018278 1  435             Rx   d 8 00 00 00 00 00 00 00 00
 5.018530 1  437             Rx   d 8 00 00 00 00 00 00 00 00
 5.018780 1  438             Rx   d 8 00 00 00 00 00 00 00 00
 5.019025 1  439             Rx   d 8 00 00 04 00 04 00 00 00
 5.019286 1  43A             Rx   d 8 00 00 00 00 00 00 00 00
 5.048421 1  7E0             Rx   d 8 03 22 F4 0C 00 00 00 00
 5.117475 1  23A             Rx   d 8 FF FF FF FF F0 00 00 00
 5.117524 1  430             Rx   d 8 00 00 00 00 FE 00 00 00
 5.117925 1  434             Rx   d 8 00 00 00 00 0F FF 00 10
 5.117948 1  435             Rx   d 8 00 00 00 00 00 00 00 00
 5.217394 1  23A             Rx   d 8 FF FF FF FF F0 00 00 00
 5.217433 1  430             Rx   d 8 00 00 00 00 FE 00 00 00
 5.217631 1  434             Rx   d 8 00 00 00 00 0F FF 00 10
 5.217869 1  435             Rx   d 8 00 00 00 00 00 00 00 00
 5.317529 1  23A             Rx   d 8 FF FF FF FF F0 00 00 00
 5.317572 1  430             Rx   d 8 00 00 00 00 FE 00 00 00
 5.317790 1  434             Rx   d 8 00 00 00 00 0F FF 00 10
 5.317955 1  435             Rx   d 8 00 00 00 00 00 00 00 00
 5.417493 1  23A             Rx   d 8 FF FF FF FF F0 00 00 00
 5.417540 1  430             Rx   d 8 00 00 00 00 FE 00 00 00
 5.417789 1  434             Rx   d 8 00 00 00 00 0F FF 00 10
 5.418013 1  435             Rx   d 8 00 00 00 00 00 00 00 00
 5.517422 1  23A             Rx   d 8 FF FF FF FF F0 00 00 00
 5.517602 1  430             Rx   d 8 00 00 00 00 FE 00 00 00
 5.517770 1  434             Rx   d 8 00 00 00 00 0F FF 00 10
 5.518015 1  435             Rx   d 8 00 00 00 00 00 00 00 00
 5.617421 1  23A             Rx   d 8 FF FF FF FF F0 00 00 00
 5.617583 1  430             Rx   d 8 00 00 00 00 FE 00 00 00
 5.617807 1  434             Rx   d 8 00 00 00 00 0F FF 00 10
 5.618052 1  435             Rx   d 8 00 00 00 00 00 00 00 00
 5.678324 1  7E0             Rx   d 8 03 22 F4 0C 00 00 00 00
 5.717543 1  23A             Rx   d 8 FF FF FF FF F0 00 00 00
 5.717704 1  430             Rx   d 8 00 00 00 00 FE 00 00 00
 5.717879 1  434             Rx   d 8 00 00 00 00 0F FF 00 10
 5.718119 1  435             Rx   d 8 00 00 00 00 00 00 00 00
 5.817773 1  23A             Rx   d 8 FF FF FF FF F0 00 00 00
 5.817862 1  430             Rx   d 8 00 00 00 00 FE 00 00 00
 5.818239 1  434             Rx   d 8 00 00 00 00 0F FF 00 10
 5.818256 1  435             Rx   d 8 00 00 00 00 00 00 00 00
 5.917593 1  23A             Rx   d 8 FF FF FF FF F0 00 00 00
 5.917757 1  430             Rx   d 8 00 00 00 00 FE 00 00 00
 5.917962 1  434             Rx   d 8 00 00 00 00 0F FF 00 10
 5.918204 1  435             Rx   d 8 00 00 00 00 00 00 00 00
 6.017655 1  23A             Rx   d 8 FF FF FF FF F0 00 00 00
 6.017815 1  2F1             Rx   d 8 00 00 00 00 00 00 00 00
 6.018010 1  386             Rx   d 8 00 00 00 00 00 00 00 00
 6.018250 1  430             Rx   d 8 00 00 00 00 FE 00 00 00
 6.018497 1  434             Rx   d 8 00 00 00 00 0F FF 00 10
 6.018748 1  435             Rx   d 8 00 00 00 00 00 00 00 00
 6.018993 1  437             Rx   d 8 00 00 00 00 00 00 00 00
 6.019243 1  438             Rx   d 8 00 00 00 00 00 00 00 00
 6.019491 1  439             Rx   d 8 00 00 04 00 04 00 00 00
 6.019743 1  43A             Rx   d 8 00 00 00 00 00 00 00 00
 6.117986 1  23A             Rx   d 8 FF FF FF FF F0 00 00 00
 6.118040 1  430             Rx   d 8 00 00 00 00 FE 00 00 00
 6.118445 1  434             Rx   d 8 00 00 00 00 0F FF 00 10
 6.118463 1  435             Rx   d 8 00 00 00 00 00 00 00 00
 6.218072 1  23A             Rx   d 8 FF FF FF FF F0 00 00 00
 6.218112 1  430             Rx   d 8 00 00 00 00 FE 00 00 00
 6.218524 1  434             Rx   d 8 00 00 00 00 0F FF 00 10
 6.218547 1  435             Rx   d 8 00 00 00 00 00 00 00 00
 6.304796 1  7E0             Rx   d 8 03 22 F4 0C 00 00 00 00
 6.318020 1  23A             Rx   d 8 FF FF FF FF F0 00 00 00
 6.318053 1  430             Rx   d 8 00 00 00 00 FE 00 00 00
 6.318204 1  434             Rx   d 8 00 00 00 00 0F FF 00 10
 6.318428 1  435             Rx   d 8 00 00 00 00 00 00 00 00
 6.418000 1  23A             Rx   d 8 FF FF FF FF F0 00 00 00
 6.418057 1  430             Rx   d 8 00 00 00 00 FE 00 00 00
 6.418314 1  434             Rx   d 8 00 00 00 00 0F FF 00 10
 6.418600 1  435             Rx   d 8 00 00 00 00 00 00 00 00
 6.518065 1  23A             Rx   d 8 FF FF FF FF F0 00 00 00
 6.518120 1  430             Rx   d 8 00 00 00 00 FE 00 00 00
 6.518424 1  434             Rx   d 8 00 00 00 00 0F FF 00 10
 6.518592 1  435             Rx   d 8 00 00 00 00 00 00 00 00
 6.617950 1  23A             Rx   d 8 FF FF FF FF F0 00 00 00
 6.618121 1  430             Rx   d 8 00 00 00 00 FE 00 00 00
 6.618327 1  434             Rx   d 8 00 00 00 00 0F FF 00 10
 6.618571 1  435             Rx   d 8 00 00 00 00 00 00 00 00
 6.717958 1  23A             Rx   d 8 FF FF FF FF F0 00 00 00
 6.718127 1  430             Rx   d 8 00 00 00 00 FE 00 00 00
 6.718363 1  434             Rx   d 8 00 00 00 00 0F FF 00 10
 6.718607 1  435             Rx   d 8 00 00 00 00 00 00 00 00
 6.818050 1  23A             Rx   d 8 FF FF FF FF F0 00 00 00
 6.818211 1  430             Rx   d 8 00 00 00 00 FE 00 00 00
 6.818431 1  434             Rx   d 8 00 00 00 00 0F FF 00 10
 6.818671 1  435             Rx   d 8 00 00 00 00 00 00 00 00
 6.918088 1  23A             Rx   d 8 FF FF FF FF F0 00 00 00
 6.918250 1  430             Rx   d 8 00 00 00 00 FE 00 00 00
 6.918467 1  434             Rx   d 8 00 00 00 00 0F FF 00 10
 6.918710 1  435             Rx   d 8 00 00 00 00 00 00 00 00
 6.933572 1  7E0             Rx   d 8 03 22 F4 0C 00 00 00 00
 7.018138 1  23A             Rx   d 8 FF FF FF FF F0 00 00 00
 7.018296 1  2F1             Rx   d 8 00 00 00 00 00 00 00 00
 7.018519 1  386             Rx   d 8 00 00 00 00 00 00 00 00
 7.018762 1  430             Rx   d 8 00 00 00 00 FE 00 00 00
 7.019010 1  434             Rx   d 8 00 00 00 00 0F FF 00 10
 7.019256 1  435             Rx   d 8 00 00 00 00 00 00 00 00
 7.019504 1  437             Rx   d 8 00 00 00 00 00 00 00 00
 7.019756 1  438             Rx   d 8 00 00 00 00 00 00 00 00
 7.020003 1  439             Rx   d 8 00 00 04 00 04 00 00 00
 7.020253 1  43A             Rx   d 8 00 00 00 00 00 00 00 00
 7.118458 1  23A             Rx   d 8 FF FF FF FF F0 00 00 00
 7.118499 1  430             Rx   d 8 00 00 00 00 FE 00 00 00
 7.118764 1  434             Rx   d 8 00 00 00 00 0F FF 00 10
 7.118989 1  435             Rx   d 8 00 00 00 00 00 00 00 00
 7.218509 1  23A             Rx   d 8 FF FF FF FF F0 00 00 00
 7.218560 1  430             Rx   d 8 00 00 00 00 FE 00 00 00
 7.219059 1  434             Rx   d 8 00 00 00 00 0F FF 00 10
 7.219091 1  435             Rx   d 8 00 00 00 00 00 00 00 00
 7.318415 1  23A             Rx   d 8 FF FF FF FF F0 00 00 00
 7.318462 1  430             Rx   d 8 00 00 00 00 FE 00 00 00
 7.318710 1  434             Rx   d 8 00 00 00 00 0F FF 00 10
 7.318941 1  435             Rx   d 8 00 00 00 00 00 00 00 00
 7.418514 1  23A             Rx   d 8 FF FF FF FF F0 00 00 00
 7.418564 1  430             Rx   d 8 00 00 00 00 FE 00 00 00
 7.418891 1  434             Rx   d 8 00 00 00 00 0F FF 00 10
 7.419249 1  435             Rx   d 8 00 00 00 00 00 00 00 00
 7.518624 1  23A             Rx   d 8 FF FF FF FF F0 00 00 00
 7.518682 1  430             Rx   d 8 00 00 00 00 FE 00 00 00
 7.518873 1  434             Rx   d 8 00 00 00 00 0F FF 00 10
 7.519076 1  435             Rx   d 8 00 00 00 00 00 00 00 00
 7.618438 1  23A             Rx   d 8 FF FF FF FF F0 00 00 00
 7.618635 1  430             Rx   d 8 00 00 00 00 FE 00 00 00
 7.618904 1  434             Rx   d 8 00 00 00 00 0F FF 00 10
 7.619135 1  435             Rx   d 8 00 00 00 00 00 00 00 00
 7.718472 1  23A             Rx   d 8 FF FF FF FF F0 00 00 00
 7.718640 1  430             Rx   d 8 00 00 00 00 FE 00 00 00
 7.718876 1  434             Rx   d 8 00 00 00 00 0F FF 00 10
 7.719120 1  435             Rx   d 8 00 00 00 00 00 00 00 00
 7.818566 1  23A             Rx   d 8 FF FF FF FF F0 00 00 00
 7.818735 1  430             Rx   d 8 00 00 00 00 FE 00 00 00
 7.818954 1  434             Rx   d 8 00 00 00 00 0F FF 00 10
 7.819192 1  435             Rx   d 8 00 00 00 00 00 00 00 00
 7.918736 1  23A             Rx   d 8 FF FF FF FF F0 00 00 00
 7.918779 1  430             Rx   d 8 00 00 00 00 FE 00 00 00
 7.919020 1  434             Rx   d 8 00 00 00 00 0F FF 00 10
 7.919240 1  435             Rx   d 8 00 00 00 00 00 00 00 00
 19.717696 1  41              Rx   d 8 00 00 00 00 00 00 00 00
 19.717885 1  84              Rx   d 8 00 00 00 01 01 11 0C 00
 19.718135 1  242             Rx   d 8 FF FF 3F FF B6 00 03 01
 19.718393 1  331             Rx   d 8 C0 00 48 A0 02 00 00 00
 19.718656 1  38D             Rx   d 8 20 00 00 00 00 00 00 F0
 19.718921 1  3B1             Rx   d 8 00 00 00 00 00 00 00 00
 19.719172 1  3B3             Rx   d 8 44 8C C0 0C E6 00 03 3E
 19.719424 1  3B4             Rx   d 8 34 21 11 FF 1E 1A 00 00
 19.719683 1  3B5             Rx   d 8 FF FD FF FD FF FD FF FD
 19.719946 1  3B6             Rx   d 8 0A 00 00 00 00 00 00 00
 19.720213 1  3B7             Rx   d 8 00 00 00 00 00 00 00 00
 19.720474 1  3B8             Rx   d 8 FF FF FF FF 00 00 00 00
 19.720737 1  42C             Rx   d 8 80 02 00 00 00 00 00 00
 19.721002 1  581             Rx   d 8 81 00 FF FF FF FF FF FF
 19.721256 1  3C3             Rx   d 8 5C 80 10 C1 01 00 01 00
 19.721527 1  3C7             Rx   d 8 00 00 40 00 00 00 00 00
 19.721820 1  3E3             Rx   d 8 00 00 00 00 80 00 00 00
 19.722072 1  3EB             Rx   d 8 00 04 04 00 00 00 00 00
 19.722322 1  40A             Rx   d 8 C1 00 57 46 30 4A 58 58
 19.722571 1  43C             Rx   d 8 B2 00 4B 2C 3C 99 88 14
 19.722835 1  447             Rx   d 8 20 00 00 4B 00 20 00 00
 19.726796 1  59E             Rx   d 8 9E 00 FF FF FF FF FF FF
 19.731316 1  41              Rx   d 8 00 00 00 00 00 00 00 00
 19.732029 1  7E              Rx   d 8 FF FF 3E 80 00 04 00 00
 19.732268 1  91              Rx   d 8 FF FE FF FE 00 00 50 00
 19.732515 1  92              Rx   d 8 00 00 00 00 20 00 00 00
 19.732760 1  23A             Rx   d 8 FF FF FF FF F0 00 00 00
 19.733008 1  2F1             Rx   d 8 00 00 00 00 00 00 00 00
 19.733255 1  386             Rx   d 8 00 00 00 00 00 00 00 00
 19.733505 1  430             Rx   d 8 00 00 00 00 FE 00 00 00
 19.733754 1  434             Rx   d 8 00 00 00 00 0F FF 00 10
 19.734002 1  435             Rx   d 8 00 00 00 00 00 00 00 00
 19.734259 1  437             Rx   d 8 00 00 00 00 00 00 00 00
 19.734506 1  438             Rx   d 8 00 00 00 00 00 00 00 00
 19.734763 1  439             Rx   d 8 00 00 04 00 04 00 00 00
 19.735001 1  43A             Rx   d 8 00 00 00 00 00 00 00 00
 19.742485 1  84              Rx   d 8 00 00 00 01 02 1D 0C 00
 19.742651 1  242             Rx   d 8 FF FF 3F FF B6 00 03 01
 19.742902 1  331             Rx   d 8 C0 00 48 E9 02 00 00 00
 19.743132 1  38D             Rx   d 8 20 00 00 00 00 00 00 F0
 19.743381 1  3B1             Rx   d 8 00 00 00 00 00 00 00 00
 19.743614 1  3B3             Rx   d 8 44 8C C0 0C E6 00 03 3E
 19.743851 1  3B4             Rx   d 8 34 21 11 FF 1E 1A 00 00
 19.744094 1  3B5             Rx   d 8 FF FD FF FD FF FD FF FD
 19.744340 1  3B6             Rx   d 8 0A 00 00 00 00 00 00 00
 19.744589 1  3B7             Rx   d 8 00 00 00 00 00 00 00 00
 19.744843 1  3B8             Rx   d 8 FF FF FF FF 00 00 00 00
 19.745117 1  3C3             Rx   d 8 5C 80 10 C1 01 00 01 00
 19.745374 1  42C             Rx   d 8 80 02 00 00 00 00 00 00
 19.751024 1  41              Rx   d 8 00 00 00 00 00 00 00 00
 19.751168 1  3C7             Rx   d 8 00 00 40 00 00 00 00 00
 19.751433 1  3E3             Rx   d 8 00 00 00 00 80 00 00 00
 19.751684 1  3EB             Rx   d 8 00 04 04 00 00 00 00 00
 19.751944 1  40A             Rx   d 8 C1 01 47 41 48 4A 48 45
 19.752205 1  43C             Rx   d 8 B2 00 4B 2C 3C 99 88 14
 19.752414 1  447             Rx   d 8 20 00 00 4B 00 20 00 00
 19.770666 1  41              Rx   d 8 00 00 00 00 00 00 00 00
 19.781495 1  242             Rx   d 8 FF FF 3F FF B6 00 03 01
 19.790305 1  41              Rx   d 8 00 00 00 00 00 00 00 00
 19.790453 1  42C             Rx   d 8 80 02 00 00 00 00 00 00
 19.810104 1  41              Rx   d 8 00 00 00 00 00 00 00 00
 19.820432 1  242             Rx   d 8 FF FF 3F FF B6 00 03 01
 19.829623 1  41              Rx   d 8 00 00 00 00 00 00 00 00
 19.832338 1  23A             Rx   d 8 FF FF FF FF F0 00 00 00
 19.832367 1  430             Rx   d 8 00 00 00 00 FE 00 00 00
 19.832608 1  434             Rx   d 8 00 00 00 00 0F FF 00 10
 19.832851 1  435             Rx   d 8 00 00 00 00 00 00 00 00
 19.840452 1  42C             Rx   d 8 80 02 00 00 00 00 00 00
 19.849372 1  41              Rx   d 8 00 00 00 00 00 00 00 00
 19.859746 1  242             Rx   d 8 FF FF 3F FF B6 00 03 01
 19.868949 1  41              Rx   d 8 00 00 00 00 00 00 00 00
 19.888841 1  41              Rx   d 8 00 00 00 00 00 00 00 00
 19.888880 1  42C             Rx   d 8 80 02 00 00 00 00 00 00
 19.899312 1  242             Rx   d 8 FF FF 3F FF B6 00 03 01
 19.908363 1  41              Rx   d 8 00 00 00 00 00 00 00 00
 19.924635 1  581             Rx   d 8 81 00 FF FF FF FF FF FF
 19.927866 1  41              Rx   d 8 00 00 00 00 00 00 00 00
 19.932463 1  23A             Rx   d 8 FF FF FF FF F0 00 00 00
 19.932493 1  430             Rx   d 8 00 00 00 00 FE 00 00 00
 19.932650 1  434             Rx   d 8 00 00 00 00 0F FF 00 10
 19.932883 1  435             Rx   d 8 00 00 00 00 00 00 00 00
 19.938869 1  242             Rx   d 8 FF FF 3F FF B6 00 03 01
 19.939018 1  38D             Rx   d 8 20 00 00 00 00 00 00 F0
 19.939259 1  3B1             Rx   d 8 00 00 00 00 00 00 00 00
 19.939502 1  3B6             Rx   d 8 0A 00 00 00 00 00 00 00
 19.939748 1  3B7             Rx   d 8 00 00 00 00 00 00 00 00
 19.939995 1  3B8             Rx   d 8 FF FF FF FF 00 00 00 00
 19.940251 1  3E3             Rx   d 8 00 00 00 00 80 00 00 00
 19.940507 1  3EB             Rx   d 8 00 04 04 00 00 00 00 00
 19.940750 1  40A             Rx   d 8 C1 02 32 38 38 33 36 00
 19.941028 1  42C             Rx   d 8 80 02 00 00 00 00 00 00
 19.941247 1  43C             Rx   d 8 B2 00 4B 2C 3C 99 88 14
 19.941496 1  447             Rx   d 8 20 00 00 4B 00 20 00 00
 19.947707 1  41              Rx   d 8 00 00 00 00 00 00 00 00
 19.967290 1  41              Rx   d 8 00 00 00 00 00 00 00 00
 19.977923 1  242             Rx   d 8 FF FF 3F FF B6 00 03 01
 19.987038 1  41              Rx   d 8 00 00 00 00 00 00 00 00
 19.987217 1  3B4             Rx   d 8 34 21 11 FF 1E 1A 00 00
 19.987415 1  42C             Rx   d 8 80 02 00 00 00 00 00 00
 19.997016 1  3B5             Rx   d 8 FF FD FF FD FF FD FF FD
 20.006660 1  41              Rx   d 8 00 00 00 00 00 00 00 00
 20.017233 1  242             Rx   d 8 FF FF 3F FF B6 00 03 01
 20.017314 1  3C7             Rx   d 8 00 00 40 00 00 00 00 00
 20.026234 1  41              Rx   d 8 00 00 00 00 00 00 00 00
 20.032358 1  23A             Rx   d 8 FF FF FF FF F0 00 00 00
 20.032500 1  430             Rx   d 8 00 00 00 00 FE 00 00 00
 20.032773 1  434             Rx   d 8 00 00 00 00 0F FF 00 10
 20.033026 1  435             Rx   d 8 00 00 00 00 00 00 00 00
 20.036778 1  3B3             Rx   d 8 44 8C C0 0C E6 00 03 3E
 20.036928 1  3C3             Rx   d 8 5C 80 10 C1 01 00 01 00
 20.037156 1  42C             Rx   d 8 80 02 00 00 00 00 00 00
 20.046085 1  41              Rx   d 8 00 00 00 00 00 00 00 00
 20.056535 1  242             Rx   d 8 FF FF 3F FF B6 00 03 01
 20.065509 1  41              Rx   d 8 00 00 00 00 00 00 00 00
 20.085425 1  41              Rx   d 8 00 00 00 00 00 00 00 00
 20.085481 1  42C             Rx   d 8 80 02 00 00 00 00 00 00
 20.095867 1  242             Rx   d 8 FF FF 3F FF B6 00 03 01
 20.104840 1  41              Rx   d 8 00 00 00 00 00 00 00 00
 20.124631 1  41              Rx   d 8 00 00 00 00 00 00 00 00
 20.132396 1  23A             Rx   d 8 FF FF FF FF F0 00 00 00
 20.132562 1  430             Rx   d 8 00 00 00 00 FE 00 00 00
 20.132786 1  434             Rx   d 8 00 00 00 00 0F FF 00 10
 20.133059 1  435             Rx   d 8 00 00 00 00 00 00 00 00
 20.135261 1  242             Rx   d 8 FF FF 3F FF B5 00 03 01
 20.135449 1  40A             Rx   d 8 C1 04 01 8A 07 54 85 41
 20.135699 1  42C             Rx   d 8 80 02 00 00 00 00 00 00
 20.144333 1  41              Rx   d 8 00 00 00 00 00 00 00 00
 20.164090 1  41              Rx   d 8 00 00 00 00 00 00 00 00
 20.174334 1  242             Rx   d 8 FF FF 3F FF B5 00 03 01
 20.183493 1  41              Rx   d 8 00 00 00 00 00 00 00 00
 20.183647 1  331             Rx   d 8 C0 00 48 E9 02 00 00 00
 20.183873 1  3B6             Rx   d 8 0A 00 00 00 00 00 00 00
 20.184122 1  3B7             Rx   d 8 00 00 00 00 00 00 00 00
 20.184360 1  42C             Rx   d 8 80 02 00 00 00 00 00 00
 20.203172 1  41              Rx   d 8 00 00 00 00 00 00 00 00
 20.213649 1  242             Rx   d 8 FF FF 3F FF B5 00 03 01
 20.222889 1  41              Rx   d 8 00 00 00 00 00 00 00 00
 20.232884 1  23A             Rx   d 8 FF FF FF FF F0 00 00 00
 20.232924 1  430             Rx   d 8 00 00 00 00 FE 00 00 00
 20.232931 1  434             Rx   d 8 00 00 00 00 0F FF 00 10
 20.233189 1  435             Rx   d 8 00 00 00 00 00 00 00 00
 20.233438 1  42C             Rx   d 8 80 02 00 00 00 00 00 00
 20.242650 1  41              Rx   d 8 00 00 00 00 00 00 00 00
 20.252967 1  242             Rx   d 8 FF FF 3F FF B6 00 03 01
 20.262654 1  41              Rx   d 8 00 00 00 00 00 00 00 00
 20.281967 1  41              Rx   d 8 00 00 00 00 00 00 00 00
 20.282001 1  42C             Rx   d 8 80 02 00 00 00 00 00 00
 20.292618 1  242             Rx   d 8 FF FF 3F FF B5 00 03 01
 20.301652 1  41              Rx   d 8 00 00 00 00 00 00 00 00
 20.321151 1  41              Rx   d 8 00 00 00 00 00 00 00 00
 20.332091 1  242             Rx   d 8 FF FF 3F FF B5 00 03 01
 20.332210 1  40A             Rx   d 8 C1 10 40 84 20 08 80 00
 20.332427 1  42C             Rx   d 8 80 02 00 00 00 00 00 00
 20.333174 1  23A             Rx   d 8 FF FF FF FF F0 00 00 00
 20.333405 1  430             Rx   d 8 00 00 00 00 FE 00 00 00
 20.333617 1  434             Rx   d 8 00 00 00 00 0F FF 00 10
 20.333875 1  435             Rx   d 8 00 00 00 00 00 00 00 00
 20.340911 1  41              Rx   d 8 00 00 00 00 00 00 00 00
 20.360615 1  41              Rx   d 8 00 00 00 00 00 00 00 00
 20.370962 1  242             Rx   d 8 FF FF 3F FF B5 00 03 01
 20.380071 1  41              Rx   d 8 00 00 00 00 00 00 00 00
 20.380229 1  42C             Rx   d 8 80 02 00 00 00 00 00 00
 20.400068 1  41              Rx   d 8 00 00 00 00 00 00 00 00
 20.410261 1  242             Rx   d 8 FF FF 3F FF B5 00 03 01
 20.419448 1  41              Rx   d 8 00 00 00 00 00 00 00 00
 20.430179 1  3B6             Rx   d 8 0A 00 00 00 00 00 00 00
 20.430262 1  3B7             Rx   d 8 00 00 00 00 00 00 00 00
 20.430667 1  3B8             Rx   d 8 FF FF FF FF 00 00 00 00
 20.430679 1  42C             Rx   d 8 80 02 00 00 00 00 00 00
 20.432903 1  23A             Rx   d 8 FF FF FF FF F0 00 00 00
 20.433141 1  430             Rx   d 8 00 00 00 00 FE 00 00 00
 20.433302 1  434             Rx   d 8 00 00 00 00 0F FF 00 10
 20.433555 1  435             Rx   d 8 00 00 00 00 00 00 00 00
 20.439542 1  41              Rx   d 8 00 00 00 00 00 00 00 00
 20.449580 1  242             Rx   d 8 FF FF 3F FF B6 00 03 01
 20.458754 1  41              Rx   d 8 00 00 00 00 00 00 00 00
 20.478468 1  41              Rx   d 8 00 00 00 00 00 00 00 00
 20.478637 1  42C             Rx   d 8 80 02 00 00 00 00 00 00
 20.488882 1  242             Rx   d 8 FF FF 3F FF B5 00 03 01
 20.489074 1  3B5             Rx   d 8 FF FD FF FD FF FD FF FD
 20.498176 1  41              Rx   d 8 00 00 00 00 00 00 00 00
 20.517720 1  41              Rx   d 8 00 00 00 00 00 00 00 00
 20.528534 1  242             Rx   d 8 FF FF 3F FF B5 00 03 01
 20.528692 1  3B3             Rx   d 8 44 8C C0 0C E6 00 03 3E
 20.528920 1  40A             Rx   d 8 C0 00 00 23 60 A4 87 00
 20.529147 1  42C             Rx   d 8 80 02 00 00 00 00 00 00
 20.533553 1  23A             Rx   d 8 FF FF FF FF F0 00 00 00
 20.533627 1  430             Rx   d 8 00 00 00 00 FE 00 00 00
 20.533809 1  434             Rx   d 8 00 00 00 00 0F FF 00 10
 20.534057 1  435             Rx   d 8 00 00 00 00 00 00 00 00
 20.537610 1  41              Rx   d 8 00 00 00 00 00 00 00 00
 20.537642 1  331             Rx   d 8 C0 00 48 EA 02 00 00 00
 20.557085 1  41              Rx   d 8 00 00 00 00 00 00 00 00
 20.567634 1  242             Rx   d 8 FF FF 3F FF B5 00 03 01
 20.577050 1  41              Rx   d 8 00 00 00 00 00 00 00 00
 20.577113 1  42C             Rx   d 8 80 02 00 00 00 00 00 00
 20.596389 1  41              Rx   d 8 00 00 00 00 00 00 00 00
 20.607153 1  242             Rx   d 8 FF FF 3F FF B6 00 03 01
 20.616025 1  41              Rx   d 8 00 00 00 00 00 00 00 00
 20.626647 1  42C             Rx   d 8 80 02 00 00 00 00 00 00
 20.632644 1  23A             Rx   d 8 FF FF FF FF F0 00 00 00
 20.632800 1  430             Rx   d 8 00 00 00 00 FE 00 00 00
 20.633049 1  434             Rx   d 8 00 00 00 00 0F FF 00 10
 20.633288 1  435             Rx   d 8 00 00 00 00 00 00 00 00
 20.635817 1  41              Rx   d 8 00 00 00 00 00 00 00 00
 20.646551 1  242             Rx   d 8 FF FF 3F FF B6 00 03 01
 20.655333 1  41              Rx   d 8 00 00 00 00 00 00 00 00
 20.675787 1  41              Rx   d 8 00 00 00 00 00 00 00 00
 20.675870 1  84              Rx   d 8 00 00 00 01 02 1E 0C 00
 20.675884 1  3B6             Rx   d 8 0A 00 00 00 00 00 00 00
 20.675893 1  3B7             Rx   d 8 00 00 00 00 00 00 00 00
 20.676159 1  42C             Rx   d 8 80 02 00 00 00 00 00 00
 20.685464 1  242             Rx   d 8 FF FF 3F FF B6 00 03 01
 20.694623 1  41              Rx   d 8 00 00 00 00 00 00 00 00
 20.714423 1  41              Rx   d 8 00 00 00 00 00 00 00 00
 20.722439 1  59E             Rx   d 8 9E 00 FF FF FF FF FF FF
 20.725114 1  242             Rx   d 8 FF FF 3F FF B5 00 03 01
 20.725259 1  40A             Rx   d 8 C1 00 57 46 30 4A 58 58
 20.725524 1  42C             Rx   d 8 80 02 00 00 00 00 00 00
 20.732688 1  23A             Rx   d 8 FF FF FF FF F0 00 00 00
 20.732846 1  2F1             Rx   d 8 00 00 00 00 00 00 00 00
 20.733076 1  386             Rx   d 8 00 00 00 00 00 00 00 00
 20.733354 1  430             Rx   d 8 00 00 00 00 FE 00 00 00
 20.733585 1  434             Rx   d 8 00 00 00 00 0F FF 00 10
 20.733817 1  435             Rx   d 8 00 00 00 00 00 00 00 00
 20.734066 1  41              Rx   d 8 00 00 00 00 00 00 00 00
 20.734312 1  437             Rx   d 8 00 00 00 00 00 00 00 00
 20.734563 1  438             Rx   d 8 00 00 00 00 00 00 00 00
 20.734814 1  439             Rx   d 8 00 00 04 00 04 00 00 00
 20.735064 1  43A             Rx   d 8 00 00 00 00 00 00 00 00
 20.753951 1  41              Rx   d 8 00 00 00 00 00 00 00 00
 20.764116 1  242             Rx   d 8 FF FF 3F FF B5 00 03 01
 20.773579 1  41              Rx   d 8 00 00 00 00 00 00 00 00
 20.773627 1  42C             Rx   d 8 80 02 00 00 00 00 00 00
 20.792963 1  41              Rx   d 8 00 00 00 00 00 00 00 00
 20.803432 1  242             Rx   d 8 FF FF 3F FF B5 00 03 01
 20.812683 1  41              Rx   d 8 00 00 00 00 00 00 00 00
 20.823234 1  42C             Rx   d 8 80 02 00 00 00 00 00 00
 20.832350 1  41              Rx   d 8 00 00 00 00 00 00 00 00
 20.832648 1  23A             Rx   d 8 FF FF FF FF F0 00 00 00
 20.832903 1  430             Rx   d 8 00 00 00 00 FE 00 00 00
 20.833132 1  434             Rx   d 8 00 00 00 00 0F FF 00 10
 20.833376 1  435             Rx   d 8 00 00 00 00 00 00 00 00
 20.842947 1  242             Rx   d 8 FF FF 3F FF B5 00 03 01
 20.851953 1  41              Rx   d 8 00 00 00 00 00 00 00 00
 20.871648 1  41              Rx   d 8 00 00 00 00 00 00 00 00
 20.871829 1  42C             Rx   d 8 80 02 00 00 00 00 00 00
 20.882426 1  242             Rx   d 8 FF FF 3F FF B5 00 03 01
 20.891511 1  41              Rx   d 8 00 00 00 00 00 00 00 00
 20.907667 1  581             Rx   d 8 81 00 FF FF FF FF FF FF
 20.910932 1  41              Rx   d 8 00 00 00 00 00 00 00 00
 20.921762 1  242             Rx   d 8 FF FF 3F FF B5 00 03 01
 20.921988 1  38D             Rx   d 8 20 00 00 00 00 00 00 F0
 20.922118 1  3B1             Rx   d 8 00 00 00 00 00 00 00 00
 20.922379 1  3B6             Rx   d 8 0A 00 00 00 00 00 00 00
 20.922632 1  3B7             Rx   d 8 00 00 00 00 00 00 00 00
 20.922883 1  3B8             Rx   d 8 FF FF FF FF 00 00 00 00
 20.923281 1  3E3             Rx   d 8 00 00 00 00 80 00 00 00
 20.923750 1  3EB             Rx   d 8 00 04 04 00 00 00 00 00
 20.923778 1  40A             Rx   d 8 C1 01 47 41 48 4A 48 45
 20.924248 1  42C             Rx   d 8 80 02 00 00 00 00 00 00
 20.924279 1  43C             Rx   d 8 B2 00 4B 2C 3C 99 88 14
 20.924616 1  447             Rx   d 8 20 00 00 4B 00 20 00 00
 20.930562 1  41              Rx   d 8 00 00 00 00 00 00 00 00
 20.932723 1  23A             Rx   d 8 FF FF FF FF F0 00 00 00
 20.932958 1  430             Rx   d 8 00 00 00 00 FE 00 00 00
 20.933194 1  434             Rx   d 8 00 00 00 00 0F FF 00 10
 20.933442 1  435             Rx   d 8 00 00 00 00 00 00 00 00
 20.950402 1  41              Rx   d 8 00 00 00 00 00 00 00 00
 20.960963 1  242             Rx   d 8 FF FF 3F FF B5 00 03 01
 20.969919 1  41              Rx   d 8 00 00 00 00 00 00 00 00
 20.970113 1  3B4             Rx   d 8 34 21 11 FF 1E 1A 00 00
 20.970265 1  42C             Rx   d 8 80 02 00 00 00 00 00 00
 20.980056 1  3B5             Rx   d 8 FF FD FF FD FF FD FF FD
 20.989775 1  41              Rx   d 8 00 00 00 00 00 00 00 00
 21.000113 1  242             Rx   d 8 FF FF 3F FF B6 00 03 01
 21.000292 1  3C7             Rx   d 8 00 00 40 00 00 00 00 00
 21.009288 1  41              Rx   d 8 00 00 00 00 00 00 00 00
 21.019911 1  3B3             Rx   d 8 44 8C C0 0C E6 00 03 3E
 21.019954 1  3C3             Rx   d 8 5C 80 10 C1 01 00 01 00
 21.020279 1  42C             Rx   d 8 80 02 00 00 00 00 00 00
 21.029140 1  41              Rx   d 8 00 00 00 00 00 00 00 00
 21.032809 1  23A             Rx   d 8 FF FF FF FF F0 00 00 00
 21.032992 1  430             Rx   d 8 00 00 00 00 FE 00 00 00
 21.033226 1  434             Rx   d 8 00 00 00 00 0F FF 00 10
 21.033471 1  435             Rx   d 8 00 00 00 00 00 00 00 00
 21.039505 1  242             Rx   d 8 FF FF 3F FF B5 00 03 01
 21.048543 1  41              Rx   d 8 00 00 00 00 00 00 00 00
 21.068179 1  41              Rx   d 8 00 00 00 00 00 00 00 00
 21.068337 1  42C             Rx   d 8 80 02 00 00 00 00 00 00
 21.078690 1  242             Rx   d 8 FF FF 3F FF B6 00 03 01
 21.087958 1  41              Rx   d 8 00 00 00 00 00 00 00 00
 21.107535 1  41              Rx   d 8 00 00 00 00 00 00 00 00
 21.118354 1  242             Rx   d 8 FF FF 3F FF B6 00 03 01
 21.118523 1  40A             Rx   d 8 C1 02 32 38 38 33 36 00
 21.118767 1  42C             Rx   d 8 80 02 00 00 00 00 00 00
 21.127312 1  41              Rx   d 8 00 00 00 00 00 00 00 00
 21.133175 1  23A             Rx   d 8 FF FF FF FF F0 00 00 00
 21.133230 1  430             Rx   d 8 00 00 00 00 FE 00 00 00
 21.133627 1  434             Rx   d 8 00 00 00 00 0F FF 00 10
 21.133645 1  435             Rx   d 8 00 00 00 00 00 00 00 00
 21.146973 1  41              Rx   d 8 00 00 00 00 00 00 00 00
 21.157432 1  242             Rx   d 8 FF FF 3F FF B5 00 03 01
 21.166931 1  41              Rx   d 8 00 00 00 00 00 00 00 00
 21.166966 1  331             Rx   d 8 C0 00 48 EA 02 00 00 00
 21.166972 1  3B6             Rx   d 8 0A 00 00 00 00 00 00 00
 21.167163 1  3B7             Rx   d 8 00 00 00 00 00 00 00 00
 21.167379 1  42C             Rx   d 8 80 02 00 00 00 00 00 00
 21.186175 1  41              Rx   d 8 00 00 00 00 00 00 00 00
 21.196815 1  242             Rx   d 8 FF FF 3F FF B5 00 03 01
 21.205800 1  41              Rx   d 8 00 00 00 00 00 00 00 00
 21.216409 1  42C             Rx   d 8 80 02 00 00 00 00 00 00
 21.225674 1  41              Rx   d 8 00 00 00 00 00 00 00 00
 21.233147 1  23A             Rx   d 8 FF FF FF FF F0 00 00 00
 21.233186 1  430             Rx   d 8 00 00 00 00 FE 00 00 00
 21.233402 1  434             Rx   d 8 00 00 00 00 0F FF 00 10
 21.233623 1  435             Rx   d 8 00 00 00 00 00 00 00 00
 21.235992 1  242             Rx   d 8 FF FF 3F FF B5 00 03 01
 21.245265 1  41              Rx   d 8 00 00 00 00 00 00 00 00
 21.265193 1  41              Rx   d 8 00 00 00 00 00 00 00 00
 21.265236 1  42C             Rx   d 8 80 02 00 00 00 00 00 00
 21.275286 1  242             Rx   d 8 FF FF 3F FF B6 00 03 01
 21.284434 1  41              Rx   d 8 00 00 00 00 00 00 00 00
 21.304266 1  41              Rx   d 8 00 00 00 00 00 00 00 00
 21.314962 1  242             Rx   d 8 FF FF 3F FF B6 00 03 01
 21.315118 1  40A             Rx   d 8 C1 04 01 8A 07 54 85 41
 21.315317 1  42C             Rx   d 8 80 02 00 00 00 00 00 00
 21.323778 1  41              Rx   d 8 00 00 00 00 00 00 00 00
 21.333559 1  23A             Rx   d 8 FF FF FF FF F0 00 00 00
 21.333632 1  430             Rx   d 8 00 00 00 00 FE 00 00 00
 21.333642 1  434             Rx   d 8 00 00 00 00 0F FF 00 10
 21.334026 1  435             Rx   d 8 00 00 00 00 00 00 00 00
 21.343592 1  41              Rx   d 8 00 00 00 00 00 00 00 00
 21.353946 1  242             Rx   d 8 FF FF 3F FF B5 00 03 01
 21.363323 1  41              Rx   d 8 00 00 00 00 00 00 00 00
 21.363377 1  42C             Rx   d 8 80 02 00 00 00 00 00 00
 21.382754 1  41              Rx   d 8 00 00 00 00 00 00 00 00
 21.393285 1  242             Rx   d 8 FF FF 3F FF B6 00 03 01
 21.402662 1  41              Rx   d 8 00 00 00 00 00 00 00 00
 21.412974 1  3B6             Rx   d 8 0A 00 00 00 00 00 00 00
 21.413121 1  3B7             Rx   d 8 00 00 00 00 00 00 00 00
 21.413367 1  3B8             Rx   d 8 FF FF FF FF 00 00 00 00
 21.413611 1  42C             Rx   d 8 80 02 00 00 00 00 00 00
 21.422092 1  41              Rx   d 8 00 00 00 00 00 00 00 00
 21.432709 1  242             Rx   d 8 FF FF 3F FF B5 00 03 01
 21.433420 1  23A             Rx   d 8 FF FF FF FF F0 00 00 00
 21.433588 1  430             Rx   d 8 00 00 00 00 FE 00 00 00
 21.433750 1  434             Rx   d 8 00 00 00 00 0F FF 00 10
 21.434000 1  435             Rx   d 8 00 00 00 00 00 00 00 00
 21.442214 1  41              Rx   d 8 00 00 00 00 00 00 00 00
 21.461445 1  41              Rx   d 8 00 00 00 00 00 00 00 00
 21.461607 1  42C             Rx   d 8 80 02 00 00 00 00 00 00
 21.472468 1  242             Rx   d 8 FF FF 3F FF B5 00 03 01
 21.472539 1  3B5             Rx   d 8 FF FD FF FD FF FD FF FD
 21.481061 1  41              Rx   d 8 00 00 00 00 00 00 00 00
 21.500894 1  41              Rx   d 8 00 00 00 00 00 00 00 00
 21.511690 1  242             Rx   d 8 FF FF 3F FF B6 00 03 01
 21.511727 1  3B3             Rx   d 8 44 8C C0 0C E6 00 03 3E
 21.511985 1  40A             Rx   d 8 C1 10 40 84 20 08 80 00
 21.512339 1  42C             Rx   d 8 80 02 00 00 00 00 00 00
 21.520400 1  41              Rx   d 8 00 00 00 00 00 00 00 00
 21.533108 1  23A             Rx   d 8 FF FF FF FF F0 00 00 00
 21.533291 1  430             Rx   d 8 00 00 00 00 FE 00 00 00
 21.533519 1  434             Rx   d 8 00 00 00 00 0F FF 00 10
 21.533774 1  435             Rx   d 8 00 00 00 00 00 00 00 00
 21.540681 1  41              Rx   d 8 00 00 00 00 00 00 00 00
 21.540740 1  331             Rx   d 8 C0 00 48 EB 02 00 00 00
 21.550527 1  242             Rx   d 8 FF FF 3F FF B5 00 03 01
 21.559693 1  41              Rx   d 8 00 00 00 00 00 00 00 00
 21.559848 1  42C             Rx   d 8 80 02 00 00 00 00 00 00
 21.579631 1  41              Rx   d 8 00 00 00 00 00 00 00 00
 21.589867 1  242             Rx   d 8 FF FF 3F FF B5 00 03 01
 21.609956 1  42C             Rx   d 8 80 02 00 00 00 00 00 00
 21.629149 1  242             Rx   d 8 FF FF 3F FF B5 00 03 01
 21.633429 1  23A             Rx   d 8 FF FF FF FF F0 00 00 00
 21.657999 1  41              Rx   d 8 00 00 00 00 00 00 00 00
 21.658169 1  3B6             Rx   d 8 0A 00 00 00 00 00 00 00
 21.677852 1  41              Rx   d 8 00 00 00 00 00 00 00 00
 21.697332 1  41              Rx   d 8 00 00 00 00 00 00 00 00
 21.708309 1  242             Rx   d 8 FF FF 3F FF B5 00 03 01
 21.722836 1  59E             Rx   d 8 9E 00 FF FF FF FF FF FF
 21.747544 1  242             Rx   d 8 FF FF 3F FF B5 00 03 01
 21.776113 1  41              Rx   d 8 00 00 00 00 00 00 00 00
 21.786584 1  242             Rx   d 8 FF FF 3F FF B5 00 03 01
 21.795581 1  41              Rx   d 8 00 00 00 00 00 00 00 00
 21.806231 1  42C             Rx   d 8 80 02 00 00 00 00 00 00
 21.815396 1  41              Rx   d 8 00 00 00 00 00 00 00 00
 21.825751 1  242             Rx   d 8 FF FF 3F FF B5 00 03 01
 21.854791 1  41              Rx   d 8 00 00 00 00 00 00 00 00
 21.865278 1  242             Rx   d 8 FF FF 3F FF B5 00 03 01
 21.874293 1  41              Rx   d 8 00 00 00 00 00 00 00 00
 21.890663 1  581             Rx   d 8 81 00 FF FF FF FF FF FF
 21.894202 1  41              Rx   d 8 00 00 00 00 00 00 00 00
 21.913554 1  41              Rx   d 8 00 00 00 00 00 00 00 00
 21.933257 1  41              Rx   d 8 00 00 00 00 00 00 00 00
 21.953122 1  41              Rx   d 8 00 00 00 00 00 00 00 00
 21.963168 1  3B5             Rx   d 8 FF FD FF FD FF FD FF FD
 21.972558 1  41              Rx   d 8 00 00 00 00 00 00 00 00
 21.992380 1  41              Rx   d 8 00 00 00 00 00 00 00 00
 22.002845 1  3B3             Rx   d 8 44 8C C0 0C E6 00 03 3E
 22.022439 1  242             Rx   d 8 FF FF 3F FF B5 00 03 01
 22.033520 1  23A             Rx   d 8 FF FF FF FF F0 00 00 00
 22.051234 1  41              Rx   d 8 00 00 00 00 00 00 00 00
 22.070831 1  41              Rx   d 8 00 00 00 00 00 00 00 00
 22.090646 1  41              Rx   d 8 00 00 00 00 00 00 00 00
 22.101544 1  242             Rx   d 8 FF FF 3F FF B5 00 03 01
 22.101593 1  40A             Rx   d 8 C1 01 47 41 48 4A 48 45
 22.129949 1  41              Rx   d 8 00 00 00 00 00 00 00 00
 22.133693 1  23A             Rx   d 8 FF FF FF FF F0 00 00 00
 22.149508 1  41              Rx   d 8 00 00 00 00 00 00 00 00
 22.169405 1  41              Rx   d 8 00 00 00 00 00 00 00 00
 22.188808 1  41              Rx   d 8 00 00 00 00 00 00 00 00
 22.199506 1  42C             Rx   d 8 80 02 00 00 00 00 00 00
 22.218974 1  242             Rx   d 8 FF FF 3F FF B5 00 03 01
 22.228260 1  41              Rx   d 8 00 00 00 00 00 00 00 00
 22.247851 1  41              Rx   d 8 00 00 00 00 00 00 00 00
 22.267766 1  41              Rx   d 8 00 00 00 00 00 00 00 00
 22.287212 1  41              Rx   d 8 00 00 00 00 00 00 00 00
 22.306997 1  41              Rx   d 8 00 00 00 00 00 00 00 00
 22.326444 1  41              Rx   d 8 00 00 00 00 00 00 00 00
 22.333780 1  23A             Rx   d 8 FF FF FF FF F0 00 00 00
 22.346235 1  41              Rx   d 8 00 00 00 00 00 00 00 00
 22.366025 1  41              Rx   d 8 00 00 00 00 00 00 00 00
 22.385360 1  41              Rx   d 8 00 00 00 00 00 00 00 00
 22.395969 1  3B6             Rx   d 8 0A 00 00 00 00 00 00 00
 22.415552 1  242             Rx   d 8 FF FF 3F FF B5 00 03 01
 22.433792 1  23A             Rx   d 8 FF FF FF FF F0 00 00 00
 22.454916 1  242             Rx   d 8 FF FF 3F FF B5 00 03 01
 22.484039 1  41              Rx   d 8 00 00 00 00 00 00 00 00
 22.494523 1  242             Rx   d 8 FF FF 3F FF B5 00 03 01
 22.494897 1  40A             Rx   d 8 C1 04 01 8A 07 54 85 41
 22.523064 1  41              Rx   d 8 00 00 00 00 00 00 00 00
 22.533510 1  242             Rx   d 8 FF FF 3F FF B5 00 03 01
 22.542828 1  41              Rx   d 8 00 00 00 00 00 00 00 00
 22.562375 1  41              Rx   d 8 00 00 00 00 00 00 00 00
 22.572826 1  242             Rx   d 8 FF FF 3F FF B5 00 03 01
 22.582097 1  41              Rx   d 8 00 00 00 00 00 00 00 00
 22.601674 1  41              Rx   d 8 00 00 00 00 00 00 00 00
 22.621415 1  41              Rx   d 8 00 00 00 00 00 00 00 00
 22.633671 1  23A             Rx   d 8 FF FF FF FF F0 00 00 00
 22.651523 1  242             Rx   d 8 FF FF 3F FF B5 00 03 01
 22.680357 1  41              Rx   d 8 00 00 00 00 00 00 00 00
 22.691312 1  242             Rx   d 8 FF FF 3F FF B5 00 03 01
 22.719812 1  41              Rx   d 8 00 00 00 00 00 00 00 00
 22.723529 1  59E             Rx   d 8 9E 00 FF FF FF FF FF FF
 22.730321 1  242             Rx   d 8 FF FF 3F FF B5 00 03 01
 22.759097 1  41              Rx   d 8 00 00 00 00 00 00 00 00
 22.769411 1  242             Rx   d 8 FF FF 3F FF B5 00 03 01
 22.778616 1  41              Rx   d 8 00 00 00 00 00 00 00 00
 22.798556 1  41              Rx   d 8 00 00 00 00 00 00 00 00
 22.817940 1  41              Rx   d 8 00 00 00 00 00 00 00 00
 22.834033 1  23A             Rx   d 8 FF FF FF FF F0 00 00 00
 22.848445 1  242             Rx   d 8 FF FF 3F FF B5 00 03 01
 22.873641 1  581             Rx   d 8 81 00 FF FF FF FF FF FF
 22.876946 1  41              Rx   d 8 00 00 00 00 00 00 00 00
 22.896631 1  41              Rx   d 8 00 00 00 00 00 00 00 00
 22.916252 1  41              Rx   d 8 00 00 00 00 00 00 00 00
 22.926798 1  242             Rx   d 8 FF FF 3F FF B5 00 03 01
 22.946086 1  3B5             Rx   d 8 FF FD FF FD FF FD FF FD
 22.966180 1  242             Rx   d 8 FF FF 3F FF B5 00 03 01
 22.975226 1  41              Rx   d 8 00 00 00 00 00 00 00 00
 22.995036 1  41              Rx   d 8 00 00 00 00 00 00 00 00
 23.005746 1  242             Rx   d 8 FF FF 3F FF B5 00 03 01
 23.034055 1  23A             Rx   d 8 FF FF FF FF F0 00 00 00
 23.044795 1  242             Rx   d 8 FF FF 3F FF B5 00 03 01
 23.053879 1  41              Rx   d 8 00 00 00 00 00 00 00 00
 23.073673 1  41              Rx   d 8 00 00 00 00 00 00 00 00
 23.093182 1  41              Rx   d 8 00 00 00 00 00 00 00 00
 23.112836 1  41              Rx   d 8 00 00 00 00 00 00 00 00
 23.123308 1  242             Rx   d 8 FF FF 3F FF B5 00 03 01
 23.152246 1  41              Rx   d 8 00 00 00 00 00 00 00 00
 23.162641 1  242             Rx   d 8 FF FF 3F FF B5 00 03 01
 23.171950 1  41              Rx   d 8 00 00 00 00 00 00 00 00
 23.191520 1  41              Rx   d 8 00 00 00 00 00 00 00 00
 23.201987 1  242             Rx   d 8 FF FF 3F FF B5 00 03 01
 23.230863 1  41              Rx   d 8 00 00 00 00 00 00 00 00
 23.241454 1  242             Rx   d 8 FF FF 3F FF B5 00 03 01
 23.270354 1  41              Rx   d 8 00 00 00 00 00 00 00 00
 23.281203 1  242             Rx   d 8 FF FF 3F FF B5 00 03 01
 23.281255 1  40A             Rx   d 8 C1 01 47 41 48 4A 48 45
 23.309563 1  41              Rx   d 8 00 00 00 00 00 00 00 00
 23.319920 1  242             Rx   d 8 FF FF 3F FF B5 00 03 01
 23.334249 1  23A             Rx   d 8 FF FF FF FF F0 00 00 00
 23.349018 1  41              Rx   d 8 00 00 00 00 00 00 00 00
 23.368372 1  41              Rx   d 8 00 00 00 00 00 00 00 00
 23.379141 1  3B6             Rx   d 8 0A 00 00 00 00 00 00 00
 23.398562 1  242             Rx   d 8 FF FF 3F FF B5 00 03 01
 23.427398 1  41              Rx   d 8 00 00 00 00 00 00 00 00
 23.434074 1  23A             Rx   d 8 FF FF FF FF F0 00 00 00
 23.447347 1  41              Rx   d 8 00 00 00 00 00 00 00 00
 23.466816 1  41              Rx   d 8 00 00 00 00 00 00 00 00
 23.486567 1  41              Rx   d 8 00 00 00 00 00 00 00 00
 23.506056 1  41              Rx   d 8 00 00 00 00 00 00 00 00
 23.516601 1  242             Rx   d 8 FF FF 3F FF B5 00 03 01
 23.534079 1  23A             Rx   d 8 FF FF FF FF F0 00 00 00
 23.556089 1  242             Rx   d 8 FF FF 3F FF B5 00 03 01
 23.575633 1  42C             Rx   d 8 80 02 00 00 00 00 00 00
 23.595125 1  242             Rx   d 8 FF FF 3F FF B5 00 03 01
 23.624522 1  41              Rx   d 8 00 00 00 00 00 00 00 00
 23.624574 1  3B6             Rx   d 8 0A 00 00 00 00 00 00 00
 23.643794 1  41              Rx   d 8 00 00 00 00 00 00 00 00
 23.663370 1  41              Rx   d 8 00 00 00 00 00 00 00 00
 23.682982 1  41              Rx   d 8 00 00 00 00 00 00 00 00
 23.702631 1  41              Rx   d 8 00 00 00 00 00 00 00 00
 23.713104 1  242             Rx   d 8 FF FF 3F FF B5 00 03 01
 23.722578 1  41              Rx   d 8 00 00 00 00 00 00 00 00
 23.736355 1  43A             Rx   d 8 00 00 00 00 00 00 00 00
 23.761634 1  41              Rx   d 8 00 00 00 00 00 00 00 00
 23.772244 1  42C             Rx   d 8 80 02 00 00 00 00 00 00
 23.792069 1  242             Rx   d 8 FF FF 3F FF B5 00 03 01
 23.820831 1  41              Rx   d 8 00 00 00 00 00 00 00 00
 23.820906 1  42C             Rx   d 8 80 02 00 00 00 00 00 00
 23.840275 1  41              Rx   d 8 00 00 00 00 00 00 00 00
 23.856765 1  581             Rx   d 8 81 00 FF FF FF FF FF FF
 23.879589 1  41              Rx   d 8 00 00 00 00 00 00 00 00
 23.899286 1  41              Rx   d 8 00 00 00 00 00 00 00 00
 23.918910 1  41              Rx   d 8 00 00 00 00 00 00 00 00
 23.929002 1  3B5             Rx   d 8 FF FD FF FD FF FD FF FD
 23.949137 1  242             Rx   d 8 FF FF 3F FF B5 00 03 01
 23.968944 1  3B3             Rx   d 8 44 8C C0 0C E6 00 03 3E
 23.988442 1  242             Rx   d 8 FF FF 3F FF B5 00 03 01
 24.017289 1  41              Rx   d 8 00 00 00 00 00 00 00 00
 24.017454 1  42C             Rx   d 8 80 02 00 00 00 00 00 00
 24.034404 1  23A             Rx   d 8 FF FF FF FF F0 00 00 00
 24.056581 1  41              Rx   d 8 00 00 00 00 00 00 00 00
 24.076499 1  41              Rx   d 8 00 00 00 00 00 00 00 00
 24.095856 1  41              Rx   d 8 00 00 00 00 00 00 00 00
 24.115474 1  41              Rx   d 8 00 00 00 00 00 00 00 00
 24.134594 1  23A             Rx   d 8 FF FF FF FF F0 00 00 00
 24.145988 1  242             Rx   d 8 FF FF 3F FF B5 00 03 01
 24.165417 1  42C             Rx   d 8 80 02 00 00 00 00 00 00
 24.184916 1  242             Rx   d 8 FF FF 3F FF B5 00 03 01
 24.214100 1  41              Rx   d 8 00 00 00 00 00 00 00 00
 24.214152 1  42C             Rx   d 8 80 02 00 00 00 00 00 00
 24.224246 1  242             Rx   d 8 FF FF 3F FF B5 00 03 01
 24.253170 1  41              Rx   d 8 00 00 00 00 00 00 00 00
 24.263941 1  242             Rx   d 8 FF FF 3F FF B5 00 03 01
 24.292444 1  41              Rx   d 8 00 00 00 00 00 00 00 00
 24.302899 1  242             Rx   d 8 FF FF 3F FF B5 00 03 01
 24.312423 1  41              Rx   d 8 00 00 00 00 00 00 00 00
 24.331807 1  41              Rx   d 8 00 00 00 00 00 00 00 00
 24.351435 1  41              Rx   d 8 00 00 00 00 00 00 00 00
 24.362012 1  3B6             Rx   d 8 0A 00 00 00 00 00 00 00
 24.381681 1  242             Rx   d 8 FF FF 3F FF B5 00 03 01
 24.390739 1  41              Rx   d 8 00 00 00 00 00 00 00 00
 24.410600 1  41              Rx   d 8 00 00 00 00 00 00 00 00
 24.421166 1  242             Rx   d 8 FF FF 3F FF B5 00 03 01
 24.449870 1  41              Rx   d 8 00 00 00 00 00 00 00 00
 24.460664 1  242             Rx   d 8 FF FF 3F FF B5 00 03 01
 24.489100 1  41              Rx   d 8 00 00 00 00 00 00 00 00
 24.499485 1  242             Rx   d 8 FF FF 3F FF B5 00 03 01
 24.508695 1  41              Rx   d 8 00 00 00 00 00 00 00 00
 24.528591 1  41              Rx   d 8 00 00 00 00 00 00 00 00
 24.538806 1  242             Rx   d 8 FF FF 3F FF B5 00 03 01
 24.558866 1  42C             Rx   d 8 80 02 00 00 00 00 00 00
 24.578179 1  242             Rx   d 8 FF FF 3F FF B5 00 03 01
 24.607037 1  41              Rx   d 8 00 00 00 00 00 00 00 00
 24.617494 1  242             Rx   d 8 FF FF 3F FF B5 00 03 01
 24.626668 1  41              Rx   d 8 00 00 00 00 00 00 00 00
 24.646487 1  41              Rx   d 8 00 00 00 00 00 00 00 00
 24.657320 1  242             Rx   d 8 FF FF 3F FF B5 00 03 01
 24.676014 1  84              Rx   d 8 00 00 00 01 02 22 0C 00
 24.696172 1  242             Rx   d 8 FF FF 3F FF B5 00 03 01
 24.724470 1  59E             Rx   d 8 9E 00 FF FF FF FF FF FF
 24.734973 1  23A             Rx   d 8 FF FF FF FF F0 00 00 00
 24.755312 1  42C             Rx   d 8 80 02 00 00 00 00 00 00
 24.774730 1  242             Rx   d 8 FF FF 3F FF B5 00 03 01
 24.783925 1  41              Rx   d 8 00 00 00 00 00 00 00 00
 24.803867 1  41              Rx   d 8 00 00 00 00 00 00 00 00
 24.814296 1  242             Rx   d 8 FF FF 3F FF B5 00 03 01
 24.834814 1  23A             Rx   d 8 FF FF FF FF F0 00 00 00
 24.853749 1  242             Rx   d 8 FF FF 3F FF B5 00 03 01
 24.862643 1  41              Rx   d 8 00 00 00 00 00 00 00 00
 24.882322 1  41              Rx   d 8 00 00 00 00 00 00 00 00
 24.902447 1  41              Rx   d 8 00 00 00 00 00 00 00 00
 24.921589 1  41              Rx   d 8 00 00 00 00 00 00 00 00
 24.935461 1  23A             Rx   d 8 FF FF FF FF F0 00 00 00
 24.952013 1  3C3             Rx   d 8 5C 80 10 C1 01 00 01 00
 24.971389 1  242             Rx   d 8 FF FF 3F FF B5 00 03 01
 25.000545 1  41              Rx   d 8 00 00 00 00 00 00 00 00
 25.010966 1  242             Rx   d 8 FF FF 3F FF B5 00 03 01
 25.035009 1  23A             Rx   d 8 FF FF FF FF F0 00 00 00
 25.050327 1  242             Rx   d 8 FF FF 3F FF B5 00 03 01
 25.059158 1  41              Rx   d 8 00 00 00 00 00 00 00 00
 25.078972 1  41              Rx   d 8 00 00 00 00 00 00 00 00
 25.098467 1  41              Rx   d 8 00 00 00 00 00 00 00 00
 25.118181 1  41              Rx   d 8 00 00 00 00 00 00 00 00
 25.134938 1  23A             Rx   d 8 FF FF FF FF F0 00 00 00
 25.148721 1  42C             Rx   d 8 80 02 00 00 00 00 00 00
 25.167944 1  242             Rx   d 8 FF FF 3F FF B5 00 03 01
 25.177402 1  41              Rx   d 8 00 00 00 00 00 00 00 00
 25.196855 1  41              Rx   d 8 00 00 00 00 00 00 00 00
 25.216689 1  41              Rx   d 8 00 00 00 00 00 00 00 00
 25.234965 1  23A             Rx   d 8 FF FF FF FF F0 00 00 00
 25.247248 1  242             Rx   d 8 FF FF 3F FF B5 00 03 01
 25.255773 1  41              Rx   d 8 00 00 00 00 00 00 00 00
 25.275569 1  41              Rx   d 8 00 00 00 00 00 00 00 00
 25.285953 1  242             Rx   d 8 FF FF 3F FF B5 00 03 01
 25.315143 1  41              Rx   d 8 00 00 00 00 00 00 00 00
 25.325259 1  242             Rx   d 8 FF FF 3F FF B5 00 03 01
 25.334964 1  23A             Rx   d 8 FF FF FF FF F0 00 00 00
 25.354369 1  41              Rx   d 8 00 00 00 00 00 00 00 00
 25.373697 1  41              Rx   d 8 00 00 00 00 00 00 00 00
 25.393435 1  41              Rx   d 8 00 00 00 00 00 00 00 00
 25.413152 1  41              Rx   d 8 00 00 00 00 00 00 00 00
 25.432708 1  41              Rx   d 8 00 00 00 00 00 00 00 00
 25.443652 1  242             Rx   d 8 FF FF 3F FF B5 00 03 01
 25.472053 1  41              Rx   d 8 00 00 00 00 00 00 00 00
 25.482621 1  242             Rx   d 8 FF FF 3F FF B5 00 03 01
 25.491967 1  41              Rx   d 8 00 00 00 00 00 00 00 00
 25.511380 1  41              Rx   d 8 00 00 00 00 00 00 00 00
 25.531010 1  41              Rx   d 8 00 00 00 00 00 00 00 00
 25.550851 1  41              Rx   d 8 00 00 00 00 00 00 00 00
 25.561306 1  242             Rx   d 8 FF FF 3F FF B5 00 03 01
 25.590563 1  41              Rx   d 8 00 00 00 00 00 00 00 00
 25.600448 1  242             Rx   d 8 FF FF 3F FF B5 00 03 01
 25.629573 1  41              Rx   d 8 00 00 00 00 00 00 00 00
 25.635139 1  23A             Rx   d 8 FF FF FF FF F0 00 00 00
 25.640122 1  242             Rx   d 8 FF FF 3F FF B5 00 03 01
 25.668648 1  41              Rx   d 8 00 00 00 00 00 00 00 00
 25.679112 1  84              Rx   d 8 00 00 00 01 02 23 0C 00
 25.707956 1  41              Rx   d 8 00 00 00 00 00 00 00 00
 25.718439 1  242             Rx   d 8 FF FF 3F FF B5 00 03 01
 25.735722 1  23A             Rx   d 8 FF FF FF FF F0 00 00 00
 25.757939 1  242             Rx   d 8 FF FF 3F FF B5 00 03 01
 25.767118 1  41              Rx   d 8 00 00 00 00 00 00 00 00
 25.786603 1  41              Rx   d 8 00 00 00 00 00 00 00 00
 25.806264 1  41              Rx   d 8 00 00 00 00 00 00 00 00
 25.822615 1  581             Rx   d 8 81 00 FF FF FF FF FF FF
 25.836691 1  242             Rx   d 8 FF FF 3F FF B5 00 03 01
 25.865644 1  41              Rx   d 8 00 00 00 00 00 00 00 00
 25.875690 1  242             Rx   d 8 FF FF 3F FF B5 00 03 01
 25.895125 1  3B5             Rx   d 8 FF FD FF FD FF FD FF FD
 25.915054 1  242             Rx   d 8 FF FF 3F FF B5 00 03 01
 25.935142 1  3B3             Rx   d 8 44 8C C0 0C E6 00 03 3E
 25.944043 1  41              Rx   d 8 00 00 00 00 00 00 00 00
 25.963655 1  41              Rx   d 8 00 00 00 00 00 00 00 00
 25.983192 1  41              Rx   d 8 00 00 00 00 00 00 00 00
 26.003090 1  41              Rx   d 8 00 00 00 00 00 00 00 00
 26.022616 1  41              Rx   d 8 00 00 00 00 00 00 00 00
 26.033608 1  242             Rx   d 8 FF FF 3F FF B5 00 03 01
 26.061868 1  41              Rx   d 8 00 00 00 00 00 00 00 00
 26.072612 1  242             Rx   d 8 FF FF 3F FF B5 00 03 01
 26.081482 1  41              Rx   d 8 00 00 00 00 00 00 00 00
 26.101221 1  41              Rx   d 8 00 00 00 00 00 00 00 00
 26.120764 1  41              Rx   d 8 00 00 00 00 00 00 00 00
 26.135879 1  23A             Rx   d 8 FF FF FF FF F0 00 00 00
 26.150955 1  242             Rx   d 8 FF FF 3F FF B5 00 03 01
 26.179830 1  41              Rx   d 8 00 00 00 00 00 00 00 00
 26.180006 1  42C             Rx   d 8 80 02 00 00 00 00 00 00
 26.190240 1  242             Rx   d 8 FF FF 3F FF B5 00 03 01
 26.219374 1  41              Rx   d 8 00 00 00 00 00 00 00 00
 26.229943 1  242             Rx   d 8 FF FF 3F FF B5 00 03 01
 26.258458 1  41              Rx   d 8 00 00 00 00 00 00 00 00
 26.268923 1  242             Rx   d 8 FF FF 3F FF B5 00 03 01
 26.297771 1  41              Rx   d 8 00 00 00 00 00 00 00 00
 26.308262 1  242             Rx   d 8 FF FF 3F FF B5 00 03 01
 26.317513 1  41              Rx   d 8 00 00 00 00 00 00 00 00
 26.335499 1  23A             Rx   d 8 FF FF FF FF F0 00 00 00
 26.356975 1  41              Rx   d 8 00 00 00 00 00 00 00 00
 26.376398 1  41              Rx   d 8 00 00 00 00 00 00 00 00
 26.387044 1  242             Rx   d 8 FF FF 3F FF B5 00 03 01
 26.415993 1  41              Rx   d 8 00 00 00 00 00 00 00 00
 26.426972 1  242             Rx   d 8 FF FF 3F FF B5 00 03 01
 26.427022 1  3B3             Rx   d 8 44 8C C0 0C E6 00 03 3E
 26.455427 1  41              Rx   d 8 00 00 00 00 00 00 00 00
 26.465511 1  242             Rx   d 8 FF FF 3F FF B5 00 03 01
 26.494592 1  41              Rx   d 8 00 00 00 00 00 00 00 00
 26.504818 1  242             Rx   d 8 FF FF 3F FF B5 00 03 01
 26.513996 1  41              Rx   d 8 00 00 00 00 00 00 00 00
 26.533714 1  41              Rx   d 8 00 00 00 00 00 00 00 00
 26.544318 1  242             Rx   d 8 FF FF 3F FF B5 00 03 01
 26.572985 1  41              Rx   d 8 00 00 00 00 00 00 00 00
 26.583456 1  242             Rx   d 8 FF FF 3F FF B5 00 03 01
 26.612396 1  41              Rx   d 8 00 00 00 00 00 00 00 00
 26.623346 1  242             Rx   d 8 FF FF 3F FF B5 00 03 01
 26.632048 1  41              Rx   d 8 00 00 00 00 00 00 00 00
 26.651680 1  41              Rx   d 8 00 00 00 00 00 00 00 00
 26.671281 1  41              Rx   d 8 00 00 00 00 00 00 00 00
 26.691053 1  41              Rx   d 8 00 00 00 00 00 00 00 00
 26.701564 1  242             Rx   d 8 FF FF 3F FF B5 00 03 01
 26.721194 1  42C             Rx   d 8 80 02 00 00 00 00 00 00
 26.736059 1  23A             Rx   d 8 FF FF FF FF F0 00 00 00
 26.769789 1  41              Rx   d 8 00 00 00 00 00 00 00 00
 26.780275 1  242             Rx   d 8 FF FF 3F FF B5 00 03 01
 26.789296 1  41              Rx   d 8 00 00 00 00 00 00 00 00
 26.805648 1  581             Rx   d 8 81 00 FF FF FF FF FF FF
 26.819753 1  242             Rx   d 8 FF FF 3F FF B5 00 03 01
 26.836014 1  23A             Rx   d 8 FF FF FF FF F0 00 00 00
 26.848383 1  41              Rx   d 8 00 00 00 00 00 00 00 00
 26.858744 1  242             Rx   d 8 FF FF 3F FF B5 00 03 01
 26.877995 1  3B5             Rx   d 8 FF FD FF FD FF FD FF FD
 26.898055 1  242             Rx   d 8 FF FF 3F FF B5 00 03 01
 26.917739 1  3B3             Rx   d 8 44 8C C0 0C E6 00 03 3E
 26.936052 1  23A             Rx   d 8 FF FF FF FF F0 00 00 00
 26.946986 1  41              Rx   d 8 00 00 00 00 00 00 00 00
 26.966208 1  41              Rx   d 8 00 00 00 00 00 00 00 00
 26.976840 1  242             Rx   d 8 FF FF 3F FF B5 00 03 01
 26.985830 1  41              Rx   d 8 00 00 00 00 00 00 00 00
 27.005890 1  41              Rx   d 8 00 00 00 00 00 00 00 00
 27.016679 1  242             Rx   d 8 FF FF 3F FF B5 00 03 01
 27.035966 1  23A             Rx   d 8 FF FF FF FF F0 00 00 00
 27.055313 1  242             Rx   d 8 FF FF 3F FF B5 00 03 01
 27.064678 1  331             Rx   d 8 C0 00 48 F0 02 00 00 00
 27.084188 1  41              Rx   d 8 00 00 00 00 00 00 00 00
 27.103816 1  41              Rx   d 8 00 00 00 00 00 00 00 00
 27.114456 1  42C             Rx   d 8 80 02 00 00 00 00 00 00
 27.133937 1  242             Rx   d 8 FF FF 3F FF B5 00 03 01
 27.162782 1  41              Rx   d 8 00 00 00 00 00 00 00 00
 27.173257 1  242             Rx   d 8 FF FF 3F FF B5 00 03 01
 27.202131 1  41              Rx   d 8 00 00 00 00 00 00 00 00
 27.212916 1  242             Rx   d 8 FF FF 3F FF B5 00 03 01
 27.213069 1  40A             Rx   d 8 C1 04 01 8A 07 54 85 41
 27.236038 1  23A             Rx   d 8 FF FF FF FF F0 00 00 00
 27.252074 1  242             Rx   d 8 FF FF 3F FF B5 00 03 01
 27.261360 1  41              Rx   d 8 00 00 00 00 00 00 00 00
 27.280770 1  41              Rx   d 8 00 00 00 00 00 00 00 00
 27.291417 1  242             Rx   d 8 FF FF 3F FF B5 00 03 01
 27.310980 1  3B6             Rx   d 8 0A 00 00 00 00 00 00 00
 27.330684 1  242             Rx   d 8 FF FF 3F FF B5 00 03 01
 27.335997 1  23A             Rx   d 8 FF FF FF FF F0 00 00 00
 27.359604 1  41              Rx   d 8 00 00 00 00 00 00 00 00
 27.369855 1  242             Rx   d 8 FF FF 3F FF B5 00 03 01
 27.379021 1  41              Rx   d 8 00 00 00 00 00 00 00 00
 27.398993 1  41              Rx   d 8 00 00 00 00 00 00 00 00
 27.409512 1  242             Rx   d 8 FF FF 3F FF B5 00 03 01
 27.418345 1  41              Rx   d 8 00 00 00 00 00 00 00 00
 27.436418 1  23A             Rx   d 8 FF FF FF FF F0 00 00 00
 27.457891 1  41              Rx   d 8 00 00 00 00 00 00 00 00
 27.477332 1  41              Rx   d 8 00 00 00 00 00 00 00 00
 27.487829 1  242             Rx   d 8 FF FF 3F FF B5 00 03 01
 27.507612 1  42C             Rx   d 8 80 02 00 00 00 00 00 00
 27.527271 1  242             Rx   d 8 FF FF 3F FF B5 00 03 01
 27.536918 1  41              Rx   d 8 00 00 00 00 00 00 00 00
 27.556026 1  41              Rx   d 8 00 00 00 00 00 00 00 00
 27.575625 1  41              Rx   d 8 00 00 00 00 00 00 00 00
 27.595478 1  41              Rx   d 8 00 00 00 00 00 00 00 00
 27.606401 1  242             Rx   d 8 FF FF 3F FF B5 00 03 01
 27.606434 1  40A             Rx   d 8 C0 00 00 23 60 A4 CE 00
 27.634670 1  41              Rx   d 8 00 00 00 00 00 00 00 00
 27.636263 1  23A             Rx   d 8 FF FF FF FF F0 00 00 00
 27.654297 1  41              Rx   d 8 00 00 00 00 00 00 00 00
 27.673982 1  41              Rx   d 8 00 00 00 00 00 00 00 00
 27.684368 1  242             Rx   d 8 FF FF 3F FF B5 00 03 01
 27.704281 1  42C             Rx   d 8 80 02 00 00 00 00 00 00
 27.723730 1  242             Rx   d 8 FF FF 3F FF B5 00 03 01
 27.737150 1  434             Rx   d 8 00 00 00 00 0F FF 00 10
 27.763262 1  242             Rx   d 8 FF FF 3F FF B5 00 03 01
 27.772545 1  41              Rx   d 8 00 00 00 00 00 00 00 00
 27.791944 1  41              Rx   d 8 00 00 00 00 00 00 00 00
 27.808672 1  40A             Rx   d 8 C1 00 57 46 30 4A 58 58
 27.831419 1  41              Rx   d 8 00 00 00 00 00 00 00 00
 27.842260 1  242             Rx   d 8 FF FF 3F FF B5 00 03 01
 27.861100 1  3B5             Rx   d 8 FF FD FF FD FF FD FF FD
 27.874160 1  47              Rx   d 8 64 22 BC F4 3B 98 00 00
 27.890418 1  41              Rx   d 8 00 00 00 00 00 00 00 00
 27.920680 1  242             Rx   d 8 FF FF 3F FF B5 00 03 01
 27.944267 1  167             Rx   d 8 00 FF FF 00 00 02 0F 00
 27.954278 1  47              Rx   d 8 64 22 BC F4 3B 98 00 00
 27.968873 1  41              Rx   d 8 00 00 00 00 00 00 00 00
 27.984509 1  166             Rx   d 8 76 00 00 FF FF FF 00 00
 27.999603 1  242             Rx   d 8 FF FF 3F FF B5 00 03 01
 28.024363 1  156             Rx   d 8 BA 00 00 00 00 00 00 00
 28.033930 1  47              Rx   d 8 64 22 BC F4 3B 98 00 00
 28.054105 1  47              Rx   d 8 64 22 BC F4 3B 98 00 00
 28.064029 1  167             Rx   d 8 00 FF FF 00 00 02 0F 00
 28.077611 1  242             Rx   d 8 FF FF 3F FF B5 00 03 01
 28.097570 1  42C             Rx   d 8 80 02 00 00 00 00 00 00
 28.114011 1  47              Rx   d 8 64 22 BC F4 3B 98 00 00
 28.126500 1  41              Rx   d 8 00 00 00 00 00 00 00 00
 28.144004 1  167             Rx   d 8 00 FF FF 00 00 02 0F 00
 28.164281 1  167             Rx   d 8 00 FF FF 00 00 02 0F 00
 28.165585 1  41              Rx   d 8 00 00 00 00 00 00 00 00
 28.184121 1  166             Rx   d 8 76 00 00 FF FF FF 00 00
 28.203964 1  167             Rx   d 8 00 FF FF 00 00 02 0F 00
 28.224201 1  156             Rx   d 8 BA 00 00 00 00 00 00 00
 28.233969 1  47              Rx   d 8 64 22 BC F4 3B 98 00 00
 28.254184 1  47              Rx   d 8 64 22 BC F4 3B 98 00 00
 28.273966 1  47              Rx   d 8 64 22 BC F4 3B 98 00 00
 28.294094 1  47              Rx   d 8 64 22 BC F4 3B 98 00 00
 28.294133 1  165             Rx   d 8 20 81 00 00 00 00 00 00
 28.313550 1  242             Rx   d 8 FF FF 3F FF B5 00 03 01
 28.325218 1  17C             Rx   d 8 00 00 00 00 00 00 00 00
 28.352892 1  242             Rx   d 8 FF FF 3F FF B5 00 03 01
 28.362352 1  41              Rx   d 8 00 00 00 00 00 00 00 00
 28.381893 1  41              Rx   d 8 00 00 00 00 00 00 00 00
 28.401564 1  41              Rx   d 8 00 00 00 00 00 00 00 00
 28.421223 1  41              Rx   d 8 00 00 00 00 00 00 00 00
 28.435655 1  43D             Rx   d 8 14 00 21 00 00 00 00 00
 28.454648 1  200             Rx   d 8 00 00 80 26 80 26 F0 00
 28.460520 1  41              Rx   d 8 00 00 00 00 00 00 00 00
 28.464195 1  167             Rx   d 8 00 FF FF 00 00 02 0F 00
 28.464236 1  204             Rx   d 8 00 00 FF 00 00 00 00 00
 28.471225 1  242             Rx   d 8 FF FF 3F FF B5 00 03 01
 28.473971 1  47              Rx   d 8 64 22 BC F4 3B 98 00 00
 28.474149 1  165             Rx   d 8 20 81 00 00 00 00 00 00
 28.474371 1  167             Rx   d 8 00 FF FF 00 00 02 0F 00
 28.474669 1  171             Rx   d 8 F0 E0 00 00 00 00 00 00
 28.474930 1  200             Rx   d 8 00 00 80 26 80 26 F0 00
 28.475107 1  202             Rx   d 8 00 CC 00 00 00 00 00 00
 28.475471 1  204             Rx   d 8 00 00 FF 00 00 00 00 00
 28.475925 1  230             Rx   d 8 F0 1C 00 00 00 00 00 00
 28.485373 1  43D             Rx   d 8 14 00 21 00 00 00 00 00
 28.504305 1  167             Rx   d 8 00 FF FF 00 00 02 0F 00
 28.523962 1  156             Rx   d 8 BA 00 00 00 00 00 00 00
 28.544413 1  167             Rx   d 8 00 FF FF 00 00 02 0F 00
 28.558782 1  41              Rx   d 8 00 00 00 00 00 00 00 00
 28.578696 1  41              Rx   d 8 00 00 00 00 00 00 00 00
 28.593970 1  47              Rx   d 8 64 22 BC F4 3B 98 00 00
 28.614264 1  47              Rx   d 8 64 22 BC F4 3B 98 00 00
 28.633963 1  47              Rx   d 8 64 22 BC F4 3B 98 00 00
 28.644135 1  167             Rx   d 8 00 FF FF 00 00 02 0F 00
 28.653967 1  47              Rx   d 8 64 22 BC F4 3B 98 00 00
 28.667553 1  242             Rx   d 8 FF FF 3F FF B5 00 03 01
 28.684240 1  166             Rx   d 8 76 00 00 FF FF FF 00 00
 28.693954 1  47              Rx   d 8 64 22 BC F4 3B 98 00 00
 28.714089 1  47              Rx   d 8 64 22 BC F4 3B 98 00 00
 28.723982 1  156             Rx   d 8 BA 00 00 00 00 00 00 00
 28.733964 1  47              Rx   d 8 64 22 BC F4 3B 98 00 00
 28.747207 1  242             Rx   d 8 FF FF 3F FF B5 00 03 01
 28.763974 1  167             Rx   d 8 00 FF FF 00 00 02 0F 00
 28.784013 1  166             Rx   d 8 76 00 00 FF FF FF 00 00
 28.793928 1  47              Rx   d 8 64 22 BC F4 3B 98 00 00
 28.804019 1  167             Rx   d 8 00 FF FF 00 00 02 0F 00
 28.804193 1  171             Rx   d 8 F0 E0 00 00 00 00 00 00
 28.804425 1  204             Rx   d 8 00 00 FF 00 00 00 00 00
 28.804633 1  42F             Rx   d 8 7D 02 05 4E 20 FF 00 00
 28.814165 1  47              Rx   d 8 64 22 BC F4 3B 98 00 00
 28.814208 1  165             Rx   d 8 20 81 00 00 00 00 00 00
 28.814446 1  41              Rx   d 8 00 00 00 00 00 00 00 00
 28.814933 1  167             Rx   d 8 00 FF FF 00 00 02 0F 00
 28.814951 1  200             Rx   d 8 00 00 80 26 80 26 F0 00
 28.815108 1  202             Rx   d 8 00 CC 00 00 00 00 00 00
 28.815401 1  204             Rx   d 8 00 00 FF 00 00 00 00 00
 28.815625 1  230             Rx   d 8 F0 1C 00 00 00 00 00 00
 28.824294 1  156             Rx   d 8 BA 00 00 00 00 00 00 00
 28.824349 1  167             Rx   d 8 00 FF FF 00 00 02 0F 00
 28.824749 1  178             Rx   d 8 00 00 02 00 02 54 CA 53
 28.824783 1  179             Rx   d 8 00 00 08 00 22 FF 00 00
 28.833941 1  47              Rx   d 8 64 22 BC F4 3B 98 00 00
 28.843995 1  167             Rx   d 8 00 FF FF 00 00 02 0F 00
 28.853660 1  41              Rx   d 8 00 00 00 00 00 00 00 00
 28.865003 1  242             Rx   d 8 FF FF 3F FF B5 00 03 01
 28.883922 1  3B3             Rx   d 8 44 8C C0 0C E6 00 03 3E
 28.894893 1  200             Rx   d 8 00 00 80 26 80 26 F0 00
 28.903477 1  242             Rx   d 8 FF FF 3F FF B5 00 03 01
 28.914149 1  165             Rx   d 8 20 81 00 00 00 00 00 00
 28.924132 1  156             Rx   d 8 BA 00 00 00 00 00 00 00
 28.934373 1  167             Rx   d 8 00 FF FF 00 00 02 0F 00
 28.951924 1  41              Rx   d 8 00 00 00 00 00 00 00 00
 28.964139 1  167             Rx   d 8 00 FF FF 00 00 02 0F 00
 28.971555 1  41              Rx   d 8 00 00 00 00 00 00 00 00
 28.982470 1  242             Rx   d 8 FF FF 3F FF B5 00 03 01
 28.984609 1  204             Rx   d 8 00 00 FF 00 00 00 00 00
 28.991493 1  41              Rx   d 8 00 00 00 00 00 00 00 00
 29.010975 1  41              Rx   d 8 00 00 00 00 00 00 00 00
 29.023912 1  156             Rx   d 8 BA 00 00 00 00 00 00 00
 29.034657 1  200             Rx   d 8 00 00 80 26 80 26 F0 00
 29.053947 1  47              Rx   d 8 64 22 BC F4 3B 98 00 00
 29.069907 1  41              Rx   d 8 00 00 00 00 00 00 00 00
 29.074418 1  47              Rx   d 8 64 22 BC F4 3B 98 00 00
 29.084358 1  204             Rx   d 8 00 00 FF 00 00 00 00 00
 29.100355 1  242             Rx   d 8 FF FF 3F FF B5 00 03 01
 29.109432 1  41              Rx   d 8 00 00 00 00 00 00 00 00
 29.123989 1  156             Rx   d 8 BA 00 00 00 00 00 00 00
 29.134156 1  47              Rx   d 8 64 22 BC F4 3B 98 00 00
 29.144315 1  167             Rx   d 8 00 FF FF 00 00 02 0F 00
 29.153922 1  47              Rx   d 8 64 22 BC F4 3B 98 00 00
 29.168385 1  41              Rx   d 8 00 00 00 00 00 00 00 00
 29.174248 1  47              Rx   d 8 64 22 BC F4 3B 98 00 00
 29.187881 1  41              Rx   d 8 00 00 00 00 00 00 00 00
 29.194098 1  47              Rx   d 8 64 22 BC F4 3B 98 00 00
 29.207678 1  41              Rx   d 8 00 00 00 00 00 00 00 00
 29.223998 1  156             Rx   d 8 BA 00 00 00 00 00 00 00
 29.237797 1  23A             Rx   d 8 FF FF FF FF F0 00 00 00
 29.244117 1  167             Rx   d 8 00 FF FF 00 00 02 0F 00
 29.253962 1  47              Rx   d 8 64 22 BC F4 3B 98 00 00
 29.263979 1  167             Rx   d 8 00 FF FF 00 00 02 0F 00
 29.277058 1  3B6             Rx   d 8 0A 00 00 00 00 00 00 00
 29.293943 1  47              Rx   d 8 64 22 BC F4 3B 98 00 00
 29.305845 1  41              Rx   d 8 00 00 00 00 00 00 00 00
 29.323964 1  156             Rx   d 8 BA 00 00 00 00 00 00 00
 29.333963 1  47              Rx   d 8 64 22 BC F4 3B 98 00 00
 29.334116 1  165             Rx   d 8 20 81 00 00 00 00 00 00
 29.343953 1  167             Rx   d 8 00 FF FF 00 00 02 0F 00
 29.363952 1  167             Rx   d 8 00 FF FF 00 00 02 0F 00
 29.373954 1  47              Rx   d 8 64 22 BC F4 3B 98 00 00
 29.386052 1  42D             Rx   d 8 00 03 FF 00 00 00 F0 00
 29.404000 1  167             Rx   d 8 00 FF FF 00 00 02 0F 00
 29.414196 1  47              Rx   d 8 64 22 BC F4 3B 98 00 00
 29.424132 1  41              Rx   d 8 00 00 00 00 00 00 00 00
 29.433964 1  47              Rx   d 8 64 22 BC F4 3B 98 00 00
 29.443701 1  41              Rx   d 8 00 00 00 00 00 00 00 00
 29.463431 1  41              Rx   d 8 00 00 00 00 00 00 00 00
 29.473585 1  42C             Rx   d 8 80 02 00 00 00 00 00 00
 29.482841 1  41              Rx   d 8 00 00 00 00 00 00 00 00
 29.493886 1  47              Rx   d 8 64 22 BC F4 3B 98 00 00
 29.522406 1  41              Rx   d 8 00 00 00 00 00 00 00 00
 29.532829 1  242             Rx   d 8 FF FF 3F FF B5 00 03 01
 29.534150 1  47              Rx   d 8 64 22 BC F4 3B 98 00 00
 29.534172 1  165             Rx   d 8 20 81 00 00 00 00 00 00
 29.534367 1  167             Rx   d 8 00 FF FF 00 00 02 0F 00
 29.534591 1  200             Rx   d 8 00 00 80 26 80 26 F0 00
 29.535365 1  230             Rx   d 8 F0 1C 00 00 00 00 00 00
 29.538186 1  23A             Rx   d 8 FF FF FF FF F0 00 00 00
 29.538387 1  430             Rx   d 8 00 00 00 00 FE 00 00 00
 29.538648 1  434             Rx   d 8 00 00 00 00 0F FF 00 10
 29.538893 1  435             Rx   d 8 00 00 00 00 00 00 00 00
 29.541926 1  41              Rx   d 8 00 00 00 00 00 00 00 00
 29.542122 1  331             Rx   d 8 C0 00 48 F3 02 00 00 00
 29.543948 1  167             Rx   d 8 00 FF FF 00 00 02 0F 00
 29.555229 1  202             Rx   d 8 00 CC 00 00 00 00 00 00
 29.572117 1  242             Rx   d 8 FF FF 3F FF B5 00 03 01
 29.574862 1  202             Rx   d 8 00 CC 00 00 00 00 00 00
 29.594268 1  47              Rx   d 8 64 22 BC F4 3B 98 00 00
 29.594710 1  167             Rx   d 8 00 FF FF 00 00 02 0F 00
 29.604117 1  167             Rx   d 8 00 FF FF 00 00 02 0F 00
 29.615331 1  204             Rx   d 8 00 00 FF 00 00 00 00 00
 29.640159 1  41              Rx   d 8 00 00 00 00 00 00 00 00
 29.664167 1  167             Rx   d 8 00 FF FF 00 00 02 0F 00
 29.670501 1  42C             Rx   d 8 80 02 00 00 00 00 00 00
 29.689910 1  242             Rx   d 8 FF FF 3F FF B5 00 03 01
 29.713938 1  47              Rx   d 8 64 22 BC F4 3B 98 00 00
 29.714081 1  165             Rx   d 8 20 81 00 00 00 00 00 00
 29.723960 1  156             Rx   d 8 BA 00 00 00 00 00 00 00
 29.734118 1  47              Rx   d 8 64 22 BC F4 3B 98 00 00
 29.743980 1  167             Rx   d 8 00 FF FF 00 00 02 0F 00
 29.755342 1  230             Rx   d 8 F0 1C 00 00 00 00 00 00
 29.764223 1  167             Rx   d 8 00 FF FF 00 00 02 0F 00
 29.764804 1  204             Rx   d 8 00 00 FF 00 00 00 00 00
 29.774684 1  47              Rx   d 8 64 22 BC F4 3B 98 00 00
 29.785142 1  42D             Rx   d 8 00 03 FF 00 00 00 F0 00
 29.793987 1  47              Rx   d 8 64 22 BC F4 3B 98 00 00
 29.794319 1  165             Rx   d 8 20 81 00 00 00 00 00 00
 29.794883 1  200             Rx   d 8 00 00 80 26 80 26 F0 00
 29.804266 1  167             Rx   d 8 00 FF FF 00 00 02 0F 00
 29.804311 1  204             Rx   d 8 00 00 FF 00 00 00 00 00
 29.807943 1  242             Rx   d 8 FF FF 3F FF B5 00 03 01
 29.823958 1  156             Rx   d 8 BA 00 00 00 00 00 00 00
 29.836725 1  41              Rx   d 8 00 00 00 00 00 00 00 00
 29.844176 1  167             Rx   d 8 00 FF FF 00 00 02 0F 00
 29.863951 1  167             Rx   d 8 00 FF FF 00 00 02 0F 00
 29.883954 1  166             Rx   d 8 76 00 00 FF FF FF 00 00
 29.904135 1  167             Rx   d 8 00 FF FF 00 00 02 0F 00
 29.914227 1  47              Rx   d 8 64 22 BC F4 3B 98 00 00
 29.923967 1  156             Rx   d 8 BA 00 00 00 00 00 00 00
 29.935663 1  230             Rx   d 8 F0 1C 00 00 00 00 00 00
 29.953940 1  47              Rx   d 8 64 22 BC F4 3B 98 00 00
 29.963972 1  167             Rx   d 8 00 FF FF 00 00 02 0F 00
 29.974887 1  171             Rx   d 8 F0 E0 00 00 00 00 00 00
 29.984242 1  166             Rx   d 8 76 00 00 FF FF FF 00 00
 30.003958 1  167             Rx   d 8 00 FF FF 00 00 02 0F 00
 30.013746 1  41              Rx   d 8 00 00 00 00 00 00 00 00
 30.013788 1  331             Rx   d 8 C0 00 48 F3 02 00 00 00
 30.023957 1  156             Rx   d 8 BA 00 00 00 00 00 00 00
 30.036066 1  43D             Rx   d 8 14 00 21 00 00 00 00 00
 30.052877 1  41              Rx   d 8 00 00 00 00 00 00 00 00
 30.072513 1  41              Rx   d 8 00 00 00 00 00 00 00 00
 30.083119 1  242             Rx   d 8 FF FF 3F FF B5 00 03 01
 30.092422 1  41              Rx   d 8 00 00 00 00 00 00 00 00
 30.103956 1  167             Rx   d 8 00 FF FF 00 00 02 0F 00
 30.122660 1  242             Rx   d 8 FF FF 3F FF B5 00 03 01
 30.135575 1  43D             Rx   d 8 14 00 21 00 00 00 00 00
 30.144112 1  167             Rx   d 8 00 FF FF 00 00 02 0F 00
 30.151355 1  41              Rx   d 8 00 00 00 00 00 00 00 00
 30.163868 1  167             Rx   d 8 00 FF FF 00 00 02 0F 00
 30.170789 1  41              Rx   d 8 00 00 00 00 00 00 00 00
 30.184158 1  166             Rx   d 8 76 00 00 FF FF FF 00 00
 30.195317 1  230             Rx   d 8 F0 1C 00 00 00 00 00 00
 30.210068 1  41              Rx   d 8 00 00 00 00 00 00 00 00
 30.229877 1  41              Rx   d 8 00 00 00 00 00 00 00 00
 30.240484 1  242             Rx   d 8 FF FF 3F FF B5 00 03 01
 30.249717 1  41              Rx   d 8 00 00 00 00 00 00 00 00
 30.255368 1  230             Rx   d 8 F0 1C 00 00 00 00 00 00
 30.273970 1  47              Rx   d 8 64 22 BC F4 3B 98 00 00
 30.283956 1  166             Rx   d 8 76 00 00 FF FF FF 00 00
 30.289018 1  41              Rx   d 8 00 00 00 00 00 00 00 00
 30.303957 1  167             Rx   d 8 00 FF FF 00 00 02 0F 00
 30.313926 1  47              Rx   d 8 64 22 BC F4 3B 98 00 00
 30.328354 1  41              Rx   d 8 00 00 00 00 00 00 00 00
 30.334207 1  47              Rx   d 8 64 22 BC F4 3B 98 00 00
 30.343927 1  167             Rx   d 8 00 FF FF 00 00 02 0F 00
 30.355393 1  230             Rx   d 8 F0 1C 00 00 00 00 00 00
 30.358682 1  242             Rx   d 8 FF FF 3F FF B5 00 03 01
 30.373921 1  47              Rx   d 8 64 22 BC F4 3B 98 00 00
 30.383958 1  166             Rx   d 8 76 00 00 FF FF FF 00 00
 30.397840 1  242             Rx   d 8 FF FF 3F FF B5 00 03 01
 30.404223 1  167             Rx   d 8 00 FF FF 00 00 02 0F 00
 30.423980 1  156             Rx   d 8 BA 00 00 00 00 00 00 00
 30.433982 1  47              Rx   d 8 64 22 BC F4 3B 98 00 00
 30.443942 1  167             Rx   d 8 00 FF FF 00 00 02 0F 00
 30.453962 1  47              Rx   d 8 64 22 BC F4 3B 98 00 00
 30.464164 1  167             Rx   d 8 00 FF FF 00 00 02 0F 00
 30.475319 1  230             Rx   d 8 F0 1C 00 00 00 00 00 00
 30.493950 1  47              Rx   d 8 64 22 BC F4 3B 98 00 00
 30.504113 1  167             Rx   d 8 00 FF FF 00 00 02 0F 00
 30.513930 1  47              Rx   d 8 64 22 BC F4 3B 98 00 00
 30.534075 1  47              Rx   d 8 64 22 BC F4 3B 98 00 00
 30.553951 1  47              Rx   d 8 64 22 BC F4 3B 98 00 00
 30.563973 1  167             Rx   d 8 00 FF FF 00 00 02 0F 00
 30.574072 1  47              Rx   d 8 64 22 BC F4 3B 98 00 00
 30.583778 1  41              Rx   d 8 00 00 00 00 00 00 00 00
 30.595575 1  242             Rx   d 8 FF FF 3F FF B5 00 03 01
 30.614237 1  47              Rx   d 8 64 22 BC F4 3B 98 00 00
 30.623120 1  41              Rx   d 8 00 00 00 00 00 00 00 00
 30.634608 1  171             Rx   d 8 F0 E0 00 00 00 00 00 00
 30.643919 1  167             Rx   d 8 00 FF FF 00 00 02 0F 00
 30.662441 1  41              Rx   d 8 00 00 00 00 00 00 00 00
 30.672858 1  242             Rx   d 8 FF FF 3F FF B5 00 03 01
 30.682431 1  41              Rx   d 8 00 00 00 00 00 00 00 00
 30.701741 1  41              Rx   d 8 00 00 00 00 00 00 00 00
 30.712473 1  242             Rx   d 8 FF FF 3F FF B5 00 03 01
 30.721372 1  41              Rx   d 8 00 00 00 00 00 00 00 00
 30.737673 1  581             Rx   d 8 81 00 FF FF FF FF FF FF
 30.752514 1  242             Rx   d 8 FF FF 3F FF B5 00 03 01
 30.752767 1  3B6             Rx   d 8 0A 00 00 00 00 00 00 00
 30.774134 1  47              Rx   d 8 64 22 BC F4 3B 98 00 00
 30.774179 1  165             Rx   d 8 20 81 00 00 00 00 00 00
 30.784873 1  421             Rx   d 8 04 00 11 00 00 00 FF 00
 30.793954 1  47              Rx   d 8 64 22 BC F4 3B 98 00 00
 30.810007 1  3B5             Rx   d 8 FF FD FF FD FF FD FF FD
 30.824262 1  156             Rx   d 8 BA 00 00 00 00 00 00 00
 30.844160 1  167             Rx   d 8 00 FF FF 00 00 02 0F 00
 30.863912 1  167             Rx   d 8 00 FF FF 00 00 02 0F 00
 30.893915 1  47              Rx   d 8 64 22 BC F4 3B 98 00 00
 30.914099 1  47              Rx   d 8 64 22 BC F4 3B 98 00 00
 30.933918 1  47              Rx   d 8 64 22 BC F4 3B 98 00 00
 30.948817 1  242             Rx   d 8 FF FF 3F FF B5 00 03 01
 30.973928 1  47              Rx   d 8 64 22 BC F4 3B 98 00 00
 30.994163 1  47              Rx   d 8 64 22 BC F4 3B 98 00 00
 31.003953 1  167             Rx   d 8 00 FF FF 00 00 02 0F 00
 31.024117 1  156             Rx   d 8 BA 00 00 00 00 00 00 00
 31.038669 1  23A             Rx   d 8 FF FF FF FF F0 00 00 00
 31.055334 1  204             Rx   d 8 00 00 FF 00 00 00 00 00
 31.073933 1  47              Rx   d 8 64 22 BC F4 3B 98 00 00
 31.093986 1  47              Rx   d 8 64 22 BC F4 3B 98 00 00
 31.113915 1  47              Rx   d 8 64 22 BC F4 3B 98 00 00
 31.133968 1  47              Rx   d 8 64 22 BC F4 3B 98 00 00
 31.145705 1  42C             Rx   d 8 80 02 00 00 00 00 00 00
 31.164070 1  167             Rx   d 8 00 FF FF 00 00 02 0F 00
 31.183918 1  166             Rx   d 8 76 00 00 FF FF FF 00 00
 31.203987 1  167             Rx   d 8 00 FF FF 00 00 02 0F 00
 31.223461 1  242             Rx   d 8 FF FF 3F FF B5 00 03 01
 31.232573 1  41              Rx   d 8 00 00 00 00 00 00 00 00
 31.252381 1  41              Rx   d 8 00 00 00 00 00 00 00 00
 31.264187 1  171             Rx   d 8 F0 E0 00 00 00 00 00 00
 31.283905 1  166             Rx   d 8 76 00 00 FF FF FF 00 00
 31.302193 1  242             Rx   d 8 FF FF 3F FF B5 00 03 01
 31.324077 1  156             Rx   d 8 BA 00 00 00 00 00 00 00
 31.341895 1  242             Rx   d 8 FF FF 3F FF B5 00 03 01
 31.364084 1  167             Rx   d 8 00 FF FF 00 00 02 0F 00
 31.380611 1  242             Rx   d 8 FF FF 3F FF B5 00 03 01
 31.403999 1  167             Rx   d 8 00 FF FF 00 00 02 0F 00
 31.413851 1  47              Rx   d 8 64 22 BC F4 3B 98 00 00
 31.434114 1  47              Rx   d 8 64 22 BC F4 3B 98 00 00
 31.443966 1  167             Rx   d 8 00 FF FF 00 00 02 0F 00
 31.464082 1  167             Rx   d 8 00 FF FF 00 00 02 0F 00
 31.483959 1  166             Rx   d 8 76 00 00 FF FF FF 00 00
 31.498775 1  242             Rx   d 8 FF FF 3F FF B5 00 03 01
 31.513937 1  47              Rx   d 8 64 22 BC F4 3B 98 00 00
 31.534132 1  47              Rx   d 8 64 22 BC F4 3B 98 00 00
 31.547463 1  41              Rx   d 8 00 00 00 00 00 00 00 00
 31.563974 1  167             Rx   d 8 00 FF FF 00 00 02 0F 00
 31.583936 1  166             Rx   d 8 76 00 00 FF FF FF 00 00
 31.604081 1  167             Rx   d 8 00 FF FF 00 00 02 0F 00
 31.623942 1  156             Rx   d 8 BA 00 00 00 00 00 00 00
 31.635435 1  230             Rx   d 8 F0 1C 00 00 00 00 00 00
 31.654801 1  200             Rx   d 8 00 00 80 26 80 26 F0 00
 31.674054 1  47              Rx   d 8 64 22 BC F4 3B 98 00 00
 31.693900 1  47              Rx   d 8 64 22 BC F4 3B 98 00 00
 31.714077 1  47              Rx   d 8 64 22 BC F4 3B 98 00 00
 31.727883 1  59E             Rx   d 8 9E 00 FF FF FF FF FF FF
 31.743807 1  41              Rx   d 8 00 00 00 00 00 00 00 00
 31.763425 1  41              Rx   d 8 00 00 00 00 00 00 00 00
 31.773746 1  242             Rx   d 8 FF FF 3F FF B5 00 03 01
 31.793343 1  3B5             Rx   d 8 FF FD FF FD FF FD FF FD
 31.813103 1  242             Rx   d 8 FF FF 3F FF B5 00 03 01
 31.832855 1  3B3             Rx   d 8 44 8C C0 0C E6 00 03 3E
 31.852557 1  242             Rx   d 8 FF FF 3F FF B5 00 03 01
 31.863880 1  167             Rx   d 8 00 FF FF 00 00 02 0F 00
 31.881482 1  41              Rx   d 8 00 00 00 00 00 00 00 00
 31.893902 1  47              Rx   d 8 64 22 BC F4 3B 98 00 00
 31.913975 1  47              Rx   d 8 64 22 BC F4 3B 98 00 00
 31.923990 1  156             Rx   d 8 BA 00 00 00 00 00 00 00
 31.943919 1  167             Rx   d 8 00 FF FF 00 00 02 0F 00
 31.960122 1  41              Rx   d 8 00 00 00 00 00 00 00 00
 31.979631 1  41              Rx   d 8 00 00 00 00 00 00 00 00
 31.995075 1  204             Rx   d 8 00 00 FF 00 00 00 00 00
 32.013922 1  47              Rx   d 8 64 22 BC F4 3B 98 00 00
 32.033921 1  47              Rx   d 8 64 22 BC F4 3B 98 00 00
 32.049283 1  242             Rx   d 8 FF FF 3F FF B5 00 03 01
 32.073939 1  47              Rx   d 8 64 22 BC F4 3B 98 00 00
 32.074104 1  165             Rx   d 8 20 81 00 00 00 00 00 00
 32.094178 1  47              Rx   d 8 64 22 BC F4 3B 98 00 00
 32.095498 1  202             Rx   d 8 00 CC 00 00 00 00 00 00
 32.113923 1  47              Rx   d 8 64 22 BC F4 3B 98 00 00
 32.128247 1  242             Rx   d 8 FF FF 3F FF B5 00 03 01
 32.154135 1  47              Rx   d 8 64 22 BC F4 3B 98 00 00
 32.164407 1  167             Rx   d 8 00 FF FF 00 00 02 0F 00
 32.173884 1  47              Rx   d 8 64 22 BC F4 3B 98 00 00
 32.194100 1  47              Rx   d 8 64 22 BC F4 3B 98 00 00
 32.203919 1  167             Rx   d 8 00 FF FF 00 00 02 0F 00
 32.224090 1  156             Rx   d 8 BA 00 00 00 00 00 00 00
 32.239217 1  23A             Rx   d 8 FF FF FF FF F0 00 00 00
 32.264118 1  167             Rx   d 8 00 FF FF 00 00 02 0F 00
 32.264155 1  204             Rx   d 8 00 00 FF 00 00 00 00 00
 32.283915 1  166             Rx   d 8 76 00 00 FF FF FF 00 00
 32.294933 1  200             Rx   d 8 00 00 80 26 80 26 F0 00
 32.304234 1  167             Rx   d 8 00 FF FF 00 00 02 0F 00
 32.313790 1  41              Rx   d 8 00 00 00 00 00 00 00 00
 32.324120 1  156             Rx   d 8 BA 00 00 00 00 00 00 00
 32.324911 1  17C             Rx   d 8 00 00 00 00 00 00 00 00
 32.333510 1  41              Rx   d 8 00 00 00 00 00 00 00 00
 32.353174 1  41              Rx   d 8 00 00 00 00 00 00 00 00
 32.372808 1  41              Rx   d 8 00 00 00 00 00 00 00 00
 32.392605 1  41              Rx   d 8 00 00 00 00 00 00 00 00
 32.404659 1  42F             Rx   d 8 7D 02 05 4E 20 FF 00 00
 32.422729 1  42C             Rx   d 8 80 02 00 00 00 00 00 00
 32.439490 1  23A             Rx   d 8 FF FF FF FF F0 00 00 00
 32.463974 1  167             Rx   d 8 00 FF FF 00 00 02 0F 00
 32.473950 1  47              Rx   d 8 64 22 BC F4 3B 98 00 00
 32.490857 1  41              Rx   d 8 00 00 00 00 00 00 00 00
 32.504095 1  167             Rx   d 8 00 FF FF 00 00 02 0F 00
 32.523913 1  156             Rx   d 8 BA 00 00 00 00 00 00 00
 32.539655 1  23A             Rx   d 8 FF FF FF FF F0 00 00 00
 32.560252 1  242             Rx   d 8 FF FF 3F FF B5 00 03 01
 32.574626 1  200             Rx   d 8 00 00 80 26 80 26 F0 00
 32.589044 1  41              Rx   d 8 00 00 00 00 00 00 00 00
 32.608793 1  41              Rx   d 8 00 00 00 00 00 00 00 00
 32.623864 1  156             Rx   d 8 BA 00 00 00 00 00 00 00
 32.643986 1  167             Rx   d 8 00 FF FF 00 00 02 0E 00
 32.663930 1  167             Rx   d 8 00 FF FF 00 00 02 0E 00
 32.678359 1  84              Rx   d 8 00 00 00 01 02 2A 0C 00
 32.694786 1  202             Rx   d 8 00 CC 00 00 00 00 00 00
 32.714084 1  47              Rx   d 8 64 22 BC F4 3B 98 00 00
 32.733907 1  47              Rx   d 8 64 22 BC F4 3B 98 00 00
 32.754130 1  47              Rx   d 8 64 22 BC F4 3B 98 00 00
 32.766002 1  41              Rx   d 8 00 00 00 00 00 00 00 00
 32.784416 1  166             Rx   d 8 76 00 00 FF FF FF 00 00
 32.803916 1  167             Rx   d 8 00 FF FF 00 00 02 0E 00
 32.824426 1  156             Rx   d 8 BA 00 00 00 00 00 00 00
 32.839904 1  23A             Rx   d 8 FF FF FF FF F0 00 00 00
 32.855779 1  42F             Rx   d 8 7D 02 05 4E 20 FF 00 00
 32.863968 1  167             Rx   d 8 00 FF FF 00 00 02 0E 00
 32.864608 1  42C             Rx   d 8 80 02 00 00 00 00 00 00
 32.873928 1  47              Rx   d 8 64 22 BC F4 3B 98 00 00
 32.874081 1  165             Rx   d 8 20 81 00 00 00 00 00 00
 32.874323 1  167             Rx   d 8 00 FF FF 00 00 02 0E 00
 32.874562 1  200             Rx   d 8 00 00 80 26 80 26 F0 00
 32.874799 1  202             Rx   d 8 00 CC 00 00 00 00 00 00
 32.875055 1  204             Rx   d 8 00 00 FF 00 00 00 00 00
 32.875307 1  230             Rx   d 8 F0 1C 00 00 00 00 00 00
 32.875536 1  242             Rx   d 8 FF FF 3F FF B5 00 03 01
 32.884189 1  166             Rx   d 8 76 00 00 FF FF FF 00 00
 32.903675 1  41              Rx   d 8 00 00 00 00 00 00 00 00
 32.923401 1  41              Rx   d 8 00 00 00 00 00 00 00 00
 32.940329 1  435             Rx   d 8 00 00 00 00 00 00 00 00
 32.963155 1  41              Rx   d 8 00 00 00 00 00 00 00 00
 32.973927 1  47              Rx   d 8 64 22 BC F4 3B 98 00 00
 32.992967 1  242             Rx   d 8 FF FF 3F FF B5 00 03 01
 33.002249 1  41              Rx   d 8 00 00 00 00 00 00 00 00
 33.003895 1  167             Rx   d 8 00 FF FF 00 00 02 0E 00
 33.004060 1  171             Rx   d 8 F0 E0 00 00 00 00 00 00
 33.021836 1  41              Rx   d 8 00 00 00 00 00 00 00 00
 33.032466 1  242             Rx   d 8 FF FF 3F FF B5 00 03 01
 33.043889 1  167             Rx   d 8 00 FF FF 00 00 02 0E 00
 33.054840 1  202             Rx   d 8 00 CC 00 00 00 00 00 00
 33.063953 1  167             Rx   d 8 00 FF FF 00 00 02 0E 00
 33.073826 1  47              Rx   d 8 64 22 BC F4 3B 98 00 00
 33.083880 1  166             Rx   d 8 76 00 00 FF FF FF 00 00
 33.100401 1  41              Rx   d 8 00 00 00 00 00 00 00 00
 33.110915 1  242             Rx   d 8 FF FF 3F FF B5 00 03 01
 33.113897 1  47              Rx   d 8 64 22 BC F4 3B 98 00 00
 33.123899 1  156             Rx   d 8 BA 00 00 00 00 00 00 00
 33.139957 1  41              Rx   d 8 00 00 00 00 00 00 00 00
 33.150086 1  242             Rx   d 8 FF FF 3F FF B5 00 03 01
 33.153907 1  47              Rx   d 8 64 22 BC F4 3B 98 00 00
 33.159254 1  41              Rx   d 8 00 00 00 00 00 00 00 00
 33.174162 1  47              Rx   d 8 64 22 BC F4 3B 98 00 00
 33.183920 1  166             Rx   d 8 76 00 00 FF FF FF 00 00
 33.203943 1  167             Rx   d 8 00 FF FF 00 00 02 0E 00
 33.218169 1  41              Rx   d 8 00 00 00 00 00 00 00 00
 33.228815 1  242             Rx   d 8 FF FF 3F FF B5 00 03 01
 33.237818 1  41              Rx   d 8 00 00 00 00 00 00 00 00
 33.255155 1  204             Rx   d 8 00 00 FF 00 00 00 00 00
 33.257417 1  41              Rx   d 8 00 00 00 00 00 00 00 00
 33.264260 1  167             Rx   d 8 00 FF FF 00 00 02 0E 00
 33.274203 1  47              Rx   d 8 64 22 BC F4 3B 98 00 00
 33.284819 1  424             Rx   d 8 00 00 00 03 00 00 00 00
 33.296982 1  41              Rx   d 8 00 00 00 00 00 00 00 00
 33.304876 1  204             Rx   d 8 00 00 FF 00 00 00 00 00
 33.307726 1  242             Rx   d 8 FF FF 3F FF B5 00 03 01
 33.314832 1  202             Rx   d 8 00 CC 00 00 00 00 00 00
 33.316362 1  41              Rx   d 8 00 00 00 00 00 00 00 00
 33.323917 1  156             Rx   d 8 BA 00 00 00 00 00 00 00
 33.334890 1  200             Rx   d 8 00 00 80 26 80 26 F0 00
 33.344196 1  167             Rx   d 8 00 FF FF 00 00 02 0E 00
 33.363892 1  167             Rx   d 8 00 FF FF 00 00 02 0E 00
 33.374189 1  47              Rx   d 8 64 22 BC F4 3B 98 00 00
 33.374888 1  202             Rx   d 8 00 CC 00 00 00 00 00 00
 33.383909 1  166             Rx   d 8 76 00 00 FF FF FF 00 00
