date Wed Mar 05 05:53:55.397 PM 2025
base hex  timestamps absolute
internal events logged
Begin Triggerblock Wed Mar 05 05:54:00.274 PM 2025
 0.000000 Start of measurement
 0.000000 1  3C3             Rx   d 8 5C CC 20 00 00 00 00 00
 0.058002 1  3C3             Rx   d 8 5C C8 20 C0 00 00 01 00
 0.225831 1  3C3             Rx   d 8 5C C8 00 C0 00 00 01 00
 1.052308 1  3C3             Rx   d 8 40 C8 00 C0 00 00 81 00
 3.018248 1  3C3             Rx   d 8 40 C8 00 C0 00 00 81 00
 4.984148 1  3C3             Rx   d 8 40 88 00 C0 00 00 81 00
 5.967137 1  3C3             Rx   d 8 40 88 00 E0 00 00 81 00
 7.933135 1  3C3             Rx   d 8 40 88 00 E0 00 00 81 00
 9.899138 1  3C3             Rx   d 8 40 88 00 E0 00 00 81 00
 11.865127 1  3C3             Rx   d 8 40 88 00 E0 00 00 81 00
 13.831116 1  3C3             Rx   d 8 40 88 00 E0 00 00 81 00
 15.797123 1  3C3             Rx   d 8 40 88 00 E0 00 00 81 00
 18.746105 1  3C3             Rx   d 8 40 88 00 E0 00 00 81 00
 20.712097 1  3C3             Rx   d 8 40 88 00 E0 00 00 81 00
 21.695091 1  3C3             Rx   d 8 40 88 00 E0 00 00 81 00
 22.678081 1  3C3             Rx   d 8 40 88 00 E0 00 00 81 00
 23.661081 1  3C3             Rx   d 8 40 88 00 E0 00 00 81 00
 24.644076 1  3C3             Rx   d 8 40 88 00 E0 00 00 81 00
 25.627080 1  3C3             Rx   d 8 40 88 00 E0 00 00 81 00
 27.593126 1  3C3             Rx   d 8 40 88 00 E0 00 00 81 00
 29.559103 1  3C3             Rx   d 8 40 88 00 E0 00 00 81 00
 31.525075 1  3C3             Rx   d 8 40 88 00 E0 00 00 81 40
 32.508059 1  3C3             Rx   d 8 40 88 00 E0 00 00 81 40
 33.491053 1  3C3             Rx   d 8 40 88 00 E0 00 00 81 40
 34.474049 1  3C3             Rx   d 8 40 88 00 E0 00 00 81 40
 35.457054 1  3C3             Rx   d 8 40 88 00 E0 00 00 81 40
 37.423047 1  3C3             Rx   d 8 40 88 00 E0 00 00 81 40
 39.389040 1  3C3             Rx   d 8 40 88 00 E0 00 00 81 40
 40.372037 1  3C3             Rx   d 8 40 88 00 E0 00 00 81 40
 41.355034 1  3C3             Rx   d 8 40 88 00 E0 00 00 81 40
 41.776792 1  3C3             Rx   d 8 40 88 00 E0 00 00 81 00
 41.807508 1  3C3             Rx   d 8 40 88 01 E0 00 00 81 00
 42.338095 1  3C3             Rx   d 8 40 88 00 E0 00 00 81 00
 44.304065 1  3C3             Rx   d 8 40 88 00 E0 00 00 81 00
 46.270067 1  3C3             Rx   d 8 40 88 00 E0 00 00 81 00
 47.253071 1  3C3             Rx   d 8 40 88 00 E0 00 00 81 00
 48.236059 1  3C3             Rx   d 8 40 88 00 E0 00 00 81 00
 49.219050 1  3C3             Rx   d 8 40 88 00 E0 00 00 81 00
 49.798368 1  3C3             Rx   d 8 40 88 00 E0 00 00 81 40
 51.184996 1  3C3             Rx   d 8 40 88 00 E0 00 00 81 40
 52.168069 1  3C3             Rx   d 8 40 88 00 E0 00 00 81 40
 53.151074 1  3C3             Rx   d 8 40 88 00 E0 00 00 81 40
 54.133992 1  3C3             Rx   d 8 40 88 00 E0 00 00 81 40
 56.100002 1  3C3             Rx   d 8 40 88 00 E0 00 00 81 40
 57.083005 1  3C3             Rx   d 8 40 88 00 E0 00 00 81 40
 58.065993 1  3C3             Rx   d 8 40 88 00 E0 00 00 81 40
 59.048989 1  3C3             Rx   d 8 40 88 00 E0 00 00 81 40
 60.031971 1  3C3             Rx   d 8 40 88 00 E0 00 00 81 40
 61.014977 1  3C3             Rx   d 8 40 88 00 E0 00 00 81 40
 61.997988 1  3C3             Rx   d 8 40 88 00 E0 00 00 81 40
 63.963962 1  3C3             Rx   d 8 40 88 00 E0 00 00 81 40
 64.946971 1  3C3             Rx   d 8 40 88 00 E0 00 00 81 40
 66.912969 1  3C3             Rx   d 8 40 88 00 E0 00 00 81 40
 67.895962 1  3C3             Rx   d 8 40 88 00 E0 00 00 81 40
 68.131592 1  3C3             Rx   d 8 40 88 00 E0 00 00 81 00
 68.230493 1  3C3             Rx   d 8 40 88 00 E0 00 00 81 00
 70.845007 1  3C3             Rx   d 8 40 88 00 E0 00 00 81 00
 72.810992 1  3C3             Rx   d 8 40 88 00 E0 00 00 81 00
 73.793973 1  3C3             Rx   d 8 40 88 00 E0 00 00 81 00
 74.776989 1  3C3             Rx   d 8 40 88 00 E0 00 00 81 00
 76.742997 1  3C3             Rx   d 8 40 88 00 E0 00 00 81 00
 77.824817 1  3C3             Rx   d 8 40 88 01 E0 00 00 81 00
 79.691966 1  3C3             Rx   d 8 40 88 00 E0 00 00 81 00
 80.340782 1  3C3             Rx   d 8 40 88 01 E0 00 00 81 00
 80.674937 1  3C3             Rx   d 8 40 88 00 E0 00 00 81 00
 81.561431 1  3C3             Rx   d 8 40 88 01 E0 00 00 81 00
 81.658093 1  3C3             Rx   d 8 40 88 00 E0 00 00 81 00
 82.267485 1  3C3             Rx   d 8 40 88 00 E0 00 00 81 00
 82.778584 1  3C3             Rx   d 8 40 88 01 E0 00 00 81 00
 83.407708 1  3C3             Rx   d 8 40 88 01 E0 00 00 81 00
 83.624045 1  3C3             Rx   d 8 40 88 00 E0 00 00 81 00
 84.095569 1  3C3             Rx   d 8 40 88 00 E0 00 00 81 00
 84.635623 1  3C3             Rx   d 8 40 88 01 E0 00 00 81 00
 85.314477 1  3C3             Rx   d 8 40 88 00 E0 00 00 81 00
 85.845551 1  3C3             Rx   d 8 40 88 01 E0 00 00 81 00
 86.454700 1  3C3             Rx   d 8 40 88 01 E0 00 00 81 00
 86.573066 1  3C3             Rx   d 8 40 88 00 E0 00 00 81 00
 87.555947 1  3C3             Rx   d 8 40 88 00 E0 00 00 81 00
 87.772221 1  3C3             Rx   d 8 40 88 00 E0 00 00 81 00
 88.538963 1  3C3             Rx   d 8 40 88 00 E0 00 00 81 00
 90.504941 1  3C3             Rx   d 8 40 88 00 E0 00 00 81 00
 92.470943 1  3C3             Rx   d 8 40 88 00 E0 00 00 81 00
 94.436930 1  3C3             Rx   d 8 40 88 00 E0 00 00 81 00
 96.402941 1  3C3             Rx   d 8 40 88 00 E0 00 00 81 00
 98.368928 1  3C3             Rx   d 8 40 88 00 E0 00 00 81 00
 100.334920 1  3C3             Rx   d 8 40 88 00 E0 00 00 81 00
 102.251336 1  3C3             Rx   d 8 40 88 00 E0 00 00 81 40
 102.301041 1  3C3             Rx   d 8 40 88 00 E0 00 00 81 40
 104.266997 1  3C3             Rx   d 8 40 88 00 E0 00 00 81 40
 107.215865 1  3C3             Rx   d 8 40 88 00 E0 00 00 81 40
 109.181859 1  3C3             Rx   d 8 40 88 00 E0 00 00 81 40
 111.147855 1  3C3             Rx   d 8 40 88 00 E0 00 00 81 40
 113.114104 1  3C3             Rx   d 8 40 88 00 E0 00 00 81 40
 115.079839 1  3C3             Rx   d 8 40 88 00 E0 00 00 81 40
 117.045849 1  3C3             Rx   d 8 40 88 00 E0 00 00 81 40
 118.028843 1  3C3             Rx   d 8 40 88 00 E0 00 00 81 40
 119.011824 1  3C3             Rx   d 8 40 88 00 E0 00 00 81 40
 119.994832 1  3C3             Rx   d 8 40 88 00 E0 00 00 81 40
 120.977831 1  3C3             Rx   d 8 40 88 00 E0 00 00 81 40
 121.960834 1  3C3             Rx   d 8 40 88 00 E0 00 00 81 40
 123.926817 1  3C3             Rx   d 8 40 88 00 E0 00 00 81 40
 124.909822 1  3C3             Rx   d 8 40 88 00 E0 00 00 81 40
 126.875827 1  3C3             Rx   d 8 40 88 00 E0 00 00 81 40
 127.111220 1  3C3             Rx   d 8 40 88 00 E0 00 00 81 00
 127.858871 1  3C3             Rx   d 8 40 88 00 E0 00 00 81 00
 129.824847 1  3C3             Rx   d 8 40 88 00 E0 00 00 81 00
 130.807839 1  3C3             Rx   d 8 40 88 00 E0 00 00 81 00
 131.790847 1  3C3             Rx   d 8 40 88 00 E0 00 00 81 00
 132.773850 1  3C3             Rx   d 8 40 88 00 E0 00 00 81 00
 133.756853 1  3C3             Rx   d 8 40 88 00 E0 00 00 81 00
 135.722948 1  3C3             Rx   d 8 40 88 00 E0 00 00 81 00
 136.705841 1  3C3             Rx   d 8 40 88 00 E0 00 00 81 00
 137.688836 1  3C3             Rx   d 8 40 88 00 E0 00 00 81 00
 138.671833 1  3C3             Rx   d 8 40 88 00 E0 00 00 81 00
 139.654824 1  3C3             Rx   d 8 40 88 00 E0 00 00 81 00
 141.620832 1  3C3             Rx   d 8 40 88 00 E0 00 00 81 00
 143.586832 1  3C3             Rx   d 8 40 88 00 E0 00 00 81 00
 145.552818 1  3C3             Rx   d 8 40 88 00 E0 00 00 81 00
 148.501817 1  3C3             Rx   d 8 40 88 00 E0 00 00 81 00
 150.467799 1  3C3             Rx   d 8 40 88 00 E0 00 00 81 00
 152.433876 1  3C3             Rx   d 8 40 88 00 E0 00 00 81 00
 154.399809 1  3C3             Rx   d 8 40 88 00 E0 00 00 81 00
 156.365797 1  3C3             Rx   d 8 40 88 00 E0 00 00 81 00
 158.331795 1  3C3             Rx   d 8 40 88 00 E0 00 00 81 00
 160.297795 1  3C3             Rx   d 8 40 88 00 E0 00 00 81 00
 162.263785 1  3C3             Rx   d 8 40 88 00 E0 00 00 81 00
 164.229786 1  3C3             Rx   d 8 40 88 00 E0 00 00 81 00
 166.195780 1  3C3             Rx   d 8 40 88 00 E0 00 00 81 00
 168.161776 1  3C3             Rx   d 8 40 88 00 E0 00 00 81 00
 170.127757 1  3C3             Rx   d 8 40 88 00 E0 00 00 81 00
 171.111015 1  3C3             Rx   d 8 40 88 00 E0 00 00 81 00
 172.093764 1  3C3             Rx   d 8 40 88 00 E0 00 00 81 00
 173.076761 1  3C3             Rx   d 8 40 88 00 E0 00 00 81 00
 175.042765 1  3C3             Rx   d 8 40 88 00 E0 00 00 81 00
 176.025755 1  3C3             Rx   d 8 40 88 00 E0 00 00 81 00
 177.008760 1  3C3             Rx   d 8 40 88 00 E0 00 00 81 00
 177.991758 1  3C3             Rx   d 8 40 88 00 E0 00 00 81 00
 178.974764 1  3C3             Rx   d 8 40 88 00 E0 00 00 81 00
 179.957744 1  3C3             Rx   d 8 40 88 00 E0 00 00 81 00
 180.940701 1  3C3             Rx   d 8 40 88 00 E0 00 00 81 40
 181.923709 1  3C3             Rx   d 8 40 88 00 E0 00 00 81 40
 182.906820 1  3C3             Rx   d 8 40 88 00 E0 00 00 81 40
 184.872697 1  3C3             Rx   d 8 40 88 00 E0 00 00 81 40
 185.855691 1  3C3             Rx   d 8 40 88 00 E0 00 00 81 40
 186.838706 1  3C3             Rx   d 8 40 88 00 E0 00 00 81 40
 187.821702 1  3C3             Rx   d 8 40 88 00 E0 00 00 81 40
 188.804698 1  3C3             Rx   d 8 40 88 00 E0 00 00 81 40
 189.591065 1  3C3             Rx   d 8 40 88 01 E0 00 00 81 00
 189.787824 1  3C3             Rx   d 8 40 88 00 E0 00 00 81 00
 190.534521 1  3C3             Rx   d 8 40 88 01 E0 00 00 81 00
 190.770833 1  3C3             Rx   d 8 40 88 00 E0 00 00 81 00
 191.340881 1  3C3             Rx   d 8 40 88 00 E0 00 00 81 00
 191.852538 1  3C3             Rx   d 8 40 88 01 E0 00 00 81 00
 192.461158 1  3C3             Rx   d 8 40 88 01 E0 00 00 81 00
 192.736816 1  3C3             Rx   d 8 40 88 00 E0 00 00 81 00
 193.149588 1  3C3             Rx   d 8 40 88 00 E0 00 00 81 00
 193.680356 1  3C3             Rx   d 8 40 88 01 E0 00 00 81 00
 193.758755 1  3C3             Rx   d 8 40 88 00 E0 00 00 81 00
 194.387870 1  3C3             Rx   d 8 40 88 00 E0 00 00 81 00
 194.899181 1  3C3             Rx   d 8 40 88 01 E0 00 00 81 00
 195.508790 1  3C3             Rx   d 8 40 88 01 E0 00 00 81 00
 195.606792 1  3C3             Rx   d 8 40 88 00 E0 00 00 81 00
 195.685718 1  3C3             Rx   d 8 40 88 00 E0 00 00 81 00
 197.651728 1  3C3             Rx   d 8 40 88 00 E0 00 00 81 00
 199.559343 1  3C3             Rx   d 8 40 88 00 E8 00 00 81 00
 200.600707 1  3C3             Rx   d 8 40 88 00 E8 00 00 81 00
 201.583700 1  3C3             Rx   d 8 40 88 00 E8 00 00 81 00
 202.566780 1  3C3             Rx   d 8 40 88 00 E8 00 00 81 00
 204.532717 1  3C3             Rx   d 8 40 88 00 E8 00 00 81 00
 206.498705 1  3C3             Rx   d 8 40 88 00 E8 00 00 81 00
 208.464706 1  3C3             Rx   d 8 40 88 00 E8 00 00 81 00
 208.975661 1  3C3             Rx   d 8 40 88 00 E0 00 00 81 00
 209.447779 1  3C3             Rx   d 8 40 88 00 E0 00 00 81 00
 211.413687 1  3C3             Rx   d 8 40 88 00 E0 00 00 81 00
 212.396702 1  3C3             Rx   d 8 40 88 00 E0 00 00 81 00
 213.782360 1  3C3             Rx   d 8 40 88 00 E8 00 00 81 00
 214.362804 1  3C3             Rx   d 8 40 88 00 E8 00 00 81 00
 215.345801 1  3C3             Rx   d 8 40 88 00 E8 00 00 81 00
 217.311691 1  3C3             Rx   d 8 40 88 00 E8 00 00 81 00
 218.198352 1  3C3             Rx   d 8 40 88 00 C8 00 00 81 00
 219.277695 1  3C3             Rx   d 8 40 88 00 C8 00 00 81 00
 220.260678 1  3C3             Rx   d 8 40 88 00 C8 00 00 81 00
 221.243691 1  3C3             Rx   d 8 40 88 00 C8 00 00 81 00
 222.226695 1  3C3             Rx   d 8 40 88 00 C8 00 00 81 00
 223.759896 1  3C3             Rx   d 8 40 88 10 C1 00 00 81 00
 224.192805 1  3C3             Rx   d 8 40 88 10 C1 00 00 81 00
 226.158799 1  3C3             Rx   d 8 40 88 10 C1 00 00 81 00
 226.768642 1  3C3             Rx   d 8 5C 88 10 C1 00 00 01 00
 228.124624 1  3C3             Rx   d 8 5C 88 10 C1 00 00 01 00
 228.763150 1  3C3             Rx   d 8 5C 80 10 C1 00 00 01 00
 229.107982 1  3C3             Rx   d 8 5C 80 10 C1 00 00 01 00
 230.767684 1  3C3             Rx   d 8 5C 80 10 C1 01 00 01 00
 231.073614 1  3C3             Rx   d 8 5C 80 10 C1 01 00 01 00
 232.056615 1  3C3             Rx   d 8 5C 80 10 C1 01 00 01 00
 233.039775 1  3C3             Rx   d 8 40 80 20 C1 01 00 41 00
 234.022656 1  3C3             Rx   d 8 40 80 00 C1 01 00 41 00
 235.988643 1  3C3             Rx   d 8 40 80 00 C1 01 00 41 00
 237.954653 1  3C3             Rx   d 8 40 80 00 C1 01 00 41 00
 239.920644 1  3C3             Rx   d 8 40 80 00 C1 01 00 41 00
 240.903621 1  3C3             Rx   d 8 40 80 00 C1 01 00 41 00
 241.886644 1  3C3             Rx   d 8 40 80 00 C1 01 00 41 00
 243.852634 1  3C3             Rx   d 8 40 80 00 C1 01 00 41 00
 244.835643 1  3C3             Rx   d 8 40 80 00 C1 01 00 41 00
 245.818624 1  3C3             Rx   d 8 40 80 00 C1 01 00 41 00
 246.801631 1  3C3             Rx   d 8 40 80 00 C1 01 00 41 00
 247.784634 1  3C3             Rx   d 8 40 88 00 C8 01 00 81 00
 248.767645 1  3C3             Rx   d 8 40 88 00 C8 01 00 81 00
 250.733746 1  3C3             Rx   d 8 40 88 00 C8 01 00 81 00
 251.716616 1  3C3             Rx   d 8 40 88 00 C8 01 00 81 00
 253.682703 1  3C3             Rx   d 8 40 88 00 C8 01 00 81 00
 254.854138 1  3C3             Rx   d 8 40 88 20 E8 01 00 81 00
 255.087578 1  3C3             Rx   d 8 40 88 00 E8 01 00 81 00
 256.916007 1  3C3             Rx   d 8 40 88 00 E8 01 00 81 00
 257.898999 1  3C3             Rx   d 8 40 88 00 E8 01 00 81 00
 258.881994 1  3C3             Rx   d 8 40 88 00 E8 01 00 81 00
 259.864987 1  3C3             Rx   d 8 40 88 00 E8 01 00 81 00
 260.848005 1  3C3             Rx   d 8 40 88 00 E0 01 00 81 00
 261.830988 1  3C3             Rx   d 8 40 88 00 E0 01 00 81 00
 263.551743 1  3C3             Rx   d 8 40 88 00 E8 01 00 81 00
 263.796990 1  3C3             Rx   d 8 40 88 00 E8 01 00 81 00
 264.741526 1  3C3             Rx   d 8 40 88 10 C1 01 00 81 00
 264.780701 1  3C3             Rx   d 8 40 88 10 C1 01 00 81 00
 265.762976 1  3C3             Rx   d 8 40 88 00 C1 01 00 41 00
 267.729045 1  3C3             Rx   d 8 40 88 00 C1 01 00 41 00
 268.711971 1  3C3             Rx   d 8 40 88 00 C1 01 00 41 00
 269.694972 1  3C3             Rx   d 8 40 88 00 C1 01 00 41 00
 270.677973 1  3C3             Rx   d 8 40 80 00 C1 01 00 41 00
 271.337131 1  3C3             Rx   d 8 40 88 00 C8 01 00 81 00
 271.671553 1  3C3             Rx   d 8 40 88 20 E8 01 00 81 00
 272.643979 1  3C3             Rx   d 8 40 88 00 E8 01 00 81 00
 273.626976 1  3C3             Rx   d 8 40 88 00 E0 01 00 81 00
 275.592971 1  3C3             Rx   d 8 40 88 00 E0 01 00 81 00
 277.018570 1  3C3             Rx   d 8 40 88 01 E0 01 00 81 00
 278.541975 1  3C3             Rx   d 8 40 88 00 E0 01 00 81 00
 279.524976 1  3C3             Rx   d 8 40 88 00 E0 01 00 81 00
 281.490959 1  3C3             Rx   d 8 40 88 00 E0 01 00 81 00
 282.297550 1  3C3             Rx   d 8 40 88 00 E0 01 00 81 40
 283.456900 1  3C3             Rx   d 8 40 88 00 E0 01 00 81 40
 285.010658 1  3C3             Rx   d 8 40 88 00 E8 01 00 81 40
 285.422919 1  3C3             Rx   d 8 40 88 00 E8 01 00 81 40
 286.592839 1  3C3             Rx   d 8 40 88 00 C8 01 00 81 00
 287.388932 1  3C3             Rx   d 8 40 88 20 C1 01 00 41 00
 287.418165 1  3C3             Rx   d 8 40 88 00 C1 01 00 41 00
 290.338218 1  3C3             Rx   d 8 40 88 00 C1 01 00 41 00
 291.891037 1  3C3             Rx   d 8 40 80 00 C1 01 00 41 00
 293.286933 1  3C3             Rx   d 8 40 80 00 C1 01 00 41 00
 294.949023 1  3C3             Rx   d 8 40 88 00 C8 01 00 81 00
 295.508924 1  3C3             Rx   d 8 40 88 20 E8 01 00 81 00
 296.235950 1  3C3             Rx   d 8 40 88 00 E8 01 00 81 00
 298.133872 1  3C3             Rx   d 8 40 88 00 E0 01 00 81 00
 299.184943 1  3C3             Rx   d 8 40 88 00 E0 01 00 81 00
 301.151228 1  3C3             Rx   d 8 40 88 00 E0 01 00 81 00
 304.100237 1  3C3             Rx   d 8 40 88 00 E0 01 00 81 00
End TriggerBlock
