date Mon Feb 24 05:23:16.008 PM 2025
base hex  timestamps absolute
internal events logged
Begin Triggerblock Mon Feb 24 05:23:17.558 PM 2025
 0.000000 Start of measurement
 0.000000 1  41              Rx   d 8 00 00 00 00 00 00 00 00
 0.000452 1  242             Rx   d 8 FF FF 3F FF BA 00 03 00
 0.000923 1  38D             Rx   d 8 20 00 00 00 00 00 0C F0
 0.001404 1  3B3             Rx   d 8 10 80 00 00 E6 00 03 3C
 0.002125 1  3B6             Rx   d 8 09 00 00 00 00 00 00 00
 0.002382 1  3B7             Rx   d 8 00 00 00 00 00 00 00 00
 0.002878 1  3C3             Rx   d 8 40 88 00 E0 00 00 81 40
 0.003135 1  3C7             Rx   d 8 00 00 40 00 00 00 00 00
 0.003679 1  3EB             Rx   d 8 01 04 04 00 00 00 00 00
 0.003911 1  40A             Rx   d 8 C1 00 57 46 30 4A 58 58
 0.004161 1  42C             Rx   d 8 80 00 00 00 00 00 00 00
 0.004397 1  43C             Rx   d 8 B2 00 4B 2C 3C 99 88 14
 0.019787 1  41              Rx   d 8 00 00 00 00 00 00 00 00
 0.039632 1  242             Rx   d 8 FF FF 3F FF B9 00 03 00
 0.048852 1  3B4             Rx   d 8 34 21 11 FF 1E 1A 00 00
 0.059296 1  3B5             Rx   d 8 FF FD FF FD FF FD FF FD
 0.079005 1  242             Rx   d 8 FF FF 3F FF B9 00 03 00
 0.079018 1  3C7             Rx   d 8 00 00 40 00 00 00 00 00
 0.098657 1  41              Rx   d 8 00 00 00 00 00 00 00 00
 0.098746 1  3B3             Rx   d 8 14 80 00 00 E6 00 03 3C
 0.099401 1  42C             Rx   d 8 80 00 00 00 00 00 00 00
 0.118100 1  41              Rx   d 8 00 00 00 00 00 00 00 00
 0.118187 1  242             Rx   d 8 FF FF 3F FF BA 00 03 00
 0.147105 1  42C             Rx   d 8 80 00 00 00 00 00 00 00
 0.157523 1  242             Rx   d 8 FF FF 3F FF BA 00 03 00
 0.196244 1  41              Rx   d 8 00 00 00 00 00 00 00 00
 0.196321 1  242             Rx   d 8 FF FF 3F FF BA 00 03 00
 0.196900 1  42C             Rx   d 8 80 00 00 00 00 00 00 00
 0.216270 1  41              Rx   d 8 00 00 00 00 00 00 00 00
 0.236166 1  242             Rx   d 8 FF FF 3F FF BA 00 03 00
 0.245080 1  331             Rx   d 8 C0 00 00 00 05 01 40 20
 0.245432 1  3B6             Rx   d 8 09 00 00 00 00 00 00 00
 0.245738 1  42C             Rx   d 8 80 00 00 00 00 00 00 00
 0.255655 1  41              Rx   d 8 00 00 00 00 00 00 00 00
 0.274756 1  41              Rx   d 8 00 00 00 00 00 00 00 00
 0.294782 1  41              Rx   d 8 00 00 00 00 00 00 00 00
 0.294868 1  42C             Rx   d 8 80 00 00 00 00 00 00 00
 0.314097 1  41              Rx   d 8 00 00 00 00 00 00 00 00
 0.334548 1  41              Rx   d 8 00 00 00 00 00 00 00 00
 0.353558 1  41              Rx   d 8 00 00 00 00 00 00 00 00
 0.353614 1  242             Rx   d 8 FF FF 3F FF BA 00 03 00
 0.392834 1  41              Rx   d 8 00 00 00 00 00 00 00 00
 0.392914 1  242             Rx   d 8 FF FF 3F FF BA 00 03 00
 0.393470 1  42C             Rx   d 8 80 00 00 00 00 00 00 00
 0.432700 1  41              Rx   d 8 00 00 00 00 00 00 00 00
 0.441679 1  42C             Rx   d 8 80 00 00 00 00 00 00 00
 0.471510 1  41              Rx   d 8 00 00 00 00 00 00 00 00
 0.491484 1  41              Rx   d 8 00 00 00 00 00 00 00 00
 0.491817 1  3B6             Rx   d 8 09 00 00 00 00 00 00 00
 0.492164 1  3B8             Rx   d 8 FF FF FF FF 00 00 00 00
 0.492401 1  42C             Rx   d 8 80 00 00 00 00 00 00 00
 0.510696 1  41              Rx   d 8 00 00 00 00 00 00 00 00
 0.531252 1  41              Rx   d 8 00 00 00 00 00 00 00 00
 0.550012 1  41              Rx   d 8 00 00 00 00 00 00 00 00
 0.550424 1  3B5             Rx   d 8 FF FD FF FD FF FD FF FD
 0.570261 1  41              Rx   d 8 00 00 00 00 00 00 00 00
 0.589339 1  41              Rx   d 8 00 00 00 00 00 00 00 00
 0.589741 1  3B3             Rx   d 8 14 82 00 00 EE 00 43 BC
 0.589964 1  40A             Rx   d 8 C1 04 01 8A 07 54 85 41
 0.609610 1  41              Rx   d 8 00 00 00 00 00 00 00 00
 0.629170 1  41              Rx   d 8 00 00 00 00 00 00 00 00
 0.638435 1  42C             Rx   d 8 80 00 00 00 00 00 00 00
 0.668184 1  41              Rx   d 8 00 00 00 00 00 00 00 00
 0.688296 1  41              Rx   d 8 00 00 00 00 00 00 00 00
 0.707642 1  242             Rx   d 8 FF FF 3F FF BA 00 03 00
 0.727707 1  41              Rx   d 8 00 00 00 00 00 00 00 00
 0.736629 1  3B6             Rx   d 8 09 00 00 00 00 00 00 00
 0.737050 1  3B7             Rx   d 8 00 00 00 00 00 00 00 00
 0.746749 1  41              Rx   d 8 00 00 00 00 00 00 00 00
 0.746843 1  242             Rx   d 8 FF FF 3F FF BA 00 03 00
 0.785925 1  41              Rx   d 8 00 00 00 00 00 00 00 00
 0.786300 1  40A             Rx   d 8 C1 10 40 84 20 08 80 00
 0.786570 1  42C             Rx   d 8 80 00 00 00 00 00 00 00
 0.825873 1  41              Rx   d 8 00 00 00 00 00 00 00 00
 0.834922 1  42C             Rx   d 8 80 00 00 00 00 00 00 00
 0.864597 1  41              Rx   d 8 00 00 00 00 00 00 00 00
 0.864875 1  242             Rx   d 8 FF FF 3F FF BA 00 03 00
 0.884935 1  42C             Rx   d 8 80 00 00 00 00 00 00 00
 0.904014 1  41              Rx   d 8 00 00 00 00 00 00 00 00
 0.904275 1  242             Rx   d 8 FF FF 3F FF BA 00 03 00
 0.933301 1  42C             Rx   d 8 80 00 00 00 00 00 00 00
 0.943177 1  41              Rx   d 8 00 00 00 00 00 00 00 00
 0.943370 1  242             Rx   d 8 FF FF 3F FF BA 00 03 00
 0.979011 1  581             Rx   d 8 81 00 FF FF FF FF FF FF
 0.982660 1  41              Rx   d 8 00 00 00 00 00 00 00 00
 0.982741 1  242             Rx   d 8 FF FF 3F FF BA 00 03 00
 0.982971 1  38D             Rx   d 8 20 00 00 00 00 00 0C F0
 0.983678 1  3B6             Rx   d 8 09 00 00 00 00 00 00 00
 0.983702 1  3B7             Rx   d 8 00 00 00 00 00 00 00 00
 0.984244 1  3E3             Rx   d 8 00 00 00 00 80 00 00 00
 0.984488 1  3EB             Rx   d 8 01 04 04 00 00 00 00 00
 0.985051 1  42C             Rx   d 8 80 00 00 00 00 00 00 00
 0.985485 1  447             Rx   d 8 20 00 00 4B 00 00 00 00
 1.002614 1  41              Rx   d 8 00 00 00 00 00 00 00 00
 1.022514 1  41              Rx   d 8 00 00 00 00 00 00 00 00
 1.022610 1  242             Rx   d 8 FF FF 3F FF BA 00 03 00
 1.031449 1  3B4             Rx   d 8 34 21 11 FF 1E 1A 00 00
 1.041939 1  41              Rx   d 8 00 00 00 00 00 00 00 00
 1.042162 1  3B5             Rx   d 8 FF FD FF FD FF FD FF FD
 1.061360 1  242             Rx   d 8 FF FF 3F FF BA 00 03 00
 1.061688 1  3C7             Rx   d 8 00 00 40 00 00 00 00 00
 1.081266 1  41              Rx   d 8 00 00 00 00 00 00 00 00
 1.081598 1  3B3             Rx   d 8 14 80 00 00 E6 00 03 3C
 1.081930 1  42C             Rx   d 8 80 00 00 00 00 00 00 00
 1.100471 1  41              Rx   d 8 00 00 00 00 00 00 00 00
 1.100679 1  242             Rx   d 8 FF FF 3F FF BA 00 03 00
 1.129857 1  42C             Rx   d 8 80 00 00 00 00 00 00 00
 1.139789 1  41              Rx   d 8 00 00 00 00 00 00 00 00
 1.159930 1  41              Rx   d 8 00 00 00 00 00 00 00 00
 1.179135 1  41              Rx   d 8 00 00 00 00 00 00 00 00
 1.179494 1  40A             Rx   d 8 C1 00 57 46 30 4A 58 58
 1.179806 1  42C             Rx   d 8 80 00 00 00 00 00 00 00
 1.199561 1  41              Rx   d 8 00 00 00 00 00 00 00 00
 1.218989 1  41              Rx   d 8 00 00 00 00 00 00 00 00
 1.228454 1  331             Rx   d 8 C0 00 00 00 05 01 40 20
 1.228555 1  3B6             Rx   d 8 09 00 00 00 00 00 00 00
 1.228806 1  42C             Rx   d 8 80 00 00 00 00 00 00 00
 1.238537 1  41              Rx   d 8 00 00 00 00 00 00 00 00
 1.258034 1  242             Rx   d 8 FF FF 3F FF BA 00 03 00
 1.277864 1  41              Rx   d 8 00 00 00 00 00 00 00 00
 1.278095 1  42C             Rx   d 8 80 00 00 00 00 00 00 00
 1.297630 1  242             Rx   d 8 FF FF 3F FF BA 00 03 00
 1.317549 1  41              Rx   d 8 00 00 00 00 00 00 00 00
 1.336671 1  41              Rx   d 8 00 00 00 00 00 00 00 00
 1.356487 1  41              Rx   d 8 00 00 00 00 00 00 00 00
 1.375716 1  41              Rx   d 8 00 00 00 00 00 00 00 00
 1.376093 1  40A             Rx   d 8 C1 01 47 41 48 4A 48 45
 1.376354 1  42C             Rx   d 8 80 00 00 00 00 00 00 00
 1.415579 1  41              Rx   d 8 00 00 00 00 00 00 00 00
 1.415797 1  242             Rx   d 8 FF FF 3F FF BA 00 03 00
 1.424675 1  42C             Rx   d 8 80 00 00 00 00 00 00 00
 1.454544 1  242             Rx   d 8 FF FF 3F FF BA 00 03 00
 1.474762 1  3B6             Rx   d 8 09 00 00 00 00 00 00 00
 1.475228 1  3B8             Rx   d 8 FF FF FF FF 00 00 00 00
 1.494113 1  242             Rx   d 8 FF FF 3F FF BA 00 03 00
 1.523012 1  42C             Rx   d 8 80 00 00 00 00 00 00 00
 1.533220 1  242             Rx   d 8 FF FF 3F FF BA 00 03 00
 1.572534 1  242             Rx   d 8 FF FF 3F FF BA 00 03 00
 1.572722 1  3B3             Rx   d 8 14 80 00 00 E6 00 03 3C
 1.573206 1  42C             Rx   d 8 80 00 00 00 00 00 00 00
 1.612517 1  41              Rx   d 8 00 00 00 00 00 00 00 00
 1.651224 1  41              Rx   d 8 00 00 00 00 00 00 00 00
 1.671545 1  42C             Rx   d 8 80 00 00 00 00 00 00 00
 1.690822 1  242             Rx   d 8 FF FF 3F FF BA 00 03 00
 1.719826 1  84              Rx   d 8 00 00 00 01 01 2F 0C 00
 1.720245 1  42C             Rx   d 8 80 00 00 00 00 00 00 00
 1.729906 1  242             Rx   d 8 FF FF 3F FF BA 00 03 00
 1.769107 1  41              Rx   d 8 00 00 00 00 00 00 00 00
 1.769378 1  40A             Rx   d 8 C1 04 01 8A 07 54 85 41
 1.769586 1  42C             Rx   d 8 80 00 00 00 00 00 00 00
 1.808745 1  41              Rx   d 8 00 00 00 00 00 00 00 00
 1.808950 1  242             Rx   d 8 FF FF 3F FF BA 00 03 00
 1.847578 1  41              Rx   d 8 00 00 00 00 00 00 00 00
 1.867817 1  42C             Rx   d 8 80 00 00 00 00 00 00 00
 1.887108 1  242             Rx   d 8 FF FF 3F FF BA 00 03 00
 1.916275 1  42C             Rx   d 8 80 00 00 00 00 00 00 00
 1.926254 1  41              Rx   d 8 00 00 00 00 00 00 00 00
 1.946271 1  41              Rx   d 8 00 00 00 00 00 00 00 00
 1.965792 1  41              Rx   d 8 00 00 00 00 00 00 00 00
 1.965905 1  242             Rx   d 8 FF FF 3F FF BA 00 03 00
 1.966320 1  38D             Rx   d 8 20 00 00 00 00 00 0C F0
 1.966346 1  3B1             Rx   d 8 00 00 00 00 00 00 00 00
 1.966547 1  3B6             Rx   d 8 09 00 00 00 00 00 00 00
 1.966695 1  3B7             Rx   d 8 00 00 00 00 00 00 00 00
 1.966929 1  3B8             Rx   d 8 FF FF FF FF 00 00 00 00
 1.967206 1  3E3             Rx   d 8 00 00 00 00 80 00 00 00
 1.967673 1  40A             Rx   d 8 C1 10 40 84 20 08 80 00
 1.968167 1  43C             Rx   d 8 B2 00 4B 2C 3C 99 88 14
 1.968423 1  447             Rx   d 8 20 00 00 4B 00 00 00 00
 1.985644 1  41              Rx   d 8 00 00 00 00 00 00 00 00
 2.005373 1  41              Rx   d 8 00 00 00 00 00 00 00 00
 2.014427 1  3B4             Rx   d 8 34 21 11 FF 1E 1A 00 00
 2.014628 1  42C             Rx   d 8 80 00 00 00 00 00 00 00
 2.025196 1  3B5             Rx   d 8 FF FD FF FD FF FD FF FD
 2.044188 1  41              Rx   d 8 00 00 00 00 00 00 00 00
 2.044429 1  242             Rx   d 8 FF FF 3F FF BA 00 03 00
 2.064358 1  41              Rx   d 8 00 00 00 00 00 00 00 00
 2.064438 1  3B3             Rx   d 8 14 80 00 00 E6 00 03 3C
 2.064690 1  3C3             Rx   d 8 40 88 00 E0 00 00 81 40
 2.083610 1  41              Rx   d 8 00 00 00 00 00 00 00 00
 2.104139 1  41              Rx   d 8 00 00 00 00 00 00 00 00
 2.122836 1  41              Rx   d 8 00 00 00 00 00 00 00 00
 2.123090 1  242             Rx   d 8 FF FF 3F FF BA 00 03 00
 2.162294 1  41              Rx   d 8 00 00 00 00 00 00 00 00
 2.162406 1  242             Rx   d 8 FF FF 3F FF BA 00 03 00
 2.162820 1  42C             Rx   d 8 80 00 00 00 00 00 00 00
 2.182276 1  41              Rx   d 8 00 00 00 00 00 00 00 00
 2.202191 1  242             Rx   d 8 FF FF 3F FF BA 00 03 00
 2.211066 1  331             Rx   d 8 C0 00 00 00 05 01 40 20
 2.211280 1  3B6             Rx   d 8 09 00 00 00 00 00 00 00
 2.211701 1  42C             Rx   d 8 80 00 00 00 00 00 00 00
 2.221559 1  41              Rx   d 8 00 00 00 00 00 00 00 00
 2.241087 1  242             Rx   d 8 FF FF 3F FF BA 00 03 00
 2.260880 1  41              Rx   d 8 00 00 00 00 00 00 00 00
 2.261138 1  42C             Rx   d 8 80 00 00 00 00 00 00 00
 2.280071 1  41              Rx   d 8 00 00 00 00 00 00 00 00
 2.309482 1  42C             Rx   d 8 80 00 00 00 00 00 00 00
 2.319386 1  41              Rx   d 8 00 00 00 00 00 00 00 00
 2.319624 1  242             Rx   d 8 FF FF 3F FF BA 00 03 00
 2.358841 1  41              Rx   d 8 00 00 00 00 00 00 00 00
 2.358912 1  242             Rx   d 8 FF FF 3F FF BA 00 03 00
 2.359388 1  42C             Rx   d 8 80 00 00 00 00 00 00 00
 2.398674 1  41              Rx   d 8 00 00 00 00 00 00 00 00
 2.398747 1  242             Rx   d 8 FF FF 3F FF BA 00 03 00
 2.418227 1  41              Rx   d 8 00 00 00 00 00 00 00 00
 2.437377 1  41              Rx   d 8 00 00 00 00 00 00 00 00
 2.457447 1  41              Rx   d 8 00 00 00 00 00 00 00 00
 2.457657 1  3B6             Rx   d 8 09 00 00 00 00 00 00 00
 2.458083 1  3B8             Rx   d 8 FF FF FF FF 00 00 00 00
 2.458330 1  42C             Rx   d 8 80 00 00 00 00 00 00 00
 2.476794 1  41              Rx   d 8 00 00 00 00 00 00 00 00
 2.476876 1  242             Rx   d 8 FF FF 3F FF BA 00 03 00
 2.505949 1  42C             Rx   d 8 80 00 00 00 00 00 00 00
 2.515992 1  41              Rx   d 8 00 00 00 00 00 00 00 00
 2.516204 1  242             Rx   d 8 FF FF 3F FF BA 00 03 00
 2.536087 1  41              Rx   d 8 00 00 00 00 00 00 00 00
 2.555579 1  41              Rx   d 8 00 00 00 00 00 00 00 00
 2.555903 1  3B3             Rx   d 8 14 80 00 00 E6 00 03 3C
 2.555912 1  40A             Rx   d 8 C1 01 47 41 48 4A 48 45
 2.556206 1  42C             Rx   d 8 80 00 00 00 00 00 00 00
 2.575495 1  41              Rx   d 8 00 00 00 00 00 00 00 00
 2.595160 1  41              Rx   d 8 00 00 00 00 00 00 00 00
 2.604232 1  42C             Rx   d 8 80 00 00 00 00 00 00 00
 2.633978 1  41              Rx   d 8 00 00 00 00 00 00 00 00
 2.634233 1  242             Rx   d 8 FF FF 3F FF BA 00 03 00
 2.654688 1  42C             Rx   d 8 80 00 00 00 00 00 00 00
 2.673642 1  242             Rx   d 8 FF FF 3F FF BA 00 03 00
 2.693681 1  41              Rx   d 8 00 00 00 00 00 00 00 00
 2.702598 1  3B6             Rx   d 8 09 00 00 00 00 00 00 00
 2.703000 1  42C             Rx   d 8 80 00 00 00 00 00 00 00
 2.713213 1  41              Rx   d 8 00 00 00 00 00 00 00 00
 2.713341 1  242             Rx   d 8 FF FF 3F FF BA 00 03 00
 2.732714 1  41              Rx   d 8 00 00 00 00 00 00 00 00
 2.752221 1  41              Rx   d 8 00 00 00 00 00 00 00 00
 2.752882 1  40A             Rx   d 8 C1 02 32 38 38 33 36 00
 2.752916 1  42C             Rx   d 8 80 00 00 00 00 00 00 00
 2.772015 1  41              Rx   d 8 00 00 00 00 00 00 00 00
 2.791758 1  41              Rx   d 8 00 00 00 00 00 00 00 00
 2.800879 1  42C             Rx   d 8 80 00 00 00 00 00 00 00
 2.811552 1  41              Rx   d 8 00 00 00 00 00 00 00 00
 2.830552 1  41              Rx   d 8 00 00 00 00 00 00 00 00
 2.850676 1  41              Rx   d 8 00 00 00 00 00 00 00 00
 2.850904 1  42C             Rx   d 8 80 00 00 00 00 00 00 00
 2.869879 1  41              Rx   d 8 00 00 00 00 00 00 00 00
 2.890308 1  41              Rx   d 8 00 00 00 00 00 00 00 00
 2.909591 1  41              Rx   d 8 00 00 00 00 00 00 00 00
 2.909739 1  242             Rx   d 8 FF FF 3F FF BA 00 03 00
 2.945075 1  581             Rx   d 8 81 00 FF FF FF FF FF FF
 2.948838 1  41              Rx   d 8 00 00 00 00 00 00 00 00
 2.948965 1  242             Rx   d 8 FF FF 3F FF BA 00 03 00
 2.949791 1  38D             Rx   d 8 20 00 00 00 00 00 0C F0
 2.949841 1  3B6             Rx   d 8 09 00 00 00 00 00 00 00
 2.949845 1  3B7             Rx   d 8 00 00 00 00 00 00 00 00
 2.950204 1  3E3             Rx   d 8 00 00 00 00 80 00 00 00
 2.950486 1  3EB             Rx   d 8 01 04 04 00 00 00 00 00
 2.951265 1  42C             Rx   d 8 80 00 00 00 00 00 00 00
 2.951288 1  43C             Rx   d 8 B2 00 4B 2C 3C 99 88 14
 2.968612 1  41              Rx   d 8 00 00 00 00 00 00 00 00
 2.988355 1  41              Rx   d 8 00 00 00 00 00 00 00 00
 2.997451 1  3B4             Rx   d 8 34 21 11 FF 1E 1A 00 00
 2.997684 1  42C             Rx   d 8 80 00 00 00 00 00 00 00
 3.008242 1  3B5             Rx   d 8 FF FD FF FD FF FD FF FD
 3.027169 1  41              Rx   d 8 00 00 00 00 00 00 00 00
 3.047990 1  41              Rx   d 8 00 00 00 00 00 00 00 00
 3.048123 1  3B3             Rx   d 8 14 80 00 00 E6 00 03 3C
 3.048139 1  42C             Rx   d 8 80 00 00 00 00 00 00 00
 3.066487 1  41              Rx   d 8 00 00 00 00 00 00 00 00
 3.066725 1  242             Rx   d 8 FF FF 3F FF BA 00 03 00
 3.095798 1  42C             Rx   d 8 80 00 00 00 00 00 00 00
 3.105778 1  41              Rx   d 8 00 00 00 00 00 00 00 00
 3.105985 1  242             Rx   d 8 FF FF 3F FF BA 00 03 00
 3.145229 1  41              Rx   d 8 00 00 00 00 00 00 00 00
 3.145301 1  242             Rx   d 8 FF FF 3F FF BA 00 03 00
 3.145816 1  42C             Rx   d 8 80 00 00 00 00 00 00 00
 3.165281 1  41              Rx   d 8 00 00 00 00 00 00 00 00
 3.185179 1  242             Rx   d 8 FF FF 3F FF BA 00 03 00
 3.194556 1  331             Rx   d 8 C0 00 00 00 05 01 40 20
 3.194682 1  3B6             Rx   d 8 09 00 00 00 00 00 00 00
 3.195237 1  42C             Rx   d 8 80 00 00 00 00 00 00 00
 3.223923 1  41              Rx   d 8 00 00 00 00 00 00 00 00
 3.224021 1  242             Rx   d 8 FF FF 3F FF BA 00 03 00
 3.243808 1  41              Rx   d 8 00 00 00 00 00 00 00 00
 3.263467 1  41              Rx   d 8 00 00 00 00 00 00 00 00
 3.292490 1  42C             Rx   d 8 80 00 00 00 00 00 00 00
 3.302408 1  41              Rx   d 8 00 00 00 00 00 00 00 00
 3.302610 1  242             Rx   d 8 FF FF 3F FF BA 00 03 00
 3.341731 1  41              Rx   d 8 00 00 00 00 00 00 00 00
 3.341983 1  242             Rx   d 8 FF FF 3F FF BA 00 03 00
 3.342404 1  42C             Rx   d 8 80 00 00 00 00 00 00 00
 3.361902 1  41              Rx   d 8 00 00 00 00 00 00 00 00
 3.381566 1  41              Rx   d 8 00 00 00 00 00 00 00 00
 3.390774 1  42C             Rx   d 8 80 00 00 00 00 00 00 00
 3.420390 1  41              Rx   d 8 00 00 00 00 00 00 00 00
 3.420655 1  242             Rx   d 8 FF FF 3F FF BA 00 03 00
 3.440438 1  41              Rx   d 8 00 00 00 00 00 00 00 00
 3.440830 1  3B7             Rx   d 8 00 00 00 00 00 00 00 00
 3.441077 1  3B8             Rx   d 8 FF FF FF FF 00 00 00 00
 3.441321 1  42C             Rx   d 8 80 00 00 00 00 00 00 00
 3.459787 1  41              Rx   d 8 00 00 00 00 00 00 00 00
 3.480123 1  41              Rx   d 8 00 00 00 00 00 00 00 00
 3.499171 1  41              Rx   d 8 00 00 00 00 00 00 00 00
 3.499267 1  242             Rx   d 8 FF FF 3F FF BA 00 03 00
 3.519116 1  41              Rx   d 8 00 00 00 00 00 00 00 00
 3.538614 1  41              Rx   d 8 00 00 00 00 00 00 00 00
 3.539331 1  3B3             Rx   d 8 14 80 00 00 E6 00 03 3C
 3.539356 1  40A             Rx   d 8 C1 00 57 46 30 4A 58 58
 3.558252 1  41              Rx   d 8 00 00 00 00 00 00 00 00
 3.578139 1  41              Rx   d 8 00 00 00 00 00 00 00 00
 3.587318 1  42C             Rx   d 8 80 00 00 00 00 00 00 00
 3.617001 1  41              Rx   d 8 00 00 00 00 00 00 00 00
 3.617253 1  242             Rx   d 8 FF FF 3F FF BA 00 03 00
 3.637493 1  42C             Rx   d 8 80 00 00 00 00 00 00 00
 3.656341 1  41              Rx   d 8 00 00 00 00 00 00 00 00
 3.656577 1  242             Rx   d 8 FF FF 3F FF BA 00 03 00
 3.685579 1  3B6             Rx   d 8 09 00 00 00 00 00 00 00
 3.685821 1  3B7             Rx   d 8 00 00 00 00 00 00 00 00
 3.695621 1  41              Rx   d 8 00 00 00 00 00 00 00 00
 3.695864 1  242             Rx   d 8 FF FF 3F FF BA 00 03 00
 3.715683 1  41              Rx   d 8 00 00 00 00 00 00 00 00
 3.735116 1  41              Rx   d 8 00 00 00 00 00 00 00 00
 3.735212 1  242             Rx   d 8 FF FF 3F FF BA 00 03 00
 3.735637 1  42C             Rx   d 8 80 00 00 00 00 00 00 00
 3.774961 1  41              Rx   d 8 00 00 00 00 00 00 00 00
 3.775043 1  242             Rx   d 8 FF FF 3F FF BA 00 03 00
 3.794318 1  41              Rx   d 8 00 00 00 00 00 00 00 00
 3.813815 1  41              Rx   d 8 00 00 00 00 00 00 00 00
 3.813935 1  242             Rx   d 8 FF FF 3F FF BA 00 03 00
 3.833606 1  41              Rx   d 8 00 00 00 00 00 00 00 00
 3.852909 1  41              Rx   d 8 00 00 00 00 00 00 00 00
 3.853133 1  242             Rx   d 8 FF FF 3F FF BA 00 03 00
 3.882453 1  42C             Rx   d 8 80 00 00 00 00 00 00 00
 3.892190 1  41              Rx   d 8 00 00 00 00 00 00 00 00
 3.892401 1  242             Rx   d 8 FF FF 3F FF BA 00 03 00
 3.928007 1  581             Rx   d 8 81 00 FF FF FF FF FF FF
 3.931633 1  41              Rx   d 8 00 00 00 00 00 00 00 00
 3.931852 1  242             Rx   d 8 FF FF 3F FF BA 00 03 00
 3.932023 1  38D             Rx   d 8 20 00 00 00 00 00 0C F0
 3.932267 1  3B1             Rx   d 8 00 00 00 00 00 00 00 00
 3.932764 1  3B7             Rx   d 8 00 00 00 00 00 00 00 00
 3.933058 1  3B8             Rx   d 8 FF FF FF FF 00 00 00 00
 3.933578 1  3EB             Rx   d 8 01 04 04 00 00 00 00 00
 3.933769 1  40A             Rx   d 8 C1 02 32 38 38 33 36 00
 3.934295 1  43C             Rx   d 8 B2 00 4B 2C 3C 99 88 14
 3.934556 1  447             Rx   d 8 20 00 00 4B 00 00 00 00
 3.951820 1  41              Rx   d 8 00 00 00 00 00 00 00 00
 3.971372 1  41              Rx   d 8 00 00 00 00 00 00 00 00
 3.980746 1  42C             Rx   d 8 80 00 00 00 00 00 00 00
 3.991162 1  41              Rx   d 8 00 00 00 00 00 00 00 00
 4.010169 1  41              Rx   d 8 00 00 00 00 00 00 00 00
 4.010404 1  242             Rx   d 8 FF FF 3F FF BA 00 03 00
 4.030459 1  41              Rx   d 8 00 00 00 00 00 00 00 00
 4.030590 1  3B3             Rx   d 8 14 80 00 00 E6 00 03 3C
 4.031060 1  3C3             Rx   d 8 40 88 00 E0 00 00 81 40
 4.049699 1  41              Rx   d 8 00 00 00 00 00 00 00 00
 4.069921 1  41              Rx   d 8 00 00 00 00 00 00 00 00
 4.089020 1  41              Rx   d 8 00 00 00 00 00 00 00 00
 4.089200 1  242             Rx   d 8 FF FF 3F FF BA 00 03 00
 4.128568 1  41              Rx   d 8 00 00 00 00 00 00 00 00
 4.128685 1  242             Rx   d 8 FF FF 3F FF BA 00 03 00
 4.129139 1  42C             Rx   d 8 80 00 00 00 00 00 00 00
 4.148247 1  41              Rx   d 8 00 00 00 00 00 00 00 00
 4.167952 1  41              Rx   d 8 00 00 00 00 00 00 00 00
 4.177032 1  331             Rx   d 8 C0 00 00 00 05 01 40 20
 4.177259 1  3B6             Rx   d 8 09 00 00 00 00 00 00 00
 4.177738 1  42C             Rx   d 8 80 00 00 00 00 00 00 00
 4.187650 1  41              Rx   d 8 00 00 00 00 00 00 00 00
 4.206768 1  41              Rx   d 8 00 00 00 00 00 00 00 00
 4.227091 1  41              Rx   d 8 00 00 00 00 00 00 00 00
 4.246102 1  41              Rx   d 8 00 00 00 00 00 00 00 00
 4.246335 1  242             Rx   d 8 FF FF 3F FF BA 00 03 00
 4.275396 1  42C             Rx   d 8 80 00 00 00 00 00 00 00
 4.285375 1  41              Rx   d 8 00 00 00 00 00 00 00 00
 4.285591 1  242             Rx   d 8 FF FF 3F FF BA 00 03 00
 4.324925 1  41              Rx   d 8 00 00 00 00 00 00 00 00
 4.325037 1  242             Rx   d 8 FF FF 3F FF BA 00 03 00
 4.325501 1  42C             Rx   d 8 80 00 00 00 00 00 00 00
 4.344809 1  41              Rx   d 8 00 00 00 00 00 00 00 00
 4.364765 1  242             Rx   d 8 FF FF 3F FF BA 00 03 00
 4.373688 1  42C             Rx   d 8 80 00 00 00 00 00 00 00
 4.403717 1  41              Rx   d 8 00 00 00 00 00 00 00 00
 4.403834 1  242             Rx   d 8 FF FF 3F FF BA 00 03 00
 4.423627 1  41              Rx   d 8 00 00 00 00 00 00 00 00
 4.424096 1  3B7             Rx   d 8 00 00 00 00 00 00 00 00
 4.424109 1  3B8             Rx   d 8 FF FF FF FF 00 00 00 00
 4.442692 1  41              Rx   d 8 00 00 00 00 00 00 00 00
 4.442883 1  242             Rx   d 8 FF FF 3F FF BA 00 03 00
 4.472218 1  42C             Rx   d 8 80 00 00 00 00 00 00 00
 4.481988 1  41              Rx   d 8 00 00 00 00 00 00 00 00
 4.482193 1  242             Rx   d 8 FF FF 3F FF BA 00 03 00
 4.502382 1  41              Rx   d 8 00 00 00 00 00 00 00 00
 4.521310 1  41              Rx   d 8 00 00 00 00 00 00 00 00
 4.521703 1  3B3             Rx   d 8 14 80 00 00 E6 00 03 3C
 4.521978 1  40A             Rx   d 8 C0 00 00 23 5F 2A 51 00
 4.541596 1  41              Rx   d 8 00 00 00 00 00 00 00 00
 4.561163 1  41              Rx   d 8 00 00 00 00 00 00 00 00
 4.570405 1  42C             Rx   d 8 80 00 00 00 00 00 00 00
 4.600140 1  41              Rx   d 8 00 00 00 00 00 00 00 00
 4.600264 1  242             Rx   d 8 FF FF 3F FF BA 00 03 00
 4.620242 1  41              Rx   d 8 00 00 00 00 00 00 00 00
 4.639351 1  41              Rx   d 8 00 00 00 00 00 00 00 00
