date Sun Mar 02 12:48:23.741 PM 2025
base hex  timestamps absolute
internal events logged
Begin Triggerblock Sun Mar 02 12:48:31.362 PM 2025
 0.000000 Start of measurement
 0.000000 1  581             Rx   d 8 81 00 FF FF FF FF FF FF
 0.003763 1  84              Rx   d 8 00 00 00 01 04 30 0C 00
 0.003942 1  242             Rx   d 8 FF FF 3F FF BA 00 00 01
 0.004234 1  331             Rx   d 8 C0 00 00 00 05 03 88 00
 0.004675 1  3B1             Rx   d 8 00 00 00 00 00 00 00 00
 0.004896 1  3B3             Rx   d 8 10 88 00 00 E6 00 03 3C
 0.005378 1  3B5             Rx   d 8 FF FD FF FD FF FD FF FD
 0.005871 1  3B7             Rx   d 8 00 00 00 00 00 00 00 00
 0.006120 1  3B8             Rx   d 8 FF FF FF FF 00 00 00 00
 0.006638 1  3C7             Rx   d 8 00 00 40 00 00 00 00 00
 0.007136 1  3EB             Rx   d 8 01 04 04 00 00 00 00 00
 0.007670 1  42C             Rx   d 8 80 00 00 00 00 00 00 00
 0.008181 1  447             Rx   d 8 20 00 00 4B 00 00 00 00
 0.023683 1  41              Rx   d 8 00 00 00 00 00 00 00 00
 0.043484 1  242             Rx   d 8 FF FF 3F FF BA 00 00 01
 0.052405 1  3B4             Rx   d 8 34 21 11 FF 1E 1A 00 00
 0.052623 1  42C             Rx   d 8 80 00 00 00 00 00 00 00
 0.063180 1  3B5             Rx   d 8 FF FD FF FD FF FD FF FD
 0.082200 1  41              Rx   d 8 00 00 00 00 00 00 00 00
 0.082280 1  242             Rx   d 8 FF FF 3F FF BA 00 00 01
 0.102768 1  41              Rx   d 8 00 00 00 00 00 00 00 00
 0.102918 1  3B3             Rx   d 8 10 88 00 00 E6 00 03 3C
 0.103480 1  42C             Rx   d 8 80 00 00 00 00 00 00 00
 0.121577 1  41              Rx   d 8 00 00 00 00 00 00 00 00
 0.121632 1  242             Rx   d 8 FF FF 3F FF BA 00 00 01
 0.150766 1  42C             Rx   d 8 80 00 00 00 00 00 00 00
 0.161062 1  41              Rx   d 8 00 00 00 00 00 00 00 00
 0.180835 1  41              Rx   d 8 00 00 00 00 00 00 00 00
 0.200364 1  41              Rx   d 8 00 00 00 00 00 00 00 00
 0.200922 1  40A             Rx   d 8 C1 10 40 84 20 08 80 00
 0.200952 1  42C             Rx   d 8 80 00 00 00 00 00 00 00
 0.220144 1  41              Rx   d 8 00 00 00 00 00 00 00 00
 0.239883 1  41              Rx   d 8 00 00 00 00 00 00 00 00
 0.248999 1  331             Rx   d 8 C0 00 00 00 05 03 88 00
 0.249201 1  3B6             Rx   d 8 09 00 00 00 00 00 00 00
 0.249726 1  42C             Rx   d 8 80 00 00 00 00 00 00 00
 0.259620 1  41              Rx   d 8 00 00 00 00 00 00 00 00
 0.278729 1  41              Rx   d 8 00 00 00 00 00 00 00 00
 0.299073 1  42C             Rx   d 8 80 00 00 00 00 00 00 00
 0.318045 1  41              Rx   d 8 00 00 00 00 00 00 00 00
 0.318257 1  242             Rx   d 8 FF FF 3F FF BA 00 00 01
 0.347338 1  42C             Rx   d 8 80 00 00 00 00 00 00 00
 0.357411 1  41              Rx   d 8 00 00 00 00 00 00 00 00
 0.357599 1  242             Rx   d 8 FF FF 3F FF BA 00 00 01
 0.396876 1  41              Rx   d 8 00 00 00 00 00 00 00 00
 0.396986 1  242             Rx   d 8 FF FF 3F FF BA 00 00 01
 0.397416 1  42C             Rx   d 8 80 00 00 00 00 00 00 00
 0.416759 1  41              Rx   d 8 00 00 00 00 00 00 00 00
 0.437002 1  242             Rx   d 8 FF FF 3F FF BA 00 00 01
 0.445624 1  42C             Rx   d 8 80 00 00 00 00 00 00 00
 0.475573 1  41              Rx   d 8 00 00 00 00 00 00 00 00
 0.475753 1  242             Rx   d 8 FF FF 3F FF BA 00 00 01
 0.495994 1  3B6             Rx   d 8 09 00 00 00 00 00 00 00
 0.496015 1  3B7             Rx   d 8 00 00 00 00 00 00 00 00
 0.496493 1  42C             Rx   d 8 80 00 00 00 00 00 00 00
 0.514972 1  242             Rx   d 8 FF FF 3F FF BA 00 00 01
 0.535165 1  41              Rx   d 8 00 00 00 00 00 00 00 00
 0.554094 1  242             Rx   d 8 FF FF 3F FF BA 00 00 01
 0.554303 1  3B5             Rx   d 8 FF FD FF FD FF FD FF FD
 0.593246 1  41              Rx   d 8 00 00 00 00 00 00 00 00
 0.593448 1  242             Rx   d 8 FF FF 3F FF BA 00 00 01
 0.593661 1  3B3             Rx   d 8 10 88 00 00 E6 00 03 3C
 0.594136 1  42C             Rx   d 8 80 00 00 00 00 00 00 00
 0.613411 1  41              Rx   d 8 00 00 00 00 00 00 00 00
 0.633319 1  242             Rx   d 8 FF FF 3F FF BA 00 00 01
 0.652653 1  41              Rx   d 8 00 00 00 00 00 00 00 00
 0.672230 1  242             Rx   d 8 FF FF 3F FF BA 00 00 01
 0.692153 1  84              Rx   d 8 00 00 00 01 04 31 0C 00
 0.692414 1  42C             Rx   d 8 80 00 00 00 00 00 00 00
 0.711491 1  41              Rx   d 8 00 00 00 00 00 00 00 00
 0.740521 1  3B6             Rx   d 8 09 00 00 00 00 00 00 00
 0.740688 1  3B7             Rx   d 8 00 00 00 00 00 00 00 00
 0.750780 1  242             Rx   d 8 FF FF 3F FF BA 00 00 01
 0.790260 1  41              Rx   d 8 00 00 00 00 00 00 00 00
 0.790471 1  40A             Rx   d 8 C1 01 47 41 48 4A 48 45
 0.829709 1  41              Rx   d 8 00 00 00 00 00 00 00 00
 0.829899 1  242             Rx   d 8 FF FF 3F FF BA 00 00 01
 0.849364 1  41              Rx   d 8 00 00 00 00 00 00 00 00
 0.868705 1  242             Rx   d 8 FF FF 3F FF BA 00 00 01
 0.888702 1  41              Rx   d 8 00 00 00 00 00 00 00 00
 0.907988 1  242             Rx   d 8 FF FF 3F FF BA 00 00 01
 0.928322 1  41              Rx   d 8 00 00 00 00 00 00 00 00
 0.947152 1  41              Rx   d 8 00 00 00 00 00 00 00 00
 0.967247 1  41              Rx   d 8 00 00 00 00 00 00 00 00
 0.986609 1  242             Rx   d 8 FF FF 3F FF BA 00 00 01
 0.986850 1  38D             Rx   d 8 20 00 00 00 00 00 0C F0
 0.987105 1  3B1             Rx   d 8 00 00 00 00 00 00 00 00
 0.987338 1  3B6             Rx   d 8 09 00 00 00 00 00 00 00
 0.987836 1  3B8             Rx   d 8 FF FF FF FF 00 00 00 00
 0.988086 1  3E3             Rx   d 8 00 00 00 00 80 00 00 00
 0.988590 1  40A             Rx   d 8 C1 02 32 38 38 33 36 00
 0.988890 1  42C             Rx   d 8 80 00 00 00 00 00 00 00
 0.989367 1  447             Rx   d 8 20 00 00 4B 00 00 00 00
 1.006855 1  41              Rx   d 8 00 00 00 00 00 00 00 00
 1.026515 1  242             Rx   d 8 FF FF 3F FF BA 00 03 01
 1.035733 1  42C             Rx   d 8 80 00 00 00 00 00 00 00
 1.046000 1  41              Rx   d 8 00 00 00 00 00 00 00 00
 1.065324 1  41              Rx   d 8 00 00 00 00 00 00 00 00
 1.065640 1  3C7             Rx   d 8 00 00 40 00 00 00 00 00
 1.085381 1  3B3             Rx   d 8 10 88 00 00 E6 00 03 3C
 1.085572 1  3C3             Rx   d 8 40 88 00 E8 00 00 81 00
 1.104750 1  242             Rx   d 8 FF FF 3F FF BA 00 03 01
 1.134107 1  42C             Rx   d 8 80 00 00 00 00 00 00 00
 1.143730 1  41              Rx   d 8 00 00 00 00 00 00 00 00
 1.183052 1  41              Rx   d 8 00 00 00 00 00 00 00 00
 1.183215 1  242             Rx   d 8 FF FF 3F FF BA 00 03 01
 1.183683 1  42C             Rx   d 8 80 00 00 00 00 00 00 00
 1.203453 1  41              Rx   d 8 00 00 00 00 00 00 00 00
 1.223050 1  242             Rx   d 8 FF FF 3F FF BA 00 03 01
 1.232171 1  3B6             Rx   d 8 09 00 00 00 00 00 00 00
 1.232405 1  3B7             Rx   d 8 00 00 00 00 00 00 00 00
 1.232731 1  42C             Rx   d 8 80 00 00 00 00 00 00 00
 1.242529 1  41              Rx   d 8 00 00 00 00 00 00 00 00
 1.261898 1  242             Rx   d 8 FF FF 3F FF BA 00 03 01
 1.282073 1  42C             Rx   d 8 80 00 00 00 00 00 00 00
 1.301150 1  41              Rx   d 8 00 00 00 00 00 00 00 00
 1.330334 1  42C             Rx   d 8 80 00 00 00 00 00 00 00
 1.340519 1  41              Rx   d 8 00 00 00 00 00 00 00 00
 1.360512 1  41              Rx   d 8 00 00 00 00 00 00 00 00
 1.379914 1  242             Rx   d 8 FF FF 3F FF BA 00 03 01
 1.380187 1  40A             Rx   d 8 C1 10 40 84 20 08 80 00
 1.380375 1  42C             Rx   d 8 80 00 00 00 00 00 00 00
 1.399749 1  41              Rx   d 8 00 00 00 00 00 00 00 00
 1.419845 1  242             Rx   d 8 FF FF 3F FF BA 00 03 01
 1.428613 1  42C             Rx   d 8 80 00 00 00 00 00 00 00
 1.458291 1  41              Rx   d 8 00 00 00 00 00 00 00 00
 1.478806 1  41              Rx   d 8 00 00 00 00 00 00 00 00
 1.479156 1  3B7             Rx   d 8 00 00 00 00 00 00 00 00
 1.479605 1  42C             Rx   d 8 80 00 00 00 00 00 00 00
 1.497692 1  41              Rx   d 8 00 00 00 00 00 00 00 00
 1.526925 1  42C             Rx   d 8 80 00 00 00 00 00 00 00
 1.536933 1  41              Rx   d 8 00 00 00 00 00 00 00 00
 1.537383 1  3B5             Rx   d 8 FF FD FF FD FF FD FF FD
 1.576238 1  41              Rx   d 8 00 00 00 00 00 00 00 00
 1.576393 1  242             Rx   d 8 FF FF 3F FF BA 00 03 01
 1.576877 1  40A             Rx   d 8 C0 00 00 23 5F 41 E8 00
 1.596331 1  41              Rx   d 8 00 00 00 00 00 00 00 00
 1.616381 1  242             Rx   d 8 FF FF 3F FF BA 00 03 01
 1.635641 1  41              Rx   d 8 00 00 00 00 00 00 00 00
 1.655063 1  242             Rx   d 8 FF FF 3F FF BA 00 03 01
 1.675028 1  41              Rx   d 8 00 00 00 00 00 00 00 00
 1.684222 1  84              Rx   d 8 00 00 00 01 04 32 0C 00
 1.694612 1  242             Rx   d 8 FF FF 3F FF BA 00 03 01
 1.723565 1  3B6             Rx   d 8 09 00 00 00 00 00 00 00
 1.723815 1  3B7             Rx   d 8 00 00 00 00 00 00 00 00
 1.733679 1  41              Rx   d 8 00 00 00 00 00 00 00 00
 1.753637 1  41              Rx   d 8 00 00 00 00 00 00 00 00
 1.773010 1  242             Rx   d 8 FF FF 3F FF BA 00 03 01
 1.773212 1  40A             Rx   d 8 C1 00 57 46 30 4A 58 58
 1.812688 1  41              Rx   d 8 00 00 00 00 00 00 00 00
 1.832372 1  41              Rx   d 8 00 00 00 00 00 00 00 00
 1.851693 1  242             Rx   d 8 FF FF 3F FF BA 00 03 01
 1.871804 1  42C             Rx   d 8 80 00 00 00 00 00 00 00
 1.890833 1  41              Rx   d 8 00 00 00 00 00 00 00 00
 1.920145 1  42C             Rx   d 8 80 00 00 00 00 00 00 00
 1.930307 1  242             Rx   d 8 FF FF 3F FF BA 00 03 01
 1.966041 1  581             Rx   d 8 81 00 FF FF FF FF FF FF
 1.969711 1  242             Rx   d 8 FF FF 3F FF BA 00 03 01
 1.969964 1  38D             Rx   d 8 20 00 00 00 00 00 0C F0
 1.970174 1  3B1             Rx   d 8 00 00 00 00 00 00 00 00
 1.970661 1  3B7             Rx   d 8 00 00 00 00 00 00 00 00
 1.971394 1  3E3             Rx   d 8 00 00 00 00 80 00 00 00
 1.971433 1  3EB             Rx   d 8 01 04 04 00 00 00 00 00
 1.971867 1  42C             Rx   d 8 80 00 00 00 00 00 00 00
 1.972373 1  447             Rx   d 8 20 00 00 4B 00 00 00 00
 1.989582 1  41              Rx   d 8 00 00 00 00 00 00 00 00
 2.009667 1  242             Rx   d 8 FF FF 3F FF BA 00 03 01
 2.018374 1  3B4             Rx   d 8 34 21 11 FF 1E 1A 00 00
 2.028857 1  41              Rx   d 8 00 00 00 00 00 00 00 00
 2.048192 1  41              Rx   d 8 00 00 00 00 00 00 00 00
 2.048254 1  242             Rx   d 8 FF FF 3F FF BA 00 03 01
 2.068378 1  41              Rx   d 8 00 00 00 00 00 00 00 00
 2.068482 1  3B3             Rx   d 8 10 88 00 00 E6 00 03 3C
 2.068848 1  3C3             Rx   d 8 40 88 00 E8 00 00 81 00
 2.068870 1  42C             Rx   d 8 80 00 00 00 00 00 00 00
 2.087442 1  41              Rx   d 8 00 00 00 00 00 00 00 00
 2.087609 1  242             Rx   d 8 FF FF 3F FF BA 00 03 01
 2.126744 1  41              Rx   d 8 00 00 00 00 00 00 00 00
 2.126902 1  242             Rx   d 8 FF FF 3F FF BA 00 03 01
 2.166046 1  41              Rx   d 8 00 00 00 00 00 00 00 00
 2.166247 1  242             Rx   d 8 FF FF 3F FF BA 00 03 01
 2.166461 1  40A             Rx   d 8 C1 02 32 38 38 33 36 00
 2.166674 1  42C             Rx   d 8 80 00 00 00 00 00 00 00
 2.186291 1  41              Rx   d 8 00 00 00 00 00 00 00 00
 2.214915 1  331             Rx   d 8 C0 00 00 00 05 03 88 00
 2.215114 1  3B6             Rx   d 8 09 00 00 00 00 00 00 00
 2.215614 1  42C             Rx   d 8 80 00 00 00 00 00 00 00
 2.244713 1  41              Rx   d 8 00 00 00 00 00 00 00 00
 2.265083 1  42C             Rx   d 8 80 00 00 00 00 00 00 00
 2.284305 1  242             Rx   d 8 FF FF 3F FF BA 00 03 01
 2.304418 1  41              Rx   d 8 00 00 00 00 00 00 00 00
 2.323462 1  41              Rx   d 8 00 00 00 00 00 00 00 00
 2.343469 1  41              Rx   d 8 00 00 00 00 00 00 00 00
 2.363138 1  242             Rx   d 8 FF FF 3F FF BA 00 03 01
 2.363486 1  42C             Rx   d 8 80 00 00 00 00 00 00 00
 2.382817 1  41              Rx   d 8 00 00 00 00 00 00 00 00
 2.402674 1  242             Rx   d 8 FF FF 3F FF BA 00 03 01
 2.411631 1  42C             Rx   d 8 80 00 00 00 00 00 00 00
 2.441427 1  41              Rx   d 8 00 00 00 00 00 00 00 00
 2.441488 1  242             Rx   d 8 FF FF 3F FF BA 00 03 01
 2.462077 1  3B7             Rx   d 8 00 00 00 00 00 00 00 00
 2.462729 1  42C             Rx   d 8 80 00 00 00 00 00 00 00
 2.480668 1  41              Rx   d 8 00 00 00 00 00 00 00 00
 2.480854 1  242             Rx   d 8 FF FF 3F FF BA 00 03 01
 2.509956 1  42C             Rx   d 8 80 00 00 00 00 00 00 00
 2.520136 1  242             Rx   d 8 FF FF 3F FF BA 00 03 01
 2.520323 1  3B5             Rx   d 8 FF FD FF FD FF FD FF FD
 2.559501 1  242             Rx   d 8 FF FF 3F FF BA 00 03 01
 2.559896 1  40A             Rx   d 8 C1 10 40 84 20 08 80 00
 2.560143 1  42C             Rx   d 8 80 00 00 00 00 00 00 00
 2.579491 1  41              Rx   d 8 00 00 00 00 00 00 00 00
 2.599499 1  242             Rx   d 8 FF FF 3F FF BA 00 03 01
 2.608286 1  42C             Rx   d 8 80 00 00 00 00 00 00 00
 2.638069 1  41              Rx   d 8 00 00 00 00 00 00 00 00
 2.658202 1  42C             Rx   d 8 80 00 00 00 00 00 00 00
 2.677530 1  242             Rx   d 8 FF FF 3F FF BA 00 03 01
 2.697680 1  41              Rx   d 8 00 00 00 00 00 00 00 00
 2.706736 1  3B7             Rx   d 8 00 00 00 00 00 00 00 00
 2.706928 1  42C             Rx   d 8 80 00 00 00 00 00 00 00
 2.716823 1  242             Rx   d 8 FF FF 3F FF BA 00 03 01
 2.736632 1  41              Rx   d 8 00 00 00 00 00 00 00 00
 2.756558 1  42C             Rx   d 8 80 00 00 00 00 00 00 00
 2.795883 1  242             Rx   d 8 FF FF 3F FF BA 00 03 01
 2.804802 1  42C             Rx   d 8 80 00 00 00 00 00 00 00
 2.834720 1  242             Rx   d 8 FF FF 3F FF BA 00 03 01
 2.854756 1  42C             Rx   d 8 80 00 00 00 00 00 00 00
 2.873837 1  41              Rx   d 8 00 00 00 00 00 00 00 00
 2.874032 1  242             Rx   d 8 FF FF 3F FF BA 00 03 01
 2.894608 1  41              Rx   d 8 00 00 00 00 00 00 00 00
 2.913294 1  242             Rx   d 8 FF FF 3F FF BA 00 03 01
 2.948971 1  581             Rx   d 8 81 00 FF FF FF FF FF FF
 2.952754 1  242             Rx   d 8 FF FF 3F FF BA 00 03 01
 2.953120 1  3B1             Rx   d 8 00 00 00 00 00 00 00 00
 2.953637 1  3B7             Rx   d 8 00 00 00 00 00 00 00 00
 2.953884 1  3B8             Rx   d 8 FF FF FF FF 00 00 00 00
 2.954381 1  3EB             Rx   d 8 01 04 04 00 00 00 00 00
 2.954616 1  40A             Rx   d 8 C1 00 57 46 30 4A 58 58
 2.955112 1  43C             Rx   d 8 B2 00 4B 2C 3C 99 88 14
 2.972589 1  41              Rx   d 8 00 00 00 00 00 00 00 00
 2.992464 1  242             Rx   d 8 FF FF 3F FF BA 00 03 01
 3.001636 1  42C             Rx   d 8 80 00 00 00 00 00 00 00
 3.012185 1  3B5             Rx   d 8 FF FD FF FD FF FD FF FD
 3.031342 1  242             Rx   d 8 FF FF 3F FF BA 00 03 01
 3.031510 1  3C7             Rx   d 8 00 00 40 00 00 00 00 00
 3.051827 1  3B3             Rx   d 8 10 88 00 00 E6 00 03 3C
 3.051838 1  3C3             Rx   d 8 40 88 00 E8 00 00 81 00
 3.070611 1  242             Rx   d 8 FF FF 3F FF BA 00 03 01
 3.099706 1  42C             Rx   d 8 80 00 00 00 00 00 00 00
 3.109912 1  242             Rx   d 8 FF FF 3F FF BA 00 03 01
 3.149360 1  242             Rx   d 8 FF FF 3F FF BA 00 03 01
 3.149712 1  40A             Rx   d 8 C1 01 47 41 48 4A 48 45
 3.149730 1  42C             Rx   d 8 80 00 00 00 00 00 00 00
 3.169118 1  41              Rx   d 8 00 00 00 00 00 00 00 00
 3.189445 1  242             Rx   d 8 FF FF 3F FF BA 00 03 01
 3.198183 1  3B6             Rx   d 8 09 00 00 00 00 00 00 00
 3.198447 1  3B7             Rx   d 8 00 00 00 00 00 00 00 00
 3.227827 1  41              Rx   d 8 00 00 00 00 00 00 00 00
 3.247951 1  42C             Rx   d 8 80 00 00 00 00 00 00 00
 3.267385 1  242             Rx   d 8 FF FF 3F FF BA 00 03 01
 3.296374 1  42C             Rx   d 8 80 00 00 00 00 00 00 00
 3.306515 1  242             Rx   d 8 FF FF 3F FF BA 00 03 01
 3.345898 1  242             Rx   d 8 FF FF 3F FF BA 00 03 01
 3.346030 1  40A             Rx   d 8 C1 02 32 38 38 33 36 00
 3.385744 1  41              Rx   d 8 00 00 00 00 00 00 00 00
 3.405031 1  41              Rx   d 8 00 00 00 00 00 00 00 00
 3.424650 1  242             Rx   d 8 FF FF 3F FF BA 00 03 01
 3.444779 1  3B6             Rx   d 8 09 00 00 00 00 00 00 00
 3.445019 1  3B7             Rx   d 8 00 00 00 00 00 00 00 00
 3.445491 1  42C             Rx   d 8 80 00 00 00 00 00 00 00
 3.463974 1  242             Rx   d 8 FF FF 3F FF BA 00 03 01
 3.492952 1  42C             Rx   d 8 80 00 00 00 00 00 00 00
 3.503226 1  242             Rx   d 8 FF FF 3F FF BA 00 03 01
 3.532614 1  3B3             Rx   d 8 20 88 00 00 E6 00 03 3E
 3.532631 1  3C3             Rx   d 8 40 88 00 C8 00 00 81 00
 3.542957 1  242             Rx   d 8 FF FF 3F FF BA 00 03 01
 3.543130 1  40A             Rx   d 8 C1 04 01 8A 07 54 85 41
 3.543447 1  42C             Rx   d 8 80 00 00 00 00 00 00 00
 3.562689 1  3B3             Rx   d 8 20 88 00 00 E6 00 03 3E
 3.582448 1  242             Rx   d 8 FF FF 3F FF BA 00 03 01
 3.601833 1  41              Rx   d 8 00 00 00 00 00 00 00 00
 3.621071 1  242             Rx   d 8 FF FF 3F FF BA 00 03 01
 3.641219 1  42C             Rx   d 8 80 00 00 00 00 00 00 00
 3.660414 1  242             Rx   d 8 FF FF 3F FF BA 00 03 01
 3.689704 1  3B6             Rx   d 8 09 00 00 00 00 00 00 00
 3.689944 1  3B7             Rx   d 8 00 00 00 00 00 00 00 00
 3.699791 1  242             Rx   d 8 FF FF 3F FF BA 00 03 01
 3.739135 1  242             Rx   d 8 FF FF 3F FF BA 00 03 01
 3.739381 1  40A             Rx   d 8 C1 10 40 84 20 08 80 00
 3.778882 1  41              Rx   d 8 00 00 00 00 00 00 00 00
 3.798254 1  41              Rx   d 8 00 00 00 00 00 00 00 00
 3.817779 1  242             Rx   d 8 FF FF 3F FF BA 00 03 01
 3.837729 1  42C             Rx   d 8 80 00 00 00 00 00 00 00
 3.857114 1  242             Rx   d 8 FF FF 3F FF BA 00 03 01
 3.886570 1  42C             Rx   d 8 80 00 00 00 00 00 00 00
 3.896778 1  242             Rx   d 8 FF FF 3F FF BA 00 03 01
 3.916410 1  41              Rx   d 8 00 00 00 00 00 00 00 00
 3.936188 1  242             Rx   d 8 FF FF 3F FF BA 00 03 01
 3.936447 1  38D             Rx   d 8 20 00 00 00 30 00 0C F0
 3.936921 1  3B6             Rx   d 8 09 00 00 00 00 00 00 00
 3.937205 1  3B7             Rx   d 8 00 00 00 00 00 00 00 00
 3.937652 1  3E3             Rx   d 8 00 00 00 00 80 00 00 00
 3.937901 1  3EB             Rx   d 8 01 04 04 00 00 00 00 00
 3.938416 1  42C             Rx   d 8 80 00 00 00 00 00 00 00
 3.938676 1  43C             Rx   d 8 B2 00 4B 2C 3C 99 88 14
 3.975416 1  41              Rx   d 8 00 00 00 00 00 00 00 00
 3.984648 1  42C             Rx   d 8 80 00 00 00 00 00 00 00
 3.995051 1  3B5             Rx   d 8 FF FD FF FD FF FD FF FD
 4.014568 1  242             Rx   d 8 FF FF 3F FF BA 00 03 01
 4.014597 1  3C7             Rx   d 8 00 00 40 00 00 00 00 00
 4.034336 1  3B3             Rx   d 8 20 88 00 00 E6 00 03 3E
 4.034537 1  3C3             Rx   d 8 40 88 00 C8 00 00 81 00
 4.034786 1  42C             Rx   d 8 80 00 00 00 00 00 00 00
 4.053696 1  242             Rx   d 8 FF FF 3F FF BA 00 03 01
 4.073860 1  41              Rx   d 8 00 00 00 00 00 00 00 00
 4.092981 1  242             Rx   d 8 FF FF 3F FF BA 00 03 01
 4.132485 1  242             Rx   d 8 FF FF 3F FF BA 00 03 01
 4.132835 1  40A             Rx   d 8 C1 00 57 46 30 4A 58 58
 4.172029 1  242             Rx   d 8 FF FF 3F FF BA 00 03 01
 4.181184 1  3B6             Rx   d 8 09 00 00 00 00 00 00 00
 4.181389 1  3B7             Rx   d 8 00 00 00 00 00 00 00 00
 4.210918 1  242             Rx   d 8 FF FF 3F FF BA 00 03 01
 4.230991 1  42C             Rx   d 8 80 00 00 00 00 00 00 00
 4.250266 1  242             Rx   d 8 FF FF 3F FF BA 00 03 01
 4.279426 1  42C             Rx   d 8 80 00 00 00 00 00 00 00
 4.289521 1  242             Rx   d 8 FF FF 3F FF BA 00 03 01
 4.329045 1  242             Rx   d 8 FF FF 3F FF BA 00 03 01
 4.329063 1  40A             Rx   d 8 C1 01 47 41 48 4A 48 45
 4.368706 1  41              Rx   d 8 00 00 00 00 00 00 00 00
 4.388084 1  41              Rx   d 8 00 00 00 00 00 00 00 00
 4.427773 1  3B6             Rx   d 8 09 00 00 00 00 00 00 00
 4.428005 1  3B7             Rx   d 8 00 00 00 00 00 00 00 00
 4.428491 1  42C             Rx   d 8 80 00 00 00 00 00 00 00
 4.446920 1  242             Rx   d 8 FF FF 3F FF BA 00 03 01
 4.467146 1  41              Rx   d 8 00 00 00 00 00 00 00 00
 4.486115 1  242             Rx   d 8 FF FF 3F FF BA 00 03 01
 4.486343 1  3B5             Rx   d 8 FF FD FF FD FF FD FF FD
 4.525468 1  242             Rx   d 8 FF FF 3F FF BA 00 03 01
 4.525751 1  3B3             Rx   d 8 20 88 00 00 E6 00 03 3E
 4.526183 1  42C             Rx   d 8 80 00 00 00 00 00 00 00
 4.545431 1  41              Rx   d 8 00 00 00 00 00 00 00 00
 4.565284 1  242             Rx   d 8 FF FF 3F FF BA 00 03 01
 4.584726 1  41              Rx   d 8 00 00 00 00 00 00 00 00
 4.604115 1  242             Rx   d 8 FF FF 3F FF BA 00 03 01
 4.624136 1  42C             Rx   d 8 80 00 00 00 00 00 00 00
 4.643492 1  242             Rx   d 8 FF FF 3F FF BA 00 03 01
 4.663637 1  41              Rx   d 8 00 00 00 00 00 00 00 00
 4.672695 1  3B7             Rx   d 8 00 00 00 00 00 00 00 00
 4.673208 1  42C             Rx   d 8 80 00 00 00 00 00 00 00
 4.682726 1  242             Rx   d 8 FF FF 3F FF BA 00 03 01
 4.702615 1  41              Rx   d 8 00 00 00 00 00 00 00 00
 4.722186 1  242             Rx   d 8 FF FF 3F FF BA 00 03 01
 4.722587 1  40A             Rx   d 8 C1 04 01 8A 07 54 85 41
 4.722604 1  42C             Rx   d 8 80 00 00 00 00 00 00 00
 4.742042 1  41              Rx   d 8 00 00 00 00 00 00 00 00
 4.761851 1  242             Rx   d 8 FF FF 3F FF BA 00 03 01
 4.781222 1  41              Rx   d 8 00 00 00 00 00 00 00 00
 4.800452 1  41              Rx   d 8 00 00 00 00 00 00 00 00
 4.820757 1  42C             Rx   d 8 80 00 00 00 00 00 00 00
 4.840397 1  242             Rx   d 8 FF FF 3F FF BA 00 03 01
 4.869199 1  42C             Rx   d 8 80 00 00 00 00 00 00 00
 4.879493 1  242             Rx   d 8 FF FF 3F FF BA 00 03 01
 4.915104 1  581             Rx   d 8 81 00 FF FF FF FF FF FF
 4.918668 1  242             Rx   d 8 FF FF 3F FF BA 00 03 01
 4.918850 1  38D             Rx   d 8 20 00 00 00 30 00 0C F0
 4.919092 1  3B1             Rx   d 8 00 00 00 00 00 00 00 00
 4.919365 1  3B6             Rx   d 8 09 00 00 00 00 00 00 00
 4.919828 1  3B8             Rx   d 8 FF FF FF FF 00 00 00 00
 4.920088 1  3E3             Rx   d 8 00 00 00 00 80 00 00 00
 4.920346 1  3EB             Rx   d 8 01 04 04 00 00 00 00 00
 4.920589 1  40A             Rx   d 8 C1 10 40 84 20 08 80 00
 4.921084 1  43C             Rx   d 8 B2 00 4B 2C 3C 99 88 14
 4.958485 1  242             Rx   d 8 FF FF 3F FF BA 00 03 01
 4.967584 1  42C             Rx   d 8 80 00 00 00 00 00 00 00
 4.978115 1  3B5             Rx   d 8 FF FD FF FD FF FD FF FD
 4.997264 1  242             Rx   d 8 FF FF 3F FF BA 00 03 01
 5.017412 1  3B3             Rx   d 8 20 88 00 00 E6 00 03 3E
 5.017861 1  42C             Rx   d 8 80 00 00 00 00 00 00 00
 5.036562 1  242             Rx   d 8 FF FF 3F FF BA 00 03 01
 5.065841 1  42C             Rx   d 8 80 00 00 00 00 00 00 00
 5.076023 1  242             Rx   d 8 FF FF 3F FF BA 00 03 01
 5.115335 1  242             Rx   d 8 FF FF 3F FF BA 00 03 01
 5.115569 1  40A             Rx   d 8 C0 00 00 23 5F 42 0C 00
 5.155145 1  41              Rx   d 8 00 00 00 00 00 00 00 00
 5.164142 1  3B6             Rx   d 8 09 00 00 00 00 00 00 00
 5.164388 1  3B7             Rx   d 8 00 00 00 00 00 00 00 00
 5.193892 1  242             Rx   d 8 FF FF 3F FF BA 00 03 01
 5.214047 1  42C             Rx   d 8 80 00 00 00 00 00 00 00
 5.233181 1  242             Rx   d 8 FF FF 3F FF BA 00 03 01
 5.262362 1  42C             Rx   d 8 80 00 00 00 00 00 00 00
 5.272493 1  242             Rx   d 8 FF FF 3F FF BA 00 03 01
 5.311826 1  242             Rx   d 8 FF FF 3F FF BA 00 03 01
 5.312037 1  40A             Rx   d 8 C1 00 57 46 30 4A 58 58
 5.351682 1  41              Rx   d 8 00 00 00 00 00 00 00 00
 5.371075 1  41              Rx   d 8 00 00 00 00 00 00 00 00
 5.391101 1  242             Rx   d 8 FF FF 3F FF BA 00 03 01
 5.410817 1  3B6             Rx   d 8 09 00 00 00 00 00 00 00
 5.411301 1  3B8             Rx   d 8 FF FF FF FF 00 00 00 00
 5.429928 1  242             Rx   d 8 FF FF 3F FF BA 00 03 01
 5.450025 1  41              Rx   d 8 00 00 00 00 00 00 00 00
 5.469123 1  242             Rx   d 8 FF FF 3F FF BA 00 03 01
 5.469297 1  3B5             Rx   d 8 FF FD FF FD FF FD FF FD
 5.508378 1  242             Rx   d 8 FF FF 3F FF BA 00 03 01
 5.508616 1  3B3             Rx   d 8 20 88 00 00 E6 00 03 3E
 5.508839 1  40A             Rx   d 8 C1 01 47 41 48 4A 48 45
 5.537705 1  331             Rx   d 8 C0 00 48 63 05 03 88 00
 5.548237 1  242             Rx   d 8 FF FF 3F FF BA 00 03 01
 5.567696 1  41              Rx   d 8 00 00 00 00 00 00 00 00
 5.587057 1  242             Rx   d 8 FF FF 3F FF BA 00 03 01
 5.607156 1  42C             Rx   d 8 80 00 00 00 00 00 00 00
 5.626501 1  242             Rx   d 8 FF FF 3F FF BA 00 03 01
 5.646632 1  41              Rx   d 8 00 00 00 00 00 00 00 00
 5.655795 1  3B7             Rx   d 8 00 00 00 00 00 00 00 00
 5.655917 1  42C             Rx   d 8 80 00 00 00 00 00 00 00
 5.665926 1  242             Rx   d 8 FF FF 3F FF BA 00 03 01
 5.685950 1  84              Rx   d 8 00 00 00 01 04 36 0C 00
 5.705075 1  242             Rx   d 8 FF FF 3F FF BA 00 03 01
 5.705199 1  40A             Rx   d 8 C1 02 32 38 38 33 36 00
 5.744841 1  242             Rx   d 8 FF FF 3F FF BA 00 03 01
 5.764306 1  41              Rx   d 8 00 00 00 00 00 00 00 00
 5.783672 1  242             Rx   d 8 FF FF 3F FF BA 00 03 01
 5.803887 1  42C             Rx   d 8 80 00 00 00 00 00 00 00
 5.823003 1  242             Rx   d 8 FF FF 3F FF BA 00 03 01
 5.852351 1  42C             Rx   d 8 80 00 00 00 00 00 00 00
 5.862435 1  242             Rx   d 8 FF FF 3F FF BA 00 03 01
 5.882269 1  41              Rx   d 8 00 00 00 00 00 00 00 00
 5.901588 1  242             Rx   d 8 FF FF 3F FF BA 00 03 01
 5.901839 1  38D             Rx   d 8 20 00 00 00 30 00 0C F0
 5.902376 1  3B6             Rx   d 8 09 00 00 00 00 00 00 00
 5.902615 1  3B7             Rx   d 8 00 00 00 00 00 00 00 00
 5.903075 1  3E3             Rx   d 8 00 00 00 00 80 00 00 00
 5.903558 1  40A             Rx   d 8 C1 04 01 8A 07 54 85 41
 5.903827 1  42C             Rx   d 8 80 00 00 00 00 00 00 00
 5.904327 1  447             Rx   d 8 20 00 00 4B 00 00 00 00
 5.930748 1  38D             Rx   d 8 20 00 00 00 E0 00 0C F0
 5.941544 1  242             Rx   d 8 FF FF 3F FF BA 00 03 01
 5.950624 1  3B4             Rx   d 8 34 21 11 FF 1E 1A 00 00
 5.950735 1  42C             Rx   d 8 80 00 00 00 00 00 00 00
 5.961011 1  3B5             Rx   d 8 FF FD FF FD FF FD FF FD
 5.980372 1  242             Rx   d 8 FF FF 3F FF BA 00 03 01
 5.980638 1  3C7             Rx   d 8 00 00 40 00 00 00 00 00
 6.000803 1  42C             Rx   d 8 80 00 00 00 00 00 00 00
 6.019575 1  41              Rx   d 8 00 00 00 00 00 00 00 00
 6.019708 1  242             Rx   d 8 FF FF 3F FF BA 00 03 01
 6.048713 1  42C             Rx   d 8 80 00 00 00 00 00 00 00
 6.058893 1  41              Rx   d 8 00 00 00 00 00 00 00 00
 6.059025 1  242             Rx   d 8 FF FF 3F FF BA 00 03 01
 6.098296 1  41              Rx   d 8 00 00 00 00 00 00 00 00
 6.098432 1  242             Rx   d 8 FF FF 3F FF BA 00 03 01
 6.098897 1  42C             Rx   d 8 80 00 00 00 00 00 00 00
 6.137840 1  41              Rx   d 8 00 00 00 00 00 00 00 00
 6.138005 1  242             Rx   d 8 FF FF 3F FF BA 00 03 01
 6.147132 1  3B6             Rx   d 8 09 00 00 00 00 00 00 00
 6.147346 1  3B7             Rx   d 8 00 00 00 00 00 00 00 00
 6.147604 1  42C             Rx   d 8 80 00 00 00 00 00 00 00
 6.176682 1  41              Rx   d 8 00 00 00 00 00 00 00 00
 6.176863 1  242             Rx   d 8 FF FF 3F FF BA 00 03 01
 6.216193 1  242             Rx   d 8 FF FF 3F FF BA 00 03 01
 6.236663 1  41              Rx   d 8 00 00 00 00 00 00 00 00
 6.255312 1  41              Rx   d 8 00 00 00 00 00 00 00 00
 6.255536 1  242             Rx   d 8 FF FF 3F FF BA 00 03 01
 6.275385 1  41              Rx   d 8 00 00 00 00 00 00 00 00
 6.295066 1  242             Rx   d 8 FF FF 3F FF BA 00 03 01
 6.295323 1  40A             Rx   d 8 C0 00 00 23 5F 42 18 00
 6.314708 1  41              Rx   d 8 00 00 00 00 00 00 00 00
 6.334850 1  242             Rx   d 8 FF FF 3F FF BA 00 03 01
 6.354030 1  41              Rx   d 8 00 00 00 00 00 00 00 00
 6.374261 1  242             Rx   d 8 FF FF 3F FF BA 00 03 01
 6.393696 1  41              Rx   d 8 00 00 00 00 00 00 00 00
 6.393876 1  38D             Rx   d 8 20 00 00 00 E0 00 08 F0
 6.394330 1  3B6             Rx   d 8 0A 00 00 00 00 00 00 00
 6.394810 1  3B8             Rx   d 8 FF FF FF FF 00 00 00 00
 6.395040 1  3C3             Rx   d 8 40 88 10 C1 00 00 81 00
 6.413466 1  242             Rx   d 8 FF FF 3F FF BA 00 03 01
 6.442915 1  42C             Rx   d 8 80 02 00 00 00 00 00 00
 6.452894 1  242             Rx   d 8 FF FF 3F FF BA 00 03 01
 6.453102 1  3B5             Rx   d 8 FF FD FF FD FF FD FF FD
 6.472441 1  41              Rx   d 8 00 00 00 00 00 00 00 00
 6.491559 1  242             Rx   d 8 FF FF 3F FF BA 00 03 01
 6.491684 1  3B3             Rx   d 8 40 8C 00 00 E6 00 03 3E
 6.492201 1  42C             Rx   d 8 80 02 00 00 00 00 00 00
 6.531661 1  242             Rx   d 8 FF FF 3F FF BA 00 03 01
 6.540474 1  42C             Rx   d 8 80 02 00 00 00 00 00 00
 6.550692 1  41              Rx   d 8 00 00 00 00 00 00 00 00
 6.570203 1  242             Rx   d 8 FF FF 3F FF BA 00 03 01
 6.590183 1  38D             Rx   d 8 20 00 00 00 E0 00 04 F0
 6.590405 1  3B3             Rx   d 8 80 8C 00 00 E6 00 03 3C
 6.590898 1  42C             Rx   d 8 80 02 00 00 00 00 00 00
 6.609585 1  242             Rx   d 8 FF FF 3F FF BA 00 0B 01
 6.638788 1  3B7             Rx   d 8 00 00 00 00 00 00 00 00
 6.639015 1  42C             Rx   d 8 80 00 00 00 00 00 00 00
 6.648762 1  242             Rx   d 8 FF FF 3F FF BA 00 0B 01
 6.668638 1  41              Rx   d 8 00 00 00 00 00 00 00 00
 6.687972 1  84              Rx   d 8 00 00 00 01 04 37 0C 00
 6.688224 1  242             Rx   d 8 FF FF 3F FF BA 00 0B 01
 6.688688 1  42C             Rx   d 8 80 00 00 00 00 00 00 00
 6.727847 1  242             Rx   d 8 FF FF 3F FF BA 00 0B 01
 6.747418 1  41              Rx   d 8 00 00 00 00 00 00 00 00
 6.766734 1  242             Rx   d 8 FF FF 3F FF BA 00 0B 01
 6.786789 1  42C             Rx   d 8 80 00 00 00 00 00 00 00
 6.805953 1  41              Rx   d 8 00 00 00 00 00 00 00 00
 6.806019 1  242             Rx   d 8 FF FF 3F FF BA 00 0B 01
 6.826654 1  3C3             Rx   d 8 40 88 00 C1 00 00 41 00
 6.845344 1  242             Rx   d 8 FF FF 3F FF BA 00 0B 01
 6.880877 1  581             Rx   d 8 81 00 FF FF FF FF FF FF
 6.884973 1  38D             Rx   d 8 20 00 00 00 E0 00 04 F0
 6.885372 1  3B6             Rx   d 8 0A 00 00 00 00 00 00 00
 6.886147 1  3B8             Rx   d 8 FF FF FF FF 00 00 00 00
 6.886156 1  3E3             Rx   d 8 00 00 00 00 80 00 00 00
 6.886941 1  40A             Rx   d 8 C1 02 32 38 38 33 36 00
 6.886953 1  42C             Rx   d 8 80 00 00 00 00 00 00 00
 6.887576 1  447             Rx   d 8 20 00 00 4B 00 00 00 00
 6.894172 1  3B3             Rx   d 8 80 8C C0 12 E6 00 03 3C
 6.904579 1  41              Rx   d 8 00 00 00 00 00 00 00 00
 6.924462 1  41              Rx   d 8 00 00 00 00 00 00 00 00
 6.924586 1  242             Rx   d 8 FF FF 3F FF BA 00 0B 01
 6.944085 1  3B5             Rx   d 8 FF FD FF FD FF FD FF FD
 6.963801 1  242             Rx   d 8 FF FF 3F FF BA 00 0B 01
 6.963823 1  3C7             Rx   d 8 00 00 40 00 00 00 00 00
 6.983441 1  3B3             Rx   d 8 80 8C C0 12 E6 00 03 3C
 6.983567 1  3C3             Rx   d 8 40 88 00 C1 00 00 41 00
 7.002791 1  242             Rx   d 8 FF FF 3F FF BA 00 0B 01
 7.031758 1  42C             Rx   d 8 80 00 00 00 00 00 00 00
 7.041893 1  242             Rx   d 8 FF FF 3F FF BA 00 0B 01
 7.081207 1  242             Rx   d 8 FF FF 3F FF BA 00 0B 01
 7.081441 1  40A             Rx   d 8 C1 04 01 8A 07 54 85 41
 7.121075 1  242             Rx   d 8 FF FF 3F FF BA 00 0B 01
 7.130289 1  3B6             Rx   d 8 0A 00 00 00 00 00 00 00
 7.130661 1  3B7             Rx   d 8 00 00 00 00 00 00 00 00
 7.159883 1  242             Rx   d 8 FF FF 3F FF BA 00 0B 01
 7.180327 1  42C             Rx   d 8 80 00 00 00 00 00 00 00
 7.199390 1  242             Rx   d 8 FF FF 3F FF BA 00 0B 01
 7.228319 1  42C             Rx   d 8 80 00 00 00 00 00 00 00
 7.238612 1  242             Rx   d 8 FF FF 3F FF BA 00 0B 01
 7.278018 1  242             Rx   d 8 FF FF 3F FF BA 00 0B 01
 7.278516 1  40A             Rx   d 8 C1 10 40 84 20 08 80 00
 7.317668 1  242             Rx   d 8 FF FF 3F FF BA 00 0B 01
 7.337192 1  41              Rx   d 8 00 00 00 00 00 00 00 00
 7.356472 1  242             Rx   d 8 FF FF 3F FF BA 00 0B 01
 7.376898 1  3B6             Rx   d 8 0A 00 00 00 00 00 00 00
 7.377144 1  3B7             Rx   d 8 00 00 00 00 00 00 00 00
 7.377636 1  42C             Rx   d 8 80 00 00 00 00 00 00 00
 7.396199 1  242             Rx   d 8 FF FF 3F FF BA 00 0B 01
 7.416233 1  41              Rx   d 8 00 00 00 00 00 00 00 00
 7.435085 1  242             Rx   d 8 FF FF 3F FF BA 00 0B 01
 7.435314 1  3B5             Rx   d 8 FF FD FF FD FF FD FF FD
 7.474569 1  242             Rx   d 8 FF FF 3F FF BA 00 0B 01
 7.475074 1  3B3             Rx   d 8 80 8C C0 12 E6 00 03 3C
 7.475094 1  42C             Rx   d 8 80 00 00 00 00 00 00 00
 7.494381 1  41              Rx   d 8 00 00 00 00 00 00 00 00
 7.514334 1  242             Rx   d 8 FF FF 3F FF BA 00 0B 01
 7.533873 1  331             Rx   d 8 C0 00 48 65 05 03 88 00
 7.553385 1  242             Rx   d 8 FF FF 3F FF BA 00 0B 01
 7.573174 1  42C             Rx   d 8 80 00 00 00 00 00 00 00
 7.592372 1  242             Rx   d 8 FF FF 3F FF BA 00 03 01
 7.621910 1  3B7             Rx   d 8 00 00 00 00 00 00 00 00
 7.631660 1  242             Rx   d 8 FF FF 3F FF BA 00 03 01
 7.671015 1  242             Rx   d 8 FF FF 3F FF BA 00 03 01
 7.671238 1  40A             Rx   d 8 C1 00 57 46 30 4A 58 58
 7.691330 1  84              Rx   d 8 00 00 00 01 04 38 0C 00
 7.710869 1  242             Rx   d 8 FF FF 3F FF BA 00 03 01
 7.730470 1  41              Rx   d 8 00 00 00 00 00 00 00 00
 7.749663 1  242             Rx   d 8 FF FF 3F FF BA 00 03 01
 7.769804 1  42C             Rx   d 8 80 00 00 00 00 00 00 00
 7.789155 1  242             Rx   d 8 FF FF 3F FF BA 00 03 01
 7.818100 1  42C             Rx   d 8 80 00 00 00 00 00 00 00
 7.828432 1  242             Rx   d 8 FF FF 3F FF BA 00 03 01
 7.848244 1  41              Rx   d 8 00 00 00 00 00 00 00 00
 7.868155 1  3B1             Rx   d 8 00 00 00 00 00 00 00 00
 7.868598 1  3B7             Rx   d 8 00 00 00 00 00 00 00 00
 7.869162 1  3E3             Rx   d 8 00 00 00 00 80 00 00 00
 7.869663 1  40A             Rx   d 8 C1 01 47 41 48 4A 48 45
 7.870746 1  43C             Rx   d 8 B2 00 4B 2C 3C 99 88 14
 7.870794 1  447             Rx   d 8 20 00 00 4B 00 00 00 00
 7.907516 1  41              Rx   d 8 00 00 00 00 00 00 00 00
 7.916577 1  42C             Rx   d 8 80 00 00 00 00 00 00 00
 7.927140 1  3B5             Rx   d 8 FF FD FF FD FF FD FF FD
 7.946278 1  242             Rx   d 8 FF FF 3F FF BA 00 03 01
 7.946468 1  3C7             Rx   d 8 00 00 40 00 00 00 00 00
 7.967022 1  3B3             Rx   d 8 80 8C C0 12 E6 00 03 3C
 7.967033 1  3C3             Rx   d 8 40 88 00 C1 00 00 41 00
 7.967039 1  42C             Rx   d 8 80 00 00 00 00 00 00 00
 7.985753 1  242             Rx   d 8 FF FF 3F FF BA 00 03 01
 8.014713 1  42C             Rx   d 8 80 00 00 00 00 00 00 00
 8.024900 1  242             Rx   d 8 FF FF 3F FF BA 00 03 01
 8.064381 1  242             Rx   d 8 FF FF 3F FF BA 00 03 01
 8.064791 1  40A             Rx   d 8 C1 02 32 38 38 33 36 00
 8.104238 1  41              Rx   d 8 00 00 00 00 00 00 00 00
 8.113149 1  3B6             Rx   d 8 0A 00 00 00 00 00 00 00
 8.113451 1  3B7             Rx   d 8 00 00 00 00 00 00 00 00
 8.143013 1  41              Rx   d 8 00 00 00 00 00 00 00 00
 8.162960 1  42C             Rx   d 8 80 00 00 00 00 00 00 00
 8.182173 1  242             Rx   d 8 FF FF 3F FF BA 00 03 01
 8.211520 1  42C             Rx   d 8 80 00 00 00 00 00 00 00
 8.221434 1  242             Rx   d 8 FF FF 3F FF BA 00 03 01
 8.241911 1  41              Rx   d 8 00 00 00 00 00 00 00 00
 8.260883 1  242             Rx   d 8 FF FF 3F FF BA 00 03 01
 8.261023 1  40A             Rx   d 8 C1 04 01 8A 07 54 85 41
 8.300675 1  242             Rx   d 8 FF FF 3F FF BA 00 03 01
 8.320038 1  41              Rx   d 8 00 00 00 00 00 00 00 00
 8.339579 1  242             Rx   d 8 FF FF 3F FF BA 00 03 01
 8.359772 1  3B6             Rx   d 8 0A 00 00 00 00 00 00 00
 8.359980 1  3B7             Rx   d 8 00 00 00 00 00 00 00 00
 8.360490 1  42C             Rx   d 8 80 00 00 00 00 00 00 00
 8.378998 1  242             Rx   d 8 FF FF 3F FF BA 00 03 01
 8.407963 1  42C             Rx   d 8 80 00 00 00 00 00 00 00
 8.418100 1  242             Rx   d 8 FF FF 3F FF BA 00 03 01
 8.418365 1  3B5             Rx   d 8 FF FD FF FD FF FD FF FD
 8.437992 1  41              Rx   d 8 00 00 00 00 00 00 00 00
 8.457478 1  242             Rx   d 8 FF FF 3F FF BA 00 03 01
 8.457622 1  3B3             Rx   d 8 80 8C C0 12 E6 00 03 3C
 8.458092 1  42C             Rx   d 8 80 00 00 00 00 00 00 00
 8.497320 1  242             Rx   d 8 FF FF 3F FF BA 00 03 01
 8.516732 1  41              Rx   d 8 00 00 00 00 00 00 00 00
 8.536019 1  242             Rx   d 8 FF FF 3F FF BA 00 03 01
 8.536317 1  331             Rx   d 8 C0 00 48 66 05 03 88 00
 8.556304 1  42C             Rx   d 8 80 00 00 00 00 00 00 00
 8.575501 1  242             Rx   d 8 FF FF 3F FF BA 00 03 01
 8.604495 1  3B6             Rx   d 8 0A 00 00 00 00 00 00 00
 8.604922 1  42C             Rx   d 8 80 00 00 00 00 00 00 00
 8.614758 1  242             Rx   d 8 FF FF 3F FF BA 00 03 01
 8.634869 1  41              Rx   d 8 00 00 00 00 00 00 00 00
 8.654067 1  242             Rx   d 8 FF FF 3F FF BA 00 03 01
 8.654262 1  40A             Rx   d 8 C0 00 00 23 5F 42 2F 00
 8.654515 1  42C             Rx   d 8 80 00 00 00 00 00 00 00
 8.673940 1  41              Rx   d 8 00 00 00 00 00 00 00 00
 8.693863 1  41              Rx   d 8 00 00 00 00 00 00 00 00
 8.693967 1  242             Rx   d 8 FF FF 3F FF BA 00 03 01
 8.713242 1  41              Rx   d 8 00 00 00 00 00 00 00 00
 8.732594 1  41              Rx   d 8 00 00 00 00 00 00 00 00
 8.752568 1  41              Rx   d 8 00 00 00 00 00 00 00 00
 8.771995 1  41              Rx   d 8 00 00 00 00 00 00 00 00
 8.772130 1  242             Rx   d 8 FF FF 3F FF BA 00 03 01
 8.801164 1  42C             Rx   d 8 80 00 00 00 00 00 00 00
 8.811090 1  41              Rx   d 8 00 00 00 00 00 00 00 00
 8.811270 1  242             Rx   d 8 FF FF 3F FF BA 00 03 01
 8.846854 1  581             Rx   d 8 81 00 FF FF FF FF FF FF
 8.850434 1  41              Rx   d 8 00 00 00 00 00 00 00 00
 8.850621 1  242             Rx   d 8 FF FF 3F FF BA 00 03 01
 8.850877 1  38D             Rx   d 8 20 00 00 00 E0 00 04 F0
 8.851086 1  3B1             Rx   d 8 00 00 00 00 00 00 00 00
 8.851323 1  3B6             Rx   d 8 0A 00 00 00 00 00 00 00
 8.851653 1  3B7             Rx   d 8 00 00 00 00 00 00 00 00
 8.852121 1  3E3             Rx   d 8 00 00 00 00 80 00 00 00
 8.852346 1  3EB             Rx   d 8 01 04 04 00 00 00 00 00
 8.852880 1  42C             Rx   d 8 80 00 00 00 00 00 00 00
 8.853091 1  43C             Rx   d 8 B2 00 4B 2C 3C 99 88 14
 8.870688 1  41              Rx   d 8 00 00 00 00 00 00 00 00
 8.890264 1  41              Rx   d 8 00 00 00 00 00 00 00 00
 8.899493 1  3B4             Rx   d 8 34 21 11 FF 1E 1A 00 00
 8.899603 1  42C             Rx   d 8 80 00 00 00 00 00 00 00
 8.910234 1  3B5             Rx   d 8 FF FD FF FD FF FD FF FD
 8.929101 1  41              Rx   d 8 00 00 00 00 00 00 00 00
 8.929458 1  242             Rx   d 8 FF FF 3F FF BA 00 03 01
 8.949173 1  41              Rx   d 8 00 00 00 00 00 00 00 00
 8.949357 1  3B3             Rx   d 8 80 8C C0 12 E6 00 03 3C
 8.949791 1  42C             Rx   d 8 80 00 00 00 00 00 00 00
 8.968539 1  41              Rx   d 8 00 00 00 00 00 00 00 00
 8.968654 1  242             Rx   d 8 FF FF 3F FF BA 00 03 01
 8.997727 1  42C             Rx   d 8 80 00 00 00 00 00 00 00
 9.007829 1  41              Rx   d 8 00 00 00 00 00 00 00 00
 9.027834 1  41              Rx   d 8 00 00 00 00 00 00 00 00
 9.047373 1  41              Rx   d 8 00 00 00 00 00 00 00 00
 9.047905 1  42C             Rx   d 8 80 00 00 00 00 00 00 00
 9.067160 1  41              Rx   d 8 00 00 00 00 00 00 00 00
 9.086849 1  41              Rx   d 8 00 00 00 00 00 00 00 00
 9.096110 1  331             Rx   d 8 C0 00 48 66 05 03 88 00
 9.096172 1  3B6             Rx   d 8 0A 00 00 00 00 00 00 00
 9.096359 1  3B7             Rx   d 8 00 00 00 00 00 00 00 00
 9.106483 1  41              Rx   d 8 00 00 00 00 00 00 00 00
 9.125901 1  242             Rx   d 8 FF FF 3F FF BA 00 03 01
 9.145975 1  41              Rx   d 8 00 00 00 00 00 00 00 00
 9.146051 1  42C             Rx   d 8 80 00 00 00 00 00 00 00
 9.165009 1  41              Rx   d 8 00 00 00 00 00 00 00 00
 9.185828 1  41              Rx   d 8 00 00 00 00 00 00 00 00
 9.204296 1  41              Rx   d 8 00 00 00 00 00 00 00 00
 9.204458 1  242             Rx   d 8 FF FF 3F FF BA 00 03 01
 9.243777 1  41              Rx   d 8 00 00 00 00 00 00 00 00
 9.243876 1  242             Rx   d 8 FF FF 3F FF BA 00 03 01
 9.244310 1  42C             Rx   d 8 80 00 00 00 00 00 00 00
 9.283602 1  41              Rx   d 8 00 00 00 00 00 00 00 00
 9.283699 1  242             Rx   d 8 FF FF 3F FF BA 00 03 01
 9.303068 1  41              Rx   d 8 00 00 00 00 00 00 00 00
 9.322299 1  41              Rx   d 8 00 00 00 00 00 00 00 00
 9.322534 1  242             Rx   d 8 FF FF 3F FF BA 00 03 01
 9.342581 1  41              Rx   d 8 00 00 00 00 00 00 00 00
 9.342983 1  3B7             Rx   d 8 00 00 00 00 00 00 00 00
 9.343218 1  3B8             Rx   d 8 FF FF FF FF 00 00 00 00
 9.361668 1  41              Rx   d 8 00 00 00 00 00 00 00 00
 9.382116 1  41              Rx   d 8 00 00 00 00 00 00 00 00
 9.400970 1  41              Rx   d 8 00 00 00 00 00 00 00 00
 9.401153 1  242             Rx   d 8 FF FF 3F FF BA 00 03 01
 9.421110 1  41              Rx   d 8 00 00 00 00 00 00 00 00
 9.440242 1  41              Rx   d 8 00 00 00 00 00 00 00 00
 9.440610 1  3B3             Rx   d 8 80 8C C0 12 E6 00 03 3C
 9.440874 1  40A             Rx   d 8 C1 04 01 8A 07 54 85 41
 9.460393 1  41              Rx   d 8 00 00 00 00 00 00 00 00
 9.480080 1  41              Rx   d 8 00 00 00 00 00 00 00 00
 9.489352 1  42C             Rx   d 8 80 00 00 00 00 00 00 00
 9.519014 1  41              Rx   d 8 00 00 00 00 00 00 00 00
 9.519118 1  242             Rx   d 8 FF FF 3F FF BA 00 03 01
 9.538986 1  41              Rx   d 8 00 00 00 00 00 00 00 00
 9.539380 1  42C             Rx   d 8 80 00 00 00 00 00 00 00
 9.558677 1  41              Rx   d 8 00 00 00 00 00 00 00 00
 9.558855 1  242             Rx   d 8 FF FF 3F FF BA 00 03 01
 9.587716 1  3B6             Rx   d 8 0A 00 00 00 00 00 00 00
 9.587811 1  3B7             Rx   d 8 00 00 00 00 00 00 00 00
 9.597695 1  41              Rx   d 8 00 00 00 00 00 00 00 00
 9.597786 1  242             Rx   d 8 FF FF 3F FF BA 00 03 01
 9.636853 1  41              Rx   d 8 00 00 00 00 00 00 00 00
 9.637032 1  242             Rx   d 8 FF FF 3F FF BA 00 03 01
 9.637477 1  42C             Rx   d 8 80 00 00 00 00 00 00 00
 9.656978 1  41              Rx   d 8 00 00 00 00 00 00 00 00
 9.676673 1  41              Rx   d 8 00 00 00 00 00 00 00 00
 9.685770 1  84              Rx   d 8 00 00 00 01 04 3A 0C 00
 9.685915 1  42C             Rx   d 8 80 00 00 00 00 00 00 00
 9.715467 1  41              Rx   d 8 00 00 00 00 00 00 00 00
 9.715723 1  242             Rx   d 8 FF FF 3F FF BA 00 03 01
 9.735573 1  41              Rx   d 8 00 00 00 00 00 00 00 00
 9.755004 1  41              Rx   d 8 00 00 00 00 00 00 00 00
 9.775235 1  41              Rx   d 8 00 00 00 00 00 00 00 00
 9.794267 1  41              Rx   d 8 00 00 00 00 00 00 00 00
 9.794358 1  242             Rx   d 8 FF FF 3F FF BA 00 03 01
 9.830101 1  581             Rx   d 8 81 00 FF FF FF FF FF FF
 9.833461 1  41              Rx   d 8 00 00 00 00 00 00 00 00
 9.833665 1  242             Rx   d 8 FF FF 3F FF BA 00 03 01
 9.833827 1  38D             Rx   d 8 20 00 00 00 E0 00 04 F0
 9.834090 1  3B1             Rx   d 8 00 00 00 00 00 00 00 00
 9.834319 1  3B6             Rx   d 8 0A 00 00 00 00 00 00 00
 9.834563 1  3B7             Rx   d 8 00 00 00 00 00 00 00 00
 9.835073 1  3E3             Rx   d 8 00 00 00 00 80 00 00 00
 9.835563 1  40A             Rx   d 8 C0 00 00 23 5F 42 3B 00
 9.835828 1  42C             Rx   d 8 80 00 00 00 00 00 00 00
 9.836313 1  447             Rx   d 8 20 00 00 4B 00 00 00 00
 9.853696 1  41              Rx   d 8 00 00 00 00 00 00 00 00
 9.873254 1  41              Rx   d 8 00 00 00 00 00 00 00 00
 9.882368 1  3B4             Rx   d 8 34 21 11 FF 1E 1A 00 00
 9.893016 1  41              Rx   d 8 00 00 00 00 00 00 00 00
 9.912055 1  41              Rx   d 8 00 00 00 00 00 00 00 00
 9.912478 1  3C7             Rx   d 8 00 00 40 00 00 00 00 00
 9.932358 1  41              Rx   d 8 00 00 00 00 00 00 00 00
 9.932444 1  38D             Rx   d 8 20 00 00 00 00 00 04 F0
 9.932997 1  3C3             Rx   d 8 40 88 00 C1 00 00 41 00
 9.933307 1  42C             Rx   d 8 80 00 00 00 00 00 00 00
 9.951503 1  41              Rx   d 8 00 00 00 00 00 00 00 00
 9.971791 1  41              Rx   d 8 00 00 00 00 00 00 00 00
 9.990742 1  41              Rx   d 8 00 00 00 00 00 00 00 00
 9.990997 1  242             Rx   d 8 FF FF 3F FF BA 00 03 01
 10.030208 1  41              Rx   d 8 00 00 00 00 00 00 00 00
 10.030401 1  242             Rx   d 8 FF FF 3F FF BA 00 03 01
 10.030808 1  42C             Rx   d 8 80 00 00 00 00 00 00 00
 10.050141 1  41              Rx   d 8 00 00 00 00 00 00 00 00
 10.070399 1  242             Rx   d 8 FF FF 3F FF BA 00 03 01
 10.078934 1  331             Rx   d 8 C0 00 48 67 05 03 88 00
 10.079364 1  3B7             Rx   d 8 00 00 00 00 00 00 00 00
 10.079567 1  42C             Rx   d 8 80 00 00 00 00 00 00 00
 10.108673 1  41              Rx   d 8 00 00 00 00 00 00 00 00
 10.108859 1  242             Rx   d 8 FF FF 3F FF BA 00 03 01
 10.129073 1  42C             Rx   d 8 80 00 00 00 00 00 00 00
 10.148008 1  41              Rx   d 8 00 00 00 00 00 00 00 00
 10.168766 1  41              Rx   d 8 00 00 00 00 00 00 00 00
 10.177325 1  42C             Rx   d 8 80 00 00 00 00 00 00 00
 10.187476 1  242             Rx   d 8 FF FF 3F FF BA 00 03 01
 10.226634 1  41              Rx   d 8 00 00 00 00 00 00 00 00
 10.226816 1  242             Rx   d 8 FF FF 3F FF BA 00 03 01
 10.227014 1  40A             Rx   d 8 C1 01 47 41 48 4A 48 45
 10.227273 1  42C             Rx   d 8 80 00 00 00 00 00 00 00
 10.266619 1  41              Rx   d 8 00 00 00 00 00 00 00 00
 10.266718 1  242             Rx   d 8 FF FF 3F FF BA 00 03 01
 10.286051 1  41              Rx   d 8 00 00 00 00 00 00 00 00
 10.305614 1  242             Rx   d 8 FF FF 3F FF BA 00 03 01
 10.325633 1  41              Rx   d 8 00 00 00 00 00 00 00 00
 10.326017 1  3B6             Rx   d 8 0A 00 00 00 00 00 00 00
 10.326321 1  3B8             Rx   d 8 FF FF FF FF 00 00 00 00
 10.344778 1  41              Rx   d 8 00 00 00 00 00 00 00 00
 10.365053 1  41              Rx   d 8 00 00 00 00 00 00 00 00
 10.384168 1  41              Rx   d 8 00 00 00 00 00 00 00 00
 10.384284 1  242             Rx   d 8 FF FF 3F FF BA 00 03 01
 10.423455 1  41              Rx   d 8 00 00 00 00 00 00 00 00
 10.423537 1  242             Rx   d 8 FF FF 3F FF BA 00 03 01
 10.423950 1  40A             Rx   d 8 C1 02 32 38 38 33 36 00
 10.443365 1  41              Rx   d 8 00 00 00 00 00 00 00 00
 10.463243 1  242             Rx   d 8 FF FF 3F FF BA 00 03 01
 10.472257 1  42C             Rx   d 8 80 00 00 00 00 00 00 00
 10.502104 1  242             Rx   d 8 FF FF 3F FF BA 00 03 01
 10.522263 1  42C             Rx   d 8 80 00 00 00 00 00 00 00
 10.541402 1  242             Rx   d 8 FF FF 3F FF BA 00 03 01
 10.541570 1  331             Rx   d 8 C0 00 48 68 05 03 88 00
 10.561741 1  41              Rx   d 8 00 00 00 00 00 00 00 00
 10.570676 1  3B7             Rx   d 8 00 00 00 00 00 00 00 00
 10.570930 1  42C             Rx   d 8 80 00 00 00 00 00 00 00
 10.580700 1  242             Rx   d 8 FF FF 3F FF BA 00 03 01
 10.600811 1  41              Rx   d 8 00 00 00 00 00 00 00 00
 10.620030 1  242             Rx   d 8 FF FF 3F FF BA 00 03 01
 10.620330 1  40A             Rx   d 8 C1 04 01 8A 07 54 85 41
 10.639918 1  41              Rx   d 8 00 00 00 00 00 00 00 00
 10.660062 1  242             Rx   d 8 FF FF 3F FF BA 00 03 01
 10.679219 1  41              Rx   d 8 00 00 00 00 00 00 00 00
 10.698753 1  242             Rx   d 8 FF FF 3F FF BA 00 03 01
 10.718780 1  42C             Rx   d 8 80 00 00 00 00 00 00 00
 10.737997 1  242             Rx   d 8 FF FF 3F FF BA 00 03 01
 10.767150 1  42C             Rx   d 8 80 00 00 00 00 00 00 00
 10.777255 1  242             Rx   d 8 FF FF 3F FF BA 00 03 01
 10.812854 1  581             Rx   d 8 81 00 FF FF FF FF FF FF
 10.816566 1  242             Rx   d 8 FF FF 3F FF BA 00 03 01
 10.817086 1  3B1             Rx   d 8 00 00 00 00 00 00 00 00
 10.817393 1  3B6             Rx   d 8 0A 00 00 00 00 00 00 00
 10.817599 1  3B7             Rx   d 8 00 00 00 00 00 00 00 00
 10.817825 1  3B8             Rx   d 8 FF FF FF FF 00 00 00 00
 10.818087 1  3E3             Rx   d 8 00 00 00 00 80 00 00 00
 10.818332 1  3EB             Rx   d 8 01 04 04 00 00 00 00 00
 10.818593 1  40A             Rx   d 8 C1 10 40 84 20 08 80 00
 10.818843 1  42C             Rx   d 8 80 00 00 00 00 00 00 00
 10.819068 1  43C             Rx   d 8 B2 00 4B 2C 3C 99 88 14
 10.819324 1  447             Rx   d 8 20 00 00 4B 00 00 00 00
 10.836756 1  41              Rx   d 8 00 00 00 00 00 00 00 00
 10.856480 1  242             Rx   d 8 FF FF 3F FF BA 00 03 01
 10.865723 1  42C             Rx   d 8 80 00 00 00 00 00 00 00
 10.876275 1  3B5             Rx   d 8 FF FD FF FD FF FD FF FD
 10.895332 1  242             Rx   d 8 FF FF 3F FF BA 00 03 01
 10.895479 1  3C7             Rx   d 8 00 00 40 00 00 00 00 00
 10.915341 1  3B3             Rx   d 8 80 8C C0 12 E6 00 03 3C
 10.915545 1  3C3             Rx   d 8 40 88 00 C1 00 00 41 00
 10.915834 1  42C             Rx   d 8 80 00 00 00 00 00 00 00
 10.934763 1  242             Rx   d 8 FF FF 3F FF BA 00 03 01
 10.963696 1  42C             Rx   d 8 80 00 00 00 00 00 00 00
 10.974149 1  242             Rx   d 8 FF FF 3F FF BA 00 03 01
 11.013440 1  242             Rx   d 8 FF FF 3F FF BA 00 03 01
 11.013867 1  40A             Rx   d 8 C0 00 00 23 5F 42 47 00
 11.053038 1  242             Rx   d 8 FF FF 3F FF BA 00 03 01
 11.062173 1  3B6             Rx   d 8 0A 00 00 00 00 00 00 00
 11.062443 1  3B7             Rx   d 8 00 00 00 00 00 00 00 00
 11.091829 1  242             Rx   d 8 FF FF 3F FF BA 00 03 01
 11.112296 1  42C             Rx   d 8 80 00 00 00 00 00 00 00
 11.131188 1  242             Rx   d 8 FF FF 3F FF BA 00 03 01
 11.160290 1  42C             Rx   d 8 80 00 00 00 00 00 00 00
 11.170486 1  242             Rx   d 8 FF FF 3F FF BA 00 03 01
 11.209888 1  242             Rx   d 8 FF FF 3F FF BA 00 03 01
 11.210105 1  40A             Rx   d 8 C1 00 57 46 30 4A 58 58
 11.249846 1  242             Rx   d 8 FF FF 3F FF BA 00 03 01
 11.269089 1  41              Rx   d 8 00 00 00 00 00 00 00 00
 11.288504 1  242             Rx   d 8 FF FF 3F FF BA 00 03 01
 11.308783 1  3B6             Rx   d 8 0A 00 00 00 00 00 00 00
 11.309055 1  3B7             Rx   d 8 00 00 00 00 00 00 00 00
 11.309546 1  42C             Rx   d 8 80 00 00 00 00 00 00 00
 11.327871 1  242             Rx   d 8 FF FF 3F FF BA 00 03 01
 11.356952 1  42C             Rx   d 8 80 00 00 00 00 00 00 00
 11.367386 1  242             Rx   d 8 FF FF 3F FF BA 00 03 01
 11.396386 1  3C3             Rx   d 8 40 80 00 C1 00 00 41 00
 11.406492 1  242             Rx   d 8 FF FF 3F FF BA 00 03 01
 11.406713 1  3B3             Rx   d 8 80 8C C0 12 E6 00 03 3C
 11.407175 1  42C             Rx   d 8 80 00 00 00 00 00 00 00
 11.426892 1  38D             Rx   d 8 20 00 00 00 00 00 0C F0
 11.427081 1  3C3             Rx   d 8 40 88 00 C8 00 00 81 00
 11.446977 1  242             Rx   d 8 FF FF 3F FF BA 00 03 00
 11.466014 1  41              Rx   d 8 00 00 00 00 00 00 00 00
 11.485157 1  242             Rx   d 8 FF FF 3F FF BA 00 03 00
 11.505231 1  42C             Rx   d 8 80 00 00 00 00 00 00 00
 11.524463 1  242             Rx   d 8 FF FF 3F FF BA 00 03 00
 11.544988 1  331             Rx   d 8 C0 00 48 69 05 03 88 00
 11.553708 1  3B7             Rx   d 8 00 00 00 00 00 00 00 00
 11.553923 1  42C             Rx   d 8 80 00 00 00 00 00 00 00
 11.563773 1  242             Rx   d 8 FF FF 3F FF BA 00 03 00
 11.603152 1  242             Rx   d 8 FF FF 3F FF BA 00 03 00
 11.603497 1  42C             Rx   d 8 80 00 00 00 00 00 00 00
 11.632138 1  3B3             Rx   d 8 20 88 00 00 E6 00 03 3E
 11.643347 1  242             Rx   d 8 FF FF 3F FF BA 00 03 00
 11.652011 1  42C             Rx   d 8 80 00 00 00 00 00 00 00
 11.681746 1  242             Rx   d 8 FF FF 3F FF BA 00 03 00
 11.701786 1  42C             Rx   d 8 80 00 00 00 00 00 00 00
 11.721011 1  242             Rx   d 8 FF FF 3F FF BA 00 03 00
 11.730560 1  3B3             Rx   d 8 10 88 00 00 E6 00 03 3C
 11.730832 1  3C3             Rx   d 8 40 88 20 E8 00 00 81 00
 11.741401 1  41              Rx   d 8 00 00 00 00 00 00 00 00
 11.760252 1  242             Rx   d 8 FF FF 3F FF BA 00 03 00
 11.795868 1  581             Rx   d 8 81 00 FF FF FF FF FF FF
 11.799641 1  242             Rx   d 8 FF FF 3F FF BA 00 03 00
 11.799824 1  38D             Rx   d 8 20 00 00 00 00 00 0C F0
 11.800333 1  3B6             Rx   d 8 09 00 00 00 00 00 00 00
 11.800613 1  3B7             Rx   d 8 00 00 00 00 00 00 00 00
 11.801074 1  3E3             Rx   d 8 00 00 00 00 80 00 00 00
 11.801367 1  3EB             Rx   d 8 01 04 04 00 00 00 00 00
 11.801811 1  42C             Rx   d 8 80 00 00 00 00 00 00 00
 11.802057 1  43C             Rx   d 8 B2 00 4B 2C 3C 99 88 14
 11.839523 1  242             Rx   d 8 FF FF 3F FF BA 00 03 00
 11.848586 1  42C             Rx   d 8 80 00 00 00 00 00 00 00
 11.859224 1  3B5             Rx   d 8 FF FD FF FD FF FD FF FD
 11.878609 1  242             Rx   d 8 FF FF 3F FF BA 00 03 00
 11.898321 1  3B3             Rx   d 8 10 88 00 00 E6 00 03 3C
 11.898534 1  3C3             Rx   d 8 40 88 20 E8 00 00 81 00
 11.917652 1  242             Rx   d 8 FF FF 3F FF BA 00 03 00
 11.946707 1  42C             Rx   d 8 80 00 00 00 00 00 00 00
 11.956965 1  242             Rx   d 8 FF FF 3F FF BA 00 03 00
 11.976757 1  41              Rx   d 8 00 00 00 00 00 00 00 00
 11.996382 1  242             Rx   d 8 FF FF 3F FF BA 00 03 00
 11.996656 1  40A             Rx   d 8 C1 10 40 84 20 08 80 00
 12.036061 1  242             Rx   d 8 FF FF 3F FF BA 00 03 00
 12.045182 1  3B6             Rx   d 8 09 00 00 00 00 00 00 00
 12.045404 1  3B7             Rx   d 8 00 00 00 00 00 00 00 00
 12.074884 1  242             Rx   d 8 FF FF 3F FF BA 00 03 00
 12.094981 1  42C             Rx   d 8 80 00 00 00 00 00 00 00
 12.114209 1  242             Rx   d 8 FF FF 3F FF BA 00 03 00
 12.143344 1  42C             Rx   d 8 80 00 00 00 00 00 00 00
 12.153493 1  242             Rx   d 8 FF FF 3F FF BA 00 03 00
 12.192912 1  242             Rx   d 8 FF FF 3F FF BA 00 03 00
 12.193138 1  40A             Rx   d 8 C0 00 00 23 5F 42 53 00
 12.232567 1  41              Rx   d 8 00 00 00 00 00 00 00 00
 12.252038 1  41              Rx   d 8 00 00 00 00 00 00 00 00
 12.271773 1  242             Rx   d 8 FF FF 3F FF BA 00 03 00
 12.291858 1  3B6             Rx   d 8 09 00 00 00 00 00 00 00
 12.292099 1  3B7             Rx   d 8 00 00 00 00 00 00 00 00
 12.292617 1  42C             Rx   d 8 80 00 00 00 00 00 00 00
 12.310862 1  242             Rx   d 8 FF FF 3F FF BA 00 03 00
 12.339936 1  42C             Rx   d 8 80 00 00 00 00 00 00 00
 12.350081 1  242             Rx   d 8 FF FF 3F FF BA 00 03 00
 12.350364 1  3B5             Rx   d 8 FF FD FF FD FF FD FF FD
 12.389497 1  242             Rx   d 8 FF FF 3F FF BA 00 03 00
 12.389926 1  40A             Rx   d 8 C1 00 57 46 30 4A 58 58
 12.390219 1  42C             Rx   d 8 80 00 00 00 00 00 00 00
 12.409706 1  41              Rx   d 8 00 00 00 00 00 00 00 00
 12.429368 1  242             Rx   d 8 FF FF 3F FF BA 00 03 00
 12.448623 1  41              Rx   d 8 00 00 00 00 00 00 00 00
 12.468174 1  242             Rx   d 8 FF FF 3F FF BA 00 03 00
 12.488172 1  42C             Rx   d 8 80 00 00 00 00 00 00 00
 12.507397 1  41              Rx   d 8 00 00 00 00 00 00 00 00
 12.536880 1  3B7             Rx   d 8 00 00 00 00 00 00 00 00
 12.566615 1  41              Rx   d 8 00 00 00 00 00 00 00 00
 12.586254 1  242             Rx   d 8 FF FF 3F FF BA 00 03 00
 12.586708 1  42C             Rx   d 8 80 00 00 00 00 00 00 00
 12.625867 1  41              Rx   d 8 00 00 00 00 00 00 00 00
 12.645382 1  41              Rx   d 8 00 00 00 00 00 00 00 00
 12.664744 1  242             Rx   d 8 FF FF 3F FF BA 00 03 00
 12.684824 1  84              Rx   d 8 00 00 00 01 05 01 0C 00
 12.704035 1  242             Rx   d 8 FF FF 3F FF BA 00 03 00
 12.733114 1  42C             Rx   d 8 80 00 00 00 00 00 00 00
 12.743359 1  242             Rx   d 8 FF FF 3F FF BA 00 03 00
 12.778877 1  581             Rx   d 8 81 00 FF FF FF FF FF FF
 12.783159 1  3B1             Rx   d 8 00 00 00 00 00 00 00 00
 12.783440 1  3B6             Rx   d 8 09 00 00 00 00 00 00 00
 12.783842 1  3B8             Rx   d 8 FF FF FF FF 00 00 00 00
 12.784127 1  3E3             Rx   d 8 00 00 00 00 80 00 00 00
 12.784631 1  40A             Rx   d 8 C1 02 32 38 38 33 36 00
 12.784920 1  42C             Rx   d 8 80 00 00 00 00 00 00 00
 12.785469 1  447             Rx   d 8 20 00 00 4B 00 00 00 00
 12.822513 1  41              Rx   d 8 00 00 00 00 00 00 00 00
 12.831666 1  42C             Rx   d 8 80 00 00 00 00 00 00 00
 12.842065 1  3B5             Rx   d 8 FF FD FF FD FF FD FF FD
 12.861566 1  242             Rx   d 8 FF FF 3F FF BA 00 03 00
 12.881475 1  3B3             Rx   d 8 10 88 00 00 E6 00 03 3C
 12.881491 1  3C3             Rx   d 8 40 88 00 E8 00 00 81 00
 12.900721 1  242             Rx   d 8 FF FF 3F FF BA 00 03 00
 12.929833 1  42C             Rx   d 8 80 00 00 00 00 00 00 00
 12.939883 1  242             Rx   d 8 FF FF 3F FF BA 00 03 00
 12.979196 1  242             Rx   d 8 FF FF 3F FF BA 00 03 00
 12.979448 1  40A             Rx   d 8 C1 04 01 8A 07 54 85 41
 12.999374 1  41              Rx   d 8 00 00 00 00 00 00 00 00
 13.019081 1  242             Rx   d 8 FF FF 3F FF BA 00 03 00
 13.028213 1  3B6             Rx   d 8 09 00 00 00 00 00 00 00
 13.028440 1  3B7             Rx   d 8 00 00 00 00 00 00 00 00
 13.057871 1  242             Rx   d 8 FF FF 3F FF BA 00 03 00
 13.077938 1  42C             Rx   d 8 80 00 00 00 00 00 00 00
 13.097347 1  242             Rx   d 8 FF FF 3F FF BA 00 03 00
 13.126343 1  42C             Rx   d 8 80 00 00 00 00 00 00 00
 13.136543 1  242             Rx   d 8 FF FF 3F FF BA 00 03 00
 13.176239 1  242             Rx   d 8 FF FF 3F FF BA 00 03 00
 13.176254 1  40A             Rx   d 8 C1 10 40 84 20 08 80 00
 13.215565 1  41              Rx   d 8 00 00 00 00 00 00 00 00
 13.235185 1  41              Rx   d 8 00 00 00 00 00 00 00 00
 13.254444 1  242             Rx   d 8 FF FF 3F FF BA 00 03 00
 13.274958 1  3B6             Rx   d 8 09 00 00 00 00 00 00 00
 13.275238 1  3B7             Rx   d 8 00 00 00 00 00 00 00 00
 13.275577 1  42C             Rx   d 8 80 00 00 00 00 00 00 00
 13.293661 1  41              Rx   d 8 00 00 00 00 00 00 00 00
 13.293839 1  242             Rx   d 8 FF FF 3F FF BA 00 03 00
 13.314032 1  41              Rx   d 8 00 00 00 00 00 00 00 00
 13.333105 1  242             Rx   d 8 FF FF 3F FF BA 00 03 00
 13.333303 1  3B5             Rx   d 8 FF FD FF FD FF FD FF FD
 13.372540 1  242             Rx   d 8 FF FF 3F FF BA 00 03 00
 13.372914 1  3B3             Rx   d 8 10 88 00 00 E6 00 03 3C
 13.373269 1  42C             Rx   d 8 80 00 00 00 00 00 00 00
 13.392376 1  41              Rx   d 8 00 00 00 00 00 00 00 00
 13.421394 1  42C             Rx   d 8 80 00 00 00 00 00 00 00
 13.471107 1  42C             Rx   d 8 80 00 00 00 00 00 00 00
 13.490433 1  41              Rx   d 8 00 00 00 00 00 00 00 00
 13.510745 1  41              Rx   d 8 00 00 00 00 00 00 00 00
 13.519765 1  3B7             Rx   d 8 00 00 00 00 00 00 00 00
 13.519967 1  42C             Rx   d 8 80 00 00 00 00 00 00 00
 13.529473 1  41              Rx   d 8 00 00 00 00 00 00 00 00
 13.568822 1  41              Rx   d 8 00 00 00 00 00 00 00 00
 13.569023 1  242             Rx   d 8 FF FF 3F FF BA 00 03 00
 13.569499 1  42C             Rx   d 8 80 00 00 00 00 00 00 00
 13.588979 1  41              Rx   d 8 00 00 00 00 00 00 00 00
 13.608832 1  242             Rx   d 8 FF FF 3F FF BA 00 03 00
 13.617846 1  42C             Rx   d 8 80 00 00 00 00 00 00 00
 13.647650 1  242             Rx   d 8 FF FF 3F FF BA 00 03 00
 13.667727 1  42C             Rx   d 8 80 00 00 00 00 00 00 00
 13.687023 1  84              Rx   d 8 00 00 00 01 05 02 0C 00
 13.716136 1  42C             Rx   d 8 80 00 00 00 00 00 00 00
 13.726422 1  242             Rx   d 8 FF FF 3F FF BA 00 03 00
 13.761980 1  581             Rx   d 8 81 00 FF FF FF FF FF FF
 13.766054 1  38D             Rx   d 8 20 00 00 00 00 00 0C F0
 13.766718 1  3B1             Rx   d 8 00 00 00 00 00 00 00 00
 13.766763 1  3B7             Rx   d 8 00 00 00 00 00 00 00 00
 13.767131 1  3E3             Rx   d 8 00 00 00 00 80 00 00 00
 13.767385 1  3EB             Rx   d 8 01 04 04 00 00 00 00 00
 13.767840 1  42C             Rx   d 8 80 00 00 00 00 00 00 00
 13.768328 1  447             Rx   d 8 20 00 00 4B 00 00 00 00
 13.805432 1  242             Rx   d 8 FF FF 3F FF BA 00 03 00
 13.814623 1  42C             Rx   d 8 80 00 00 00 00 00 00 00
 13.825158 1  3B5             Rx   d 8 FF FD FF FD FF FD FF FD
 13.844256 1  242             Rx   d 8 FF FF 3F FF BA 00 03 00
 13.864772 1  3B3             Rx   d 8 10 88 00 00 E6 00 03 3C
 13.864783 1  3C3             Rx   d 8 40 88 00 E8 00 00 81 00
 13.883596 1  242             Rx   d 8 FF FF 3F FF BA 00 03 00
 13.912704 1  42C             Rx   d 8 80 00 00 00 00 00 00 00
 13.922901 1  242             Rx   d 8 FF FF 3F FF BA 00 03 00
 13.962308 1  242             Rx   d 8 FF FF 3F FF BA 00 03 00
 13.962556 1  40A             Rx   d 8 C1 02 32 38 38 33 36 00
 14.002045 1  41              Rx   d 8 00 00 00 00 00 00 00 00
 14.011208 1  3B6             Rx   d 8 09 00 00 00 00 00 00 00
 14.011363 1  3B7             Rx   d 8 00 00 00 00 00 00 00 00
 14.021409 1  41              Rx   d 8 00 00 00 00 00 00 00 00
 14.040820 1  41              Rx   d 8 00 00 00 00 00 00 00 00
 14.040919 1  242             Rx   d 8 FF FF 3F FF BA 00 03 00
 14.060880 1  42C             Rx   d 8 80 00 00 00 00 00 00 00
 14.080176 1  242             Rx   d 8 FF FF 3F FF BA 00 03 00
 14.109634 1  42C             Rx   d 8 80 00 00 00 00 00 00 00
 14.120027 1  242             Rx   d 8 FF FF 3F FF BA 00 03 00
 14.120250 1  3B3             Rx   d 8 10 80 00 00 E6 00 03 3C
 14.178849 1  41              Rx   d 8 00 00 00 00 00 00 00 00
 14.198691 1  242             Rx   d 8 FF FF 3F FF BA 00 03 00
 14.218089 1  41              Rx   d 8 00 00 00 00 00 00 00 00
 14.237425 1  242             Rx   d 8 FF FF 3F FF BA 00 03 00
 14.258023 1  3B6             Rx   d 8 09 00 00 00 00 00 00 00
 14.258031 1  3B7             Rx   d 8 00 00 00 00 00 00 00 00
 14.258483 1  42C             Rx   d 8 80 00 00 00 00 00 00 00
 14.276877 1  242             Rx   d 8 FF FF 3F FF BA 00 03 00
 14.306027 1  42C             Rx   d 8 80 00 00 00 00 00 00 00
 14.316188 1  242             Rx   d 8 FF FF 3F FF BA 00 03 00
 14.355357 1  41              Rx   d 8 00 00 00 00 00 00 00 00
 14.355937 1  3B3             Rx   d 8 10 80 00 00 E6 00 03 3C
 14.356197 1  42C             Rx   d 8 80 00 00 00 00 00 00 00
 14.375381 1  41              Rx   d 8 00 00 00 00 00 00 00 00
 14.395401 1  242             Rx   d 8 FF FF 3F FF BA 00 03 00
 14.414743 1  41              Rx   d 8 00 00 00 00 00 00 00 00
 14.434101 1  41              Rx   d 8 00 00 00 00 00 00 00 00
 14.434158 1  242             Rx   d 8 FF FF 3F FF BA 00 03 00
 14.454119 1  42C             Rx   d 8 80 00 00 00 00 00 00 00
 14.473334 1  41              Rx   d 8 00 00 00 00 00 00 00 00
 14.493636 1  41              Rx   d 8 00 00 00 00 00 00 00 00
 14.502820 1  3B7             Rx   d 8 00 00 00 00 00 00 00 00
 14.503062 1  42C             Rx   d 8 80 00 00 00 00 00 00 00
 14.512776 1  41              Rx   d 8 00 00 00 00 00 00 00 00
 14.532705 1  41              Rx   d 8 00 00 00 00 00 00 00 00
 14.552059 1  242             Rx   d 8 FF FF 3F FF BA 00 03 00
 14.552202 1  40A             Rx   d 8 C0 00 00 23 5F 42 6A 00
 14.571902 1  41              Rx   d 8 00 00 00 00 00 00 00 00
 14.591813 1  242             Rx   d 8 FF FF 3F FF BA 00 03 00
 14.600878 1  42C             Rx   d 8 80 00 00 00 00 00 00 00
 14.630997 1  41              Rx   d 8 00 00 00 00 00 00 00 00
 14.650717 1  42C             Rx   d 8 80 00 00 00 00 00 00 00
 14.669827 1  41              Rx   d 8 00 00 00 00 00 00 00 00
 14.690223 1  41              Rx   d 8 00 00 00 00 00 00 00 00
 14.699227 1  42C             Rx   d 8 80 00 00 00 00 00 00 00
 14.709289 1  242             Rx   d 8 FF FF 3F FF BA 00 03 00
 14.729394 1  41              Rx   d 8 00 00 00 00 00 00 00 00
 14.748376 1  41              Rx   d 8 00 00 00 00 00 00 00 00
 14.748817 1  38D             Rx   d 8 20 00 00 00 00 00 0C F0
 14.749075 1  3B1             Rx   d 8 00 00 00 00 00 00 00 00
 14.749579 1  3B7             Rx   d 8 00 00 00 00 00 00 00 00
 14.749814 1  3B8             Rx   d 8 FF FF FF FF 00 00 00 00
 14.750380 1  3EB             Rx   d 8 01 04 04 00 00 00 00 00
 14.750585 1  40A             Rx   d 8 C1 00 57 46 30 4A 58 58
 14.751077 1  43C             Rx   d 8 B2 00 4B 2C 3C 99 88 14
 14.768642 1  41              Rx   d 8 00 00 00 00 00 00 00 00
 14.788396 1  242             Rx   d 8 FF FF 3F FF BA 00 03 00
 14.797348 1  3B4             Rx   d 8 34 21 11 FF 1E 1A 00 00
 14.808050 1  41              Rx   d 8 00 00 00 00 00 00 00 00
 14.827075 1  41              Rx   d 8 00 00 00 00 00 00 00 00
 14.827470 1  3C7             Rx   d 8 00 00 40 00 00 00 00 00
 14.847342 1  3B3             Rx   d 8 10 80 00 00 E6 00 03 3C
 14.847606 1  3C3             Rx   d 8 40 88 00 E0 00 00 81 00
 14.847908 1  42C             Rx   d 8 80 00 00 00 00 00 00 00
 14.866552 1  242             Rx   d 8 FF FF 3F FF BA 00 03 00
 14.886792 1  41              Rx   d 8 00 00 00 00 00 00 00 00
 14.906001 1  242             Rx   d 8 FF FF 3F FF BA 00 03 00
 14.945196 1  41              Rx   d 8 00 00 00 00 00 00 00 00
 14.945830 1  40A             Rx   d 8 C1 01 47 41 48 4A 48 45
 14.965117 1  41              Rx   d 8 00 00 00 00 00 00 00 00
 14.985144 1  242             Rx   d 8 FF FF 3F FF BA 00 03 00
 14.994095 1  3B6             Rx   d 8 09 00 00 00 00 00 00 00
 14.994360 1  3B7             Rx   d 8 00 00 00 00 00 00 00 00
 14.994602 1  42C             Rx   d 8 80 00 00 00 00 00 00 00
 15.004424 1  41              Rx   d 8 00 00 00 00 00 00 00 00
 15.023820 1  242             Rx   d 8 FF FF 3F FF BA 00 03 00
 15.043954 1  41              Rx   d 8 00 00 00 00 00 00 00 00
 15.063140 1  242             Rx   d 8 FF FF 3F FF BA 00 03 00
 15.083804 1  41              Rx   d 8 00 00 00 00 00 00 00 00
 15.102341 1  41              Rx   d 8 00 00 00 00 00 00 00 00
 15.141640 1  41              Rx   d 8 00 00 00 00 00 00 00 00
 15.141831 1  242             Rx   d 8 FF FF 3F FF BA 00 03 00
 15.142256 1  42C             Rx   d 8 80 00 00 00 00 00 00 00
 15.161971 1  41              Rx   d 8 00 00 00 00 00 00 00 00
 15.181686 1  242             Rx   d 8 FF FF 3F FF BA 00 03 00
 15.190720 1  42C             Rx   d 8 80 00 00 00 00 00 00 00
 15.220560 1  242             Rx   d 8 FF FF 3F FF BA 00 03 00
 15.240589 1  41              Rx   d 8 00 00 00 00 00 00 00 00
 15.240977 1  3B7             Rx   d 8 00 00 00 00 00 00 00 00
 15.241476 1  42C             Rx   d 8 80 00 00 00 00 00 00 00
 15.259857 1  242             Rx   d 8 FF FF 3F FF BA 00 03 00
 15.288922 1  42C             Rx   d 8 80 00 00 00 00 00 00 00
 15.299177 1  242             Rx   d 8 FF FF 3F FF BA 00 03 00
 15.299414 1  3B5             Rx   d 8 FF FD FF FD FF FD FF FD
 15.319012 1  41              Rx   d 8 00 00 00 00 00 00 00 00
 15.338615 1  242             Rx   d 8 FF FF 3F FF BA 00 03 00
 15.339311 1  3B3             Rx   d 8 10 80 00 00 E6 00 03 3C
 15.339349 1  40A             Rx   d 8 C1 04 01 8A 07 54 85 41
 15.378285 1  242             Rx   d 8 FF FF 3F FF BA 00 03 00
 15.387171 1  42C             Rx   d 8 80 00 00 00 00 00 00 00
 15.416937 1  41              Rx   d 8 00 00 00 00 00 00 00 00
 15.417128 1  242             Rx   d 8 FF FF 3F FF BA 00 03 00
 15.437087 1  41              Rx   d 8 00 00 00 00 00 00 00 00
 15.456367 1  242             Rx   d 8 FF FF 3F FF BA 00 03 00
 15.476799 1  41              Rx   d 8 00 00 00 00 00 00 00 00
 15.485779 1  3B7             Rx   d 8 00 00 00 00 00 00 00 00
 15.485934 1  42C             Rx   d 8 80 00 00 00 00 00 00 00
 15.495742 1  242             Rx   d 8 FF FF 3F FF BA 00 03 00
 15.534971 1  41              Rx   d 8 00 00 00 00 00 00 00 00
 15.535087 1  242             Rx   d 8 FF FF 3F FF BA 00 03 00
 15.535216 1  40A             Rx   d 8 C1 10 40 84 20 08 80 00
 15.574832 1  41              Rx   d 8 00 00 00 00 00 00 00 00
 15.594223 1  41              Rx   d 8 00 00 00 00 00 00 00 00
 15.613642 1  242             Rx   d 8 FF FF 3F FF BA 00 03 00
 15.633736 1  42C             Rx   d 8 80 00 00 00 00 00 00 00
 15.652964 1  242             Rx   d 8 FF FF 3F FF BA 00 03 00
 15.682299 1  42C             Rx   d 8 80 00 00 00 00 00 00 00
 15.692298 1  84              Rx   d 8 00 00 00 01 05 04 0C 00
 15.692527 1  242             Rx   d 8 FF FF 3F FF BA 00 03 00
 15.712251 1  41              Rx   d 8 00 00 00 00 00 00 00 00
 15.731859 1  38D             Rx   d 8 20 00 00 00 00 00 0C F0
 15.732332 1  3B6             Rx   d 8 09 00 00 00 00 00 00 00
 15.732819 1  3B8             Rx   d 8 FF FF FF FF 00 00 00 00
 15.733323 1  3EB             Rx   d 8 01 04 04 00 00 00 00 00
 15.733567 1  40A             Rx   d 8 C0 00 00 23 5F 42 76 00
 15.734078 1  43C             Rx   d 8 B2 00 4B 2C 3C 99 88 14
 15.734355 1  447             Rx   d 8 20 00 00 4B 00 00 00 00
 15.751836 1  41              Rx   d 8 00 00 00 00 00 00 00 00
 15.771409 1  242             Rx   d 8 FF FF 3F FF BA 00 03 00
 15.780687 1  42C             Rx   d 8 80 00 00 00 00 00 00 00
 15.791002 1  3B5             Rx   d 8 FF FD FF FD FF FD FF FD
 15.810379 1  242             Rx   d 8 FF FF 3F FF BA 00 03 00
 15.810619 1  3C7             Rx   d 8 00 00 40 00 00 00 00 00
 15.830383 1  3B3             Rx   d 8 10 80 00 00 E6 00 03 3C
 15.830791 1  42C             Rx   d 8 80 00 00 00 00 00 00 00
 15.849607 1  41              Rx   d 8 00 00 00 00 00 00 00 00
 15.878729 1  42C             Rx   d 8 80 00 00 00 00 00 00 00
 15.888919 1  242             Rx   d 8 FF FF 3F FF BA 00 03 00
 15.928244 1  242             Rx   d 8 FF FF 3F FF BA 00 03 00
 15.928418 1  40A             Rx   d 8 C1 00 57 46 30 4A 58 58
 15.968038 1  242             Rx   d 8 FF FF 3F FF BA 00 03 00
 15.977119 1  3B6             Rx   d 8 09 00 00 00 00 00 00 00
 15.977424 1  3B7             Rx   d 8 00 00 00 00 00 00 00 00
 16.006859 1  242             Rx   d 8 FF FF 3F FF BA 00 03 00
 16.027162 1  42C             Rx   d 8 80 00 00 00 00 00 00 00
 16.046196 1  242             Rx   d 8 FF FF 3F FF BA 00 03 00
 16.075300 1  42C             Rx   d 8 80 00 00 00 00 00 00 00
 16.085718 1  242             Rx   d 8 FF FF 3F FF BA 00 03 00
 16.124944 1  242             Rx   d 8 FF FF 3F FF BA 00 03 00
 16.125337 1  40A             Rx   d 8 C1 01 47 41 48 4A 48 45
 16.144718 1  41              Rx   d 8 00 00 00 00 00 00 00 00
 16.173842 1  42C             Rx   d 8 80 00 00 00 00 00 00 00
 16.203593 1  41              Rx   d 8 00 00 00 00 00 00 00 00
 16.223681 1  41              Rx   d 8 00 00 00 00 00 00 00 00
 16.223763 1  3B6             Rx   d 8 09 00 00 00 00 00 00 00
 16.223974 1  3B7             Rx   d 8 00 00 00 00 00 00 00 00
 16.224461 1  42C             Rx   d 8 80 00 00 00 00 00 00 00
 16.243017 1  41              Rx   d 8 00 00 00 00 00 00 00 00
 16.243141 1  242             Rx   d 8 FF FF 3F FF BA 00 03 00
 16.282171 1  242             Rx   d 8 FF FF 3F FF BA 00 03 00
 16.282331 1  3B5             Rx   d 8 FF FD FF FD FF FD FF FD
 16.321479 1  242             Rx   d 8 FF FF 3F FF BA 00 03 00
 16.321655 1  3B3             Rx   d 8 10 80 00 00 E6 00 03 3C
 16.322144 1  42C             Rx   d 8 80 00 00 00 00 00 00 00
 16.361262 1  242             Rx   d 8 FF FF 3F FF BA 00 03 00
 16.380657 1  41              Rx   d 8 00 00 00 00 00 00 00 00
 16.400183 1  242             Rx   d 8 FF FF 3F FF BA 00 03 00
 16.420187 1  42C             Rx   d 8 80 00 00 00 00 00 00 00
 16.439500 1  242             Rx   d 8 FF FF 3F FF BA 00 03 00
 16.468654 1  3B7             Rx   d 8 00 00 00 00 00 00 00 00
 16.468909 1  42C             Rx   d 8 80 00 00 00 00 00 00 00
 16.478975 1  242             Rx   d 8 FF FF 3F FF BA 00 03 00
 16.498598 1  41              Rx   d 8 00 00 00 00 00 00 00 00
 16.518121 1  242             Rx   d 8 FF FF 3F FF BA 00 03 00
 16.518343 1  40A             Rx   d 8 C1 04 01 8A 07 54 85 41
 16.537895 1  41              Rx   d 8 00 00 00 00 00 00 00 00
 16.557840 1  242             Rx   d 8 FF FF 3F FF BA 00 03 00
 16.577349 1  41              Rx   d 8 00 00 00 00 00 00 00 00
 16.596648 1  242             Rx   d 8 FF FF 3F FF BA 00 03 00
 16.616789 1  42C             Rx   d 8 80 00 00 00 00 00 00 00
 16.635929 1  41              Rx   d 8 00 00 00 00 00 00 00 00
