date Mon Feb 24 01:16:22.020 PM 2025
base hex  timestamps absolute
internal events logged
Begin Triggerblock Mon Feb 24 01:16:23.534 PM 2025
 0.000000 Start of measurement
 0.000000 1  3B2             Tx   d 8 40 00 00 80 00 00 00 00
 0.000079 1  ErrorFrame
 0.047747 1  47              Rx   d 8 64 22 BC F4 3B 98 00 00
 0.089483 1  47              Rx   d 8 64 7D 93 86 95 15 00 00
 0.109293 1  47              Rx   d 8 64 7D 93 86 95 15 00 00
 0.129269 1  47              Rx   d 8 64 7D 93 86 95 15 00 00
 0.149324 1  47              Rx   d 8 64 7D 93 86 95 15 00 00
 0.169309 1  47              Rx   d 8 64 7D 93 86 95 15 00 00
 0.189296 1  47              Rx   d 8 64 7D 93 86 95 15 00 00
 0.209280 1  47              Rx   d 8 64 7D 93 86 95 15 00 00
 0.209491 1  156             Rx   d 8 4B 00 00 00 01 00 00 00
 0.209664 1  165             Rx   d 8 12 40 00 00 00 00 00 00
 0.209916 1  166             Rx   d 8 7B 00 00 00 00 00 00 00
 0.210171 1  167             Rx   d 8 00 80 07 00 00 1A 18 00
 0.210433 1  171             Rx   d 8 F0 E0 00 00 00 00 00 00
 0.210645 1  178             Rx   d 8 00 00 02 00 06 3C CE 3C
 0.210904 1  179             Rx   d 8 00 00 00 00 22 00 00 00
 0.211156 1  17C             Rx   d 8 00 00 00 00 00 00 00 00
 0.211380 1  200             Rx   d 8 00 00 80 28 80 28 F0 00
 0.211621 1  202             Rx   d 8 00 F4 50 00 20 00 00 00
 0.211862 1  204             Rx   d 8 C0 00 7D 00 00 00 00 00
 0.212126 1  230             Rx   d 8 F0 1C 00 00 00 00 00 00
 0.212359 1  421             Rx   d 8 04 00 01 00 00 00 00 00
 0.212609 1  424             Rx   d 8 00 00 00 01 00 00 00 00
 0.212856 1  42D             Rx   d 8 00 01 60 00 00 00 F0 00
 0.213087 1  42F             Rx   d 8 9F 01 84 00 00 66 00 00
 0.213337 1  43D             Rx   d 8 10 00 21 00 00 00 00 00
 0.213591 1  43E             Rx   d 8 00 00 10 00 00 00 00 00
 0.213833 1  595             Rx   d 8 95 00 FF FF FF FF FF FF
 0.219489 1  167             Rx   d 8 00 80 09 00 00 1A 18 00
 0.219526 1  204             Rx   d 8 C0 00 7D 00 00 00 00 00
 0.229445 1  47              Rx   d 8 64 7D 93 86 95 15 00 00
 0.229484 1  165             Rx   d 8 12 40 00 00 00 00 00 00
 0.229689 1  167             Rx   d 8 00 80 0B 00 00 1A 18 00
 0.229919 1  200             Rx   d 8 00 00 80 28 80 28 F0 00
 0.230154 1  202             Rx   d 8 00 F2 60 00 20 00 00 00
 0.230415 1  204             Rx   d 8 C0 00 7D 00 00 00 00 00
 0.230652 1  230             Rx   d 8 F0 1C 00 00 00 00 00 00
 0.239399 1  167             Rx   d 8 00 80 0B 00 00 1A 18 00
 0.239430 1  171             Rx   d 8 F0 E0 00 00 00 00 00 00
 0.239691 1  204             Rx   d 8 C0 00 7D 00 00 00 00 00
 0.239920 1  42F             Rx   d 8 7F 02 02 00 00 66 00 00
 0.249411 1  47              Rx   d 8 64 7D 93 86 95 15 00 00
 0.249444 1  165             Rx   d 8 12 40 00 00 00 00 00 00
 0.249695 1  167             Rx   d 8 00 80 0C 00 00 1A 18 00
 0.249912 1  200             Rx   d 8 00 00 80 28 80 28 F0 00
 0.250179 1  202             Rx   d 8 00 F0 70 00 20 00 00 00
 0.250416 1  204             Rx   d 8 C0 00 7D 00 00 00 00 00
 0.250661 1  230             Rx   d 8 F0 1C 00 00 00 00 00 00
 0.259489 1  167             Rx   d 8 00 80 0D 00 00 1A 18 00
 0.259529 1  204             Rx   d 8 C0 00 7D 00 00 00 00 00
 0.259763 1  43D             Rx   d 8 10 00 21 00 00 00 00 00
 0.259976 1  43E             Rx   d 8 00 00 10 00 00 00 00 00
 0.269417 1  47              Rx   d 8 64 7D 93 86 95 15 00 00
 0.269453 1  165             Rx   d 8 12 40 00 00 00 00 00 00
 0.269677 1  167             Rx   d 8 00 80 0D 00 00 1A 18 00
 0.269939 1  171             Rx   d 8 F0 E0 00 00 00 00 00 00
 0.270195 1  200             Rx   d 8 00 00 80 28 80 28 F0 00
 0.270706 1  202             Rx   d 8 00 FE 00 00 20 00 00 00
 0.270731 1  204             Rx   d 8 C0 00 7D 00 00 00 00 00
 0.271287 1  230             Rx   d 8 F0 1C 00 00 00 00 00 00
 0.271327 1  42F             Rx   d 8 7D 02 05 00 00 65 00 00
 0.279290 1  167             Rx   d 8 00 80 0E 00 00 1A 1F 00
 0.279455 1  204             Rx   d 8 C0 00 7D 00 00 00 00 00
 0.289409 1  47              Rx   d 8 64 7D 93 86 95 15 00 00
 0.289440 1  165             Rx   d 8 12 40 00 00 00 00 00 00
 0.289686 1  167             Rx   d 8 00 80 10 00 00 1A 1F 00
 0.289921 1  200             Rx   d 8 00 00 80 28 80 28 F0 00
 0.290198 1  202             Rx   d 8 00 FC 10 00 20 00 00 00
 0.290436 1  204             Rx   d 8 C0 00 7D 00 00 00 00 00
 0.290651 1  230             Rx   d 8 F0 1C 00 00 00 00 00 00
 0.299488 1  167             Rx   d 8 00 80 10 00 00 1A 1F 00
 0.299527 1  171             Rx   d 8 F0 E0 00 00 00 00 00 00
 0.299695 1  204             Rx   d 8 C0 00 7D 00 00 00 00 00
 0.300015 1  42F             Rx   d 8 7D 02 05 00 00 65 00 00
 0.309381 1  47              Rx   d 8 64 7D 93 86 95 15 00 00
 0.309409 1  156             Rx   d 8 4B 00 00 00 01 00 00 00
 0.309685 1  165             Rx   d 8 10 40 00 00 00 00 00 00
 0.310001 1  166             Rx   d 8 78 00 00 00 00 00 00 00
 0.310267 1  167             Rx   d 8 00 80 11 00 00 1A 21 00
 0.310670 1  178             Rx   d 8 00 00 02 00 06 3C CE 3C
 0.310689 1  179             Rx   d 8 00 00 00 00 22 00 00 00
 0.311156 1  17C             Rx   d 8 00 00 00 00 00 00 00 00
 0.311184 1  200             Rx   d 8 00 00 80 27 80 27 F0 00
 0.311511 1  202             Rx   d 8 00 FA 20 00 20 00 00 00
 0.311895 1  204             Rx   d 8 C0 00 7D 00 00 00 00 00
 0.311906 1  230             Rx   d 8 F0 1C 00 00 00 00 00 00
 0.312134 1  421             Rx   d 8 04 00 01 00 00 00 00 00
 0.312407 1  424             Rx   d 8 00 00 00 01 00 00 00 00
 0.312598 1  42D             Rx   d 8 00 01 60 00 00 00 F0 00
 0.312852 1  43D             Rx   d 8 10 00 21 00 00 00 00 00
 0.313108 1  43E             Rx   d 8 00 00 10 00 00 00 00 00
 0.319278 1  167             Rx   d 8 00 80 13 00 00 1A 21 00
 0.319447 1  204             Rx   d 8 C0 00 7D 00 00 00 00 00
 0.329307 1  47              Rx   d 8 64 7D 93 86 95 15 00 00
 0.329491 1  165             Rx   d 8 10 40 00 00 00 00 00 00
 0.329650 1  167             Rx   d 8 00 80 13 00 00 1A 21 00
 0.329912 1  171             Rx   d 8 F0 E0 00 00 00 00 00 00
 0.330179 1  200             Rx   d 8 00 00 80 27 80 27 F0 00
 0.330416 1  202             Rx   d 8 00 F8 30 00 20 00 00 00
 0.330651 1  204             Rx   d 8 C0 00 7D 00 00 00 00 00
 0.330889 1  230             Rx   d 8 F0 1C 00 00 00 00 00 00
 0.331123 1  42F             Rx   d 8 7D 02 05 00 00 65 00 00
 0.339476 1  167             Rx   d 8 00 80 14 00 00 1A 21 00
 0.339514 1  204             Rx   d 8 C0 00 7D 00 00 00 00 00
 0.349431 1  47              Rx   d 8 64 7D 93 86 95 15 00 00
 0.349460 1  165             Rx   d 8 10 40 00 00 00 00 00 00
 0.349690 1  167             Rx   d 8 00 80 15 00 00 1A 21 00
 0.350022 1  200             Rx   d 8 00 00 80 27 80 27 F0 00
 0.350447 1  202             Rx   d 8 00 F6 40 00 20 00 00 00
 0.350468 1  204             Rx   d 8 C0 00 7D 00 00 00 00 00
 0.350775 1  230             Rx   d 8 F0 1C 00 00 00 00 00 00
 0.359264 1  167             Rx   d 8 00 80 15 00 00 1A 21 00
 0.359426 1  171             Rx   d 8 F0 E0 00 00 00 00 00 00
 0.359660 1  204             Rx   d 8 C0 00 7D 00 00 00 00 00
 0.359914 1  42F             Rx   d 8 7D 02 05 00 00 65 00 00
 0.360146 1  43D             Rx   d 8 10 00 21 00 00 00 00 00
 0.360408 1  43E             Rx   d 8 00 00 10 00 00 00 00 00
 0.369399 1  47              Rx   d 8 64 7D 93 86 95 15 00 00
 0.369428 1  165             Rx   d 8 10 40 00 00 00 00 00 00
 0.369693 1  167             Rx   d 8 00 80 16 00 00 1A 21 00
 0.369906 1  200             Rx   d 8 00 00 80 27 80 27 F0 00
 0.370199 1  202             Rx   d 8 00 F4 50 00 20 00 00 00
 0.370428 1  204             Rx   d 8 C0 00 7D 00 00 00 00 00
 0.370655 1  230             Rx   d 8 F0 1C 00 00 00 00 00 00
 0.379456 1  167             Rx   d 8 00 80 17 00 00 1A 21 00
 0.379491 1  204             Rx   d 8 C0 00 7D 00 00 00 00 00
 0.389440 1  47              Rx   d 8 64 7D 93 86 95 15 00 00
 0.389471 1  165             Rx   d 8 10 40 00 00 00 00 00 00
 0.389660 1  167             Rx   d 8 00 80 17 00 00 1A 21 00
 0.389994 1  171             Rx   d 8 F0 E0 00 00 00 00 00 00
 0.390282 1  200             Rx   d 8 00 00 80 27 80 27 F0 00
 0.390700 1  202             Rx   d 8 00 F2 60 00 20 00 00 00
 0.390724 1  204             Rx   d 8 C0 00 7D 00 00 00 00 00
 0.391008 1  230             Rx   d 8 F0 1C 00 00 00 00 00 00
 0.391298 1  42F             Rx   d 8 7D 02 05 00 00 65 00 00
 0.399282 1  167             Rx   d 8 00 80 17 00 00 1A 21 00
 0.399451 1  204             Rx   d 8 C0 00 7D 00 00 00 00 00
 0.409270 1  47              Rx   d 8 64 7D 93 86 95 15 00 00
 0.409443 1  156             Rx   d 8 4B 00 00 00 01 00 00 00
 0.409663 1  165             Rx   d 8 10 40 00 00 00 00 00 00
 0.409904 1  166             Rx   d 8 77 00 00 00 00 00 00 00
 0.410165 1  167             Rx   d 8 00 80 18 00 00 1A 21 00
 0.410404 1  178             Rx   d 8 00 00 02 00 06 3C CE 3C
 0.410620 1  179             Rx   d 8 00 00 00 00 22 00 00 00
 0.410870 1  17C             Rx   d 8 00 00 00 00 00 00 00 00
 0.411131 1  200             Rx   d 8 00 00 80 27 80 27 F0 00
 0.411365 1  202             Rx   d 8 00 F0 70 00 20 00 00 00
 0.411607 1  204             Rx   d 8 C0 00 7D 00 00 00 00 00
 0.411898 1  230             Rx   d 8 F0 1C 00 00 00 00 00 00
 0.412162 1  421             Rx   d 8 04 00 01 00 00 00 00 00
 0.412656 1  424             Rx   d 8 00 00 00 01 00 00 00 00
 0.412683 1  42D             Rx   d 8 00 01 60 00 00 00 F0 00
 0.412891 1  43D             Rx   d 8 10 00 21 00 00 00 00 00
 0.413156 1  43E             Rx   d 8 00 00 10 00 00 00 00 00
 0.419540 1  167             Rx   d 8 00 80 18 00 00 1A 21 00
 0.419584 1  171             Rx   d 8 F0 E0 00 00 00 00 00 00
 0.419796 1  204             Rx   d 8 C0 00 7D 00 00 00 00 00
 0.419988 1  42F             Rx   d 8 7D 02 05 00 00 65 00 00
 0.429460 1  47              Rx   d 8 64 7D 93 86 95 15 00 00
 0.429509 1  165             Rx   d 8 10 40 00 00 00 00 00 00
 0.429769 1  167             Rx   d 8 00 80 18 00 00 1A 21 00
 0.430264 1  200             Rx   d 8 00 00 80 27 80 27 F0 00
 0.430286 1  202             Rx   d 8 00 FE 00 00 20 00 00 00
 0.430788 1  204             Rx   d 8 C0 00 7D 00 00 00 00 00
 0.430818 1  230             Rx   d 8 F0 1C 00 00 00 00 00 00
 0.439277 1  167             Rx   d 8 00 80 19 00 00 1A 21 00
 0.439467 1  204             Rx   d 8 80 00 7D 00 00 00 00 00
 0.449454 1  47              Rx   d 8 64 7D 93 86 95 15 00 00
 0.449486 1  165             Rx   d 8 10 41 00 00 00 00 00 00
 0.449713 1  167             Rx   d 8 00 80 19 00 00 1A 21 00
 0.449925 1  171             Rx   d 8 F0 E0 00 00 00 00 00 00
 0.450171 1  200             Rx   d 8 00 00 80 27 80 27 F0 00
 0.450453 1  202             Rx   d 8 00 FC 10 00 20 00 00 00
 0.450655 1  204             Rx   d 8 80 00 7D 00 00 00 00 00
 0.450894 1  230             Rx   d 8 F0 1C 00 00 00 00 00 00
 0.451149 1  42F             Rx   d 8 7D 02 05 00 00 65 00 00
 0.459447 1  167             Rx   d 8 00 80 19 00 00 1A 21 00
 0.459485 1  204             Rx   d 8 80 00 7D 00 00 00 00 00
 0.459755 1  43D             Rx   d 8 10 00 21 00 00 00 00 00
 0.460008 1  43E             Rx   d 8 00 00 10 00 00 00 00 00
 0.469776 1  47              Rx   d 8 64 7D 93 86 95 15 00 00
 0.469842 1  165             Rx   d 8 10 41 00 00 00 00 00 00
 0.469851 1  167             Rx   d 8 00 80 1A 00 00 1A 21 00
 0.470276 1  200             Rx   d 8 00 00 80 27 80 27 F0 00
 0.470304 1  202             Rx   d 8 00 CC 00 00 20 00 00 00
 0.470834 1  204             Rx   d 8 80 00 7D 00 00 00 00 00
 0.470871 1  230             Rx   d 8 F0 1C 00 00 00 00 00 00
 0.479273 1  167             Rx   d 8 00 80 1A 00 00 1A 21 00
 0.479467 1  171             Rx   d 8 F0 E0 00 00 00 00 00 00
 0.479669 1  204             Rx   d 8 80 00 7D 00 00 00 00 00
 0.479942 1  42F             Rx   d 8 7D 02 05 4E 20 65 00 00
 0.489450 1  47              Rx   d 8 64 7D 93 86 95 15 00 00
 0.489484 1  165             Rx   d 8 10 41 00 00 00 00 00 00
 0.489693 1  167             Rx   d 8 00 80 1A 00 00 1A 21 00
 0.489928 1  200             Rx   d 8 00 00 80 27 80 27 F0 00
 0.490171 1  202             Rx   d 8 00 CC 00 00 20 00 00 00
 0.490438 1  204             Rx   d 8 80 00 7D 00 00 00 00 00
 0.490646 1  230             Rx   d 8 F0 1C 00 00 00 00 00 00
 0.499541 1  167             Rx   d 8 00 80 1A 00 00 1A 21 00
 0.499622 1  204             Rx   d 8 80 00 7D 00 00 00 00 00
 0.509543 1  47              Rx   d 8 64 7D 93 86 95 15 00 00
 0.509590 1  156             Rx   d 8 4B 00 00 00 03 00 00 00
 0.510244 1  165             Rx   d 8 10 41 00 00 00 00 00 00
 0.510282 1  166             Rx   d 8 76 00 00 00 00 00 00 00
 0.510287 1  167             Rx   d 8 00 80 1A 00 00 1A 21 00
 0.510947 1  171             Rx   d 8 F0 E0 00 00 00 00 00 00
 0.510968 1  178             Rx   d 8 00 00 02 00 05 60 CE 39
 0.510972 1  179             Rx   d 8 00 00 08 00 22 00 00 00
 0.511189 1  17C             Rx   d 8 00 00 00 00 00 00 00 00
 0.511410 1  200             Rx   d 8 00 00 80 27 80 27 F0 00
 0.511642 1  202             Rx   d 8 00 CC 00 00 20 00 00 00
 0.511869 1  204             Rx   d 8 80 00 7D 00 00 00 00 00
 0.512133 1  230             Rx   d 8 F0 1C 00 00 00 00 00 00
 0.512392 1  421             Rx   d 8 04 00 09 00 00 00 00 00
 0.512614 1  424             Rx   d 8 00 00 00 03 00 00 00 00
 0.512864 1  42D             Rx   d 8 00 01 60 00 00 00 F0 00
 0.513093 1  42F             Rx   d 8 7D 02 05 4E 20 65 00 00
 0.513338 1  43D             Rx   d 8 10 00 21 00 00 00 00 00
 0.513605 1  43E             Rx   d 8 00 00 10 00 00 00 00 00
 0.519250 1  167             Rx   d 8 00 80 1A 00 00 1A 21 00
 0.519441 1  204             Rx   d 8 80 00 7D 00 00 00 00 00
 0.529408 1  47              Rx   d 8 64 7D 93 86 95 15 00 00
 0.529440 1  165             Rx   d 8 10 41 00 00 00 00 00 00
 0.529734 1  167             Rx   d 8 00 80 1A 00 00 1A 21 00
 0.529932 1  200             Rx   d 8 00 00 80 27 80 27 F0 00
 0.530169 1  202             Rx   d 8 00 CC 00 00 00 00 00 00
 0.530413 1  204             Rx   d 8 80 00 7D 00 00 00 00 00
 0.530670 1  230             Rx   d 8 F0 1C 00 00 00 00 00 00
 0.539543 1  167             Rx   d 8 00 80 1A 00 00 1A 21 00
 0.539586 1  171             Rx   d 8 F0 E0 00 00 00 00 00 00
 0.539957 1  204             Rx   d 8 80 00 7D 00 00 00 00 00
 0.539976 1  42F             Rx   d 8 7D 02 05 4E 20 65 00 00
 0.550009 1  47              Rx   d 8 64 7D 93 86 95 15 00 00
 0.550069 1  165             Rx   d 8 10 41 00 00 00 00 00 00
 0.550076 1  167             Rx   d 8 00 FF FF 00 00 02 21 00
 0.550080 1  200             Rx   d 8 00 00 80 27 80 27 F0 00
 0.550717 1  202             Rx   d 8 00 CC 00 00 00 00 00 00
 0.550743 1  204             Rx   d 8 80 00 7D 00 00 00 00 00
 0.550749 1  230             Rx   d 8 F0 1C 00 00 00 00 00 00
 0.559272 1  167             Rx   d 8 00 FF FF 00 00 02 21 00
 0.559438 1  204             Rx   d 8 80 00 7D 00 00 00 00 00
 0.559687 1  43D             Rx   d 8 10 00 21 00 00 00 00 00
 0.559923 1  43E             Rx   d 8 00 00 10 00 00 00 00 00
 0.569278 1  47              Rx   d 8 64 7D 93 86 95 15 00 00
 0.569510 1  165             Rx   d 8 10 41 00 00 00 00 00 00
 0.569691 1  167             Rx   d 8 00 FF FF 00 00 02 21 00
 0.569959 1  171             Rx   d 8 F0 E0 00 00 00 00 00 00
 0.570205 1  200             Rx   d 8 00 00 80 27 80 27 F0 00
 0.570431 1  202             Rx   d 8 00 CC 00 00 00 00 00 00
 0.570648 1  204             Rx   d 8 80 00 7D 00 00 00 00 00
 0.570891 1  230             Rx   d 8 F0 1C 00 00 00 00 00 00
 0.571187 1  42F             Rx   d 8 7D 02 05 4E 20 65 00 00
 0.579473 1  167             Rx   d 8 00 FF FF 00 00 02 21 00
 0.579515 1  204             Rx   d 8 80 00 7D 00 00 00 00 00
 0.589485 1  47              Rx   d 8 64 7D 93 86 95 15 00 00
 0.589554 1  165             Rx   d 8 10 41 00 00 00 00 00 00
 0.590235 1  167             Rx   d 8 00 FF FF 00 00 02 21 00
 0.590261 1  200             Rx   d 8 00 00 80 27 80 27 F0 00
 0.590270 1  202             Rx   d 8 00 CC 00 00 00 00 00 00
 0.590762 1  204             Rx   d 8 80 00 7D 00 00 00 00 00
 0.590788 1  230             Rx   d 8 F0 1C 00 00 00 00 00 00
 0.599268 1  167             Rx   d 8 00 FF FF 00 00 02 21 00
 0.599443 1  171             Rx   d 8 F0 E0 00 00 00 00 00 00
 0.599673 1  204             Rx   d 8 80 00 7D 00 00 00 00 00
 0.599906 1  42F             Rx   d 8 7D 02 05 4E 20 65 00 00
 0.609264 1  47              Rx   d 8 64 7D 93 86 95 15 00 00
 0.609472 1  156             Rx   d 8 4B 00 00 00 03 00 00 00
 0.609686 1  165             Rx   d 8 10 41 00 00 00 00 00 00
 0.609924 1  166             Rx   d 8 76 00 00 FF FF FF 00 00
 0.610156 1  167             Rx   d 8 00 FF FF 00 00 02 21 00
 0.610402 1  178             Rx   d 8 00 00 02 00 09 60 CE 35
 0.610660 1  179             Rx   d 8 00 00 08 00 22 FF 00 00
 0.610894 1  17C             Rx   d 8 00 00 00 00 00 00 00 00
 0.611157 1  200             Rx   d 8 00 00 80 27 80 27 F0 00
 0.611391 1  202             Rx   d 8 00 CC 00 00 00 00 00 00
 0.611631 1  204             Rx   d 8 80 00 7D 00 00 00 00 00
 0.611876 1  230             Rx   d 8 F0 1C 00 00 00 00 00 00
 0.612112 1  421             Rx   d 8 04 00 09 00 00 00 00 00
 0.612387 1  424             Rx   d 8 00 00 00 03 00 00 00 00
 0.612620 1  42D             Rx   d 8 00 01 60 00 00 00 F0 00
 0.612873 1  43D             Rx   d 8 10 00 21 00 00 00 00 00
 0.613146 1  43E             Rx   d 8 00 00 10 00 00 00 00 00
 0.619518 1  167             Rx   d 8 00 FF FF 00 00 02 21 00
 0.619562 1  204             Rx   d 8 80 00 7D 00 00 00 00 00
 0.629578 1  47              Rx   d 8 64 7D 93 86 95 15 00 00
 0.629632 1  165             Rx   d 8 10 41 00 00 00 00 00 00
 0.630228 1  167             Rx   d 8 00 FF FF 00 00 02 21 00
 0.630259 1  171             Rx   d 8 F0 E0 00 00 00 00 00 00
 0.630266 1  200             Rx   d 8 00 00 80 27 80 27 F0 00
 0.630755 1  202             Rx   d 8 00 CC 00 00 00 00 00 00
 0.630785 1  204             Rx   d 8 80 00 7D 00 00 00 00 00
 0.631273 1  230             Rx   d 8 F0 1C 00 00 00 00 00 00
 0.631308 1  42F             Rx   d 8 7D 02 05 4E 20 65 00 00
 0.639268 1  167             Rx   d 8 00 FF FF 00 00 02 21 00
 0.639450 1  204             Rx   d 8 80 00 7D 00 00 00 00 00
 0.649313 1  47              Rx   d 8 64 7D 93 86 95 15 00 00
 0.649529 1  165             Rx   d 8 10 41 00 00 00 00 00 00
 0.649665 1  167             Rx   d 8 00 FF FF 00 00 02 21 00
 0.649941 1  200             Rx   d 8 00 00 80 27 80 27 F0 00
 0.650225 1  202             Rx   d 8 00 CC 00 00 00 00 00 00
 0.650432 1  204             Rx   d 8 80 00 7D 00 00 00 00 00
 0.650658 1  230             Rx   d 8 F0 1C 00 00 00 00 00 00
 0.659456 1  167             Rx   d 8 00 FF FF 00 00 02 21 00
 0.659489 1  171             Rx   d 8 F0 E0 00 00 00 00 00 00
 0.659766 1  204             Rx   d 8 80 00 7D 00 00 00 00 00
 0.659960 1  42F             Rx   d 8 7D 02 05 4E 20 65 00 00
 0.660244 1  43D             Rx   d 8 10 00 21 00 00 00 00 00
 0.660474 1  43E             Rx   d 8 00 00 10 00 00 00 00 00
 0.669808 1  47              Rx   d 8 64 7D 93 86 95 15 00 00
 0.669856 1  165             Rx   d 8 10 41 00 00 00 00 00 00
 0.669866 1  167             Rx   d 8 00 FF FF 00 00 02 21 00
 0.670286 1  200             Rx   d 8 00 00 80 27 80 27 F0 00
 0.670320 1  202             Rx   d 8 00 CC 00 00 00 00 00 00
 0.670778 1  204             Rx   d 8 80 00 7D 00 00 00 00 00
 0.670810 1  230             Rx   d 8 F0 1C 00 00 00 00 00 00
 0.679258 1  167             Rx   d 8 00 FF FF 00 00 02 20 00
 0.679428 1  204             Rx   d 8 80 00 7D 00 00 00 00 00
 0.689272 1  47              Rx   d 8 64 7D 93 86 95 15 00 00
 0.689476 1  165             Rx   d 8 10 41 00 00 00 00 00 00
 0.689679 1  167             Rx   d 8 00 FF FF 00 00 02 20 00
 0.689945 1  171             Rx   d 8 F0 E0 00 00 00 00 00 00
 0.690175 1  200             Rx   d 8 00 00 80 27 80 27 F0 00
 0.690405 1  202             Rx   d 8 00 CC 00 00 00 00 00 00
 0.690653 1  204             Rx   d 8 80 00 7D 00 00 00 00 00
 0.690889 1  230             Rx   d 8 F0 1C 00 00 00 00 00 00
 0.691145 1  42F             Rx   d 8 7D 02 05 4E 20 65 00 00
 0.699500 1  167             Rx   d 8 00 FF FF 00 00 02 20 00
 0.699541 1  204             Rx   d 8 80 00 7D 00 00 00 00 00
 0.709545 1  47              Rx   d 8 64 7D 93 86 95 15 00 00
 0.709607 1  156             Rx   d 8 4B 00 00 00 03 00 00 00
 0.710034 1  165             Rx   d 8 10 41 00 00 00 00 00 00
 0.710059 1  166             Rx   d 8 76 00 00 FF FF FF 00 00
 0.710534 1  167             Rx   d 8 00 FF FF 00 00 02 20 00
 0.710564 1  178             Rx   d 8 00 00 02 00 09 60 CE 32
 0.710974 1  179             Rx   d 8 00 00 08 00 22 FF 00 00
 0.710994 1  17C             Rx   d 8 00 00 00 00 00 00 00 00
 0.711161 1  200             Rx   d 8 00 00 80 27 80 27 F0 00
 0.711398 1  202             Rx   d 8 00 CC 00 00 00 00 00 00
 0.711623 1  204             Rx   d 8 80 00 7D 00 00 00 00 00
 0.711873 1  230             Rx   d 8 F0 1C 00 00 00 00 00 00
 0.712157 1  421             Rx   d 8 04 00 09 00 00 00 00 00
 0.712379 1  424             Rx   d 8 00 00 00 03 00 00 00 00
 0.712613 1  42D             Rx   d 8 00 01 60 00 00 00 F0 00
 0.712854 1  43D             Rx   d 8 14 00 21 00 00 00 00 00
 0.713128 1  43E             Rx   d 8 00 00 10 00 00 00 00 00
 0.719415 1  167             Rx   d 8 00 FF FF 00 00 02 20 00
 0.719449 1  171             Rx   d 8 F0 E0 00 00 00 00 00 00
 0.719721 1  204             Rx   d 8 80 00 7D 00 00 00 00 00
 0.719942 1  42F             Rx   d 8 7D 02 05 4E 20 65 00 00
 0.729429 1  47              Rx   d 8 64 7D 93 86 95 15 00 00
 0.729466 1  165             Rx   d 8 10 41 00 00 00 00 00 00
 0.729690 1  167             Rx   d 8 00 FF FF 00 00 02 20 00
 0.729923 1  200             Rx   d 8 00 00 80 27 80 27 F0 00
 0.730168 1  202             Rx   d 8 00 CC 00 00 00 00 00 00
 0.730417 1  204             Rx   d 8 80 00 7D 00 00 00 00 00
 0.730646 1  230             Rx   d 8 F0 1C 00 00 00 00 00 00
 0.739532 1  167             Rx   d 8 00 FF FF 00 00 02 20 00
 0.739584 1  204             Rx   d 8 80 00 7D 00 00 00 00 00
 0.749571 1  47              Rx   d 8 64 7D 93 86 95 15 00 00
 0.749627 1  165             Rx   d 8 10 41 00 00 00 00 00 00
 0.750043 1  167             Rx   d 8 00 FF FF 00 00 02 20 00
 0.750073 1  171             Rx   d 8 F0 E0 00 00 00 00 00 00
 0.750401 1  200             Rx   d 8 00 00 80 27 80 27 F0 00
 0.750415 1  202             Rx   d 8 00 CC 00 00 00 00 00 00
 0.750672 1  204             Rx   d 8 80 00 7D 00 00 00 00 00
 0.750896 1  230             Rx   d 8 F0 1C 00 00 00 00 00 00
 0.751183 1  42F             Rx   d 8 7D 02 05 4E 20 65 00 00
 0.759242 1  167             Rx   d 8 00 FF FF 00 00 02 20 00
 0.759418 1  204             Rx   d 8 80 00 7D 00 00 00 00 00
 0.759688 1  43D             Rx   d 8 14 00 21 00 00 00 00 00
 0.759955 1  43E             Rx   d 8 00 00 10 00 00 00 00 00
 0.769279 1  47              Rx   d 8 64 7D 93 86 95 15 00 00
 0.769474 1  165             Rx   d 8 10 41 00 00 00 00 00 00
 0.769706 1  167             Rx   d 8 00 FF FF 00 00 02 20 00
 0.769933 1  200             Rx   d 8 00 00 80 26 80 26 F0 00
 0.770168 1  202             Rx   d 8 00 CC 00 00 00 00 00 00
 0.770419 1  204             Rx   d 8 80 00 7D 00 00 00 00 00
 0.770657 1  230             Rx   d 8 F0 1C 00 00 00 00 00 00
 0.779568 1  167             Rx   d 8 00 FF FF 00 00 02 20 00
 0.779608 1  171             Rx   d 8 F0 E0 00 00 00 00 00 00
 0.779991 1  204             Rx   d 8 80 00 7D 00 00 00 00 00
 0.780014 1  42F             Rx   d 8 7D 02 05 4E 20 65 00 00
 0.789801 1  47              Rx   d 8 64 7D 93 86 95 15 00 00
 0.789877 1  165             Rx   d 8 10 41 00 00 00 00 00 00
 0.789889 1  167             Rx   d 8 00 FF FF 00 00 02 20 00
 0.790270 1  200             Rx   d 8 00 00 80 26 80 26 F0 00
 0.790287 1  202             Rx   d 8 00 CC 00 00 00 00 00 00
 0.790474 1  204             Rx   d 8 80 00 7D 00 00 00 00 00
 0.790684 1  230             Rx   d 8 F0 1C 00 00 00 00 00 00
 0.799252 1  167             Rx   d 8 00 FF FF 00 00 02 20 00
 0.799483 1  204             Rx   d 8 80 00 7D 00 00 00 00 00
 0.809253 1  47              Rx   d 8 64 7D 93 86 95 15 00 00
 0.809435 1  156             Rx   d 8 4B 00 00 00 03 00 00 00
 0.809666 1  165             Rx   d 8 10 41 00 00 00 00 00 00
 0.809901 1  166             Rx   d 8 76 00 00 FF FF FF 00 00
 0.810162 1  167             Rx   d 8 00 FF FF 00 00 02 20 00
 0.810395 1  171             Rx   d 8 F0 E0 00 00 00 00 00 00
 0.810631 1  178             Rx   d 8 00 00 02 00 09 60 CE 2F
 0.810890 1  179             Rx   d 8 00 00 08 00 22 FF 00 00
 0.811134 1  17C             Rx   d 8 00 00 00 00 00 00 00 00
